# Hz S RI R 50
700000000 0.762765228 0.5533939 -8.434e-06 0.000811581 0 0 0 0
708000000 0.871262252 0.307714939 4.3816e-05 0.001206576 0 0 0 0
716000000 0.902576148 0.034738142 0.000191153 0.001410986 0 0 0 0
724000000 0.848077535 -0.244943007 0.000430615 0.001521716 0 0 0 0
732000000 0.703100502 -0.502465486 0.00052692 0.001749486 0 0 0 0
740000000 0.466963589 -0.699190795 0.000973214 0.001671246 0 0 0 0
748000000 0.15876466 -0.801756799 0.001531633 0.001320144 0 0 0 0
756000000 -0.180171683 -0.769072651 0.001697422 0.001008475 0 0 0 0
764000000 -0.486281245 -0.57621932 0.001915169 0.00040535 0 0 0 0
772000000 -0.667721867 -0.232255056 0.001675152 -0.000291907 0 0 0 0
780000000 -0.623421192 0.199068948 0.001433766 -0.000970025 0 0 0 0
788000000 -0.29683718 0.533053457 0.000785418 -0.002023187 0 0 0 0
796000000 0.19311361 0.560465931 -0.001504709 -0.002899798 0 0 0 0
804000000 0.563775479 0.239040523 -0.004600786 -0.001661687 0 0 0 0
812000000 0.595411658 -0.229373916 -0.005562883 0.002210157 0 0 0 0
820000000 0.327739387 -0.557757914 -0.00284022 0.005776988 0 0 0 0
828000000 -0.050892829 -0.656516253 0.000513102 0.006547143 0 0 0 0
836000000 -0.380557626 -0.552240848 0.003594638 0.00568944 0 0 0 0
844000000 -0.607222199 -0.326579183 0.006340316 0.004036934 0 0 0 0
852000000 -0.710741758 -0.056416958 0.008713211 0.001564529 0 0 0 0
860000000 -0.70023781 0.215343832 0.010798604 -0.001865172 0 0 0 0
868000000 -0.58669883 0.430058062 0.011931411 -0.007432172 0 0 0 0
876000000 -0.393121868 0.569220304 0.010816635 -0.014525974 0 0 0 0
884000000 -0.184366717 0.613194465 0.004443924 -0.022889776 0 0 0 0
892000000 0.019733823 0.546628952 -0.010211132 -0.02772017 0 0 0 0
900000000 0.337782979 0.365901559 -0.033601976 -0.019617199 0 0 0 0
908000000 0.375076234 0.215459555 -0.048319917 0.007616332 0 0 0 0
916000000 0.329628795 0.072202049 -0.035207867 0.045659065 0 0 0 0
924000000 0.217467203 -0.012667854 0.008937426 0.064179122 0 0 0 0
932000000 0.089838273 0.020876497 0.056267391 0.037662521 0 0 0 0
940000000 0.043029237 0.157771855 0.061552375 -0.016154194 0 0 0 0
948000000 0.193979308 0.296657264 0.025972232 -0.046654328 0 0 0 0
956000000 0.403280943 0.231876 -0.008728437 -0.039876677 0 0 0 0
964000000 0.526569545 0.030963245 -0.022698527 -0.020309399 0 0 0 0
972000000 0.503913342 -0.21944563 -0.022132571 -0.003139385 0 0 0 0
980000000 0.328830868 -0.446001768 -0.015215951 0.005654131 0 0 0 0
988000000 0.065933294 -0.537816286 -0.009325121 0.008884824 0 0 0 0
996000000 -0.218366906 -0.516334176 -0.005248497 0.008361582 0 0 0 0
1004000000 -0.463684201 -0.38054043 -0.002719106 0.007719591 0 0 0 0
