# Hz S RI R 50
700000000 0.764189958 0.554813146 -7.2078e-05 0.000610716 0 0 0 0
708000000 0.871479451 0.308399617 -9.4732e-05 0.000768794 0 0 0 0
716000000 0.900145828 0.032403763 -0.000140737 0.001336541 0 0 0 0
724000000 0.8471542 -0.244200989 0.000265607 0.001521795 0 0 0 0
732000000 0.697252571 -0.503631055 0.00038431 0.001629531 0 0 0 0
740000000 0.459497541 -0.701923847 0.000829825 0.001640259 0 0 0 0
748000000 0.148988828 -0.803220212 0.001179981 0.001250864 0 0 0 0
756000000 -0.189677402 -0.76098442 0.001216614 0.001127624 0 0 0 0
764000000 -0.493628442 -0.555693387 0.001470265 0.000842267 0 0 0 0
772000000 -0.66286385 -0.199294432 0.001462216 0.000428808 0 0 0 0
780000000 -0.59506607 0.225322455 0.001417372 -0.000598179 0 0 0 0
788000000 -0.248534217 0.534996688 0.000564538 -0.0015035 0 0 0 0
796000000 0.243017956 0.524569213 -0.001590455 -0.001926842 0 0 0 0
804000000 0.574865221 0.169877201 -0.003545287 0.000202654 0 0 0 0
812000000 0.551796078 -0.287327677 -0.002949679 0.003527968 0 0 0 0
820000000 0.266520798 -0.581351995 -6.1001e-05 0.005057782 0 0 0 0
828000000 -0.112898536 -0.642522573 0.002695983 0.004467833 0 0 0 0
836000000 -0.426677018 -0.50919342 0.0044302 0.002825591 0 0 0 0
844000000 -0.629688143 -0.26649779 0.006391743 0.000880935 0 0 0 0
852000000 -0.704669952 0.009287305 0.007559194 -0.0015666 0 0 0 0
860000000 -0.666071414 0.273715436 0.008447568 -0.004985358 0 0 0 0
868000000 -0.520771145 0.478431612 0.008037831 -0.010114369 0 0 0 0
876000000 -0.306684255 0.581433534 0.004364732 -0.016143368 0 0 0 0
884000000 -0.08013992 0.565823078 -0.005150982 -0.02117207 0 0 0 0
892000000 0.094523288 0.431685864 -0.021444719 -0.018246874 0 0 0 0
900000000 0.315636366 0.205779835 -0.036203503 0.003878918 0 0 0 0
908000000 0.2375952 0.097987294 -0.028023708 0.033042684 0 0 0 0
916000000 0.145680814 0.079730406 0.00526935 0.047149535 0 0 0 0
924000000 0.09549541 0.105603173 0.039823286 0.028952386 0 0 0 0
932000000 0.05021014 0.177422687 0.046016864 -0.011565385 0 0 0 0
940000000 0.115104429 0.295540601 0.01898138 -0.035480342 0 0 0 0
948000000 0.328129887 0.34829241 -0.007623902 -0.028844209 0 0 0 0
956000000 0.50365138 0.202339738 -0.01534924 -0.013483716 0 0 0 0
964000000 0.576569855 -0.041450258 -0.014198006 -0.003064827 0 0 0 0
972000000 0.508814334 -0.279553443 -0.010451878 0.002550281 0 0 0 0
980000000 0.309601843 -0.486110299 -0.005762334 0.005106055 0 0 0 0
988000000 0.035084329 -0.564229726 -0.0032755 0.005394104 0 0 0 0
996000000 -0.247317075 -0.524796903 -0.001983121 0.004947745 0 0 0 0
1004000000 -0.480048984 -0.383463531 -0.001079593 0.004544567 0 0 0 0
