# Hz S RI R 50
700000000 0.760616421 0.549763917 1.5214e-05 0.000596819 0 0 0 0
708000000 0.870363712 0.307659417 9.3411e-05 0.000876008 0 0 0 0
716000000 0.901144623 0.030542772 0.000188006 0.001259252 0 0 0 0
724000000 0.845183074 -0.24544391 0.000228995 0.001299169 0 0 0 0
732000000 0.696615219 -0.506563067 0.000391152 0.001525275 0 0 0 0
740000000 0.454517215 -0.704954504 0.000786939 0.001468973 0 0 0 0
748000000 0.143627598 -0.799227714 0.001090689 0.001297552 0 0 0 0
756000000 -0.196727856 -0.754885196 0.001283896 0.000996779 0 0 0 0
764000000 -0.49882248 -0.547632455 0.001360966 0.000608561 0 0 0 0
772000000 -0.658676803 -0.187181457 0.001346512 5.132e-06 0 0 0 0
780000000 -0.580933928 0.23880884 0.001064825 -0.000530832 0 0 0 0
788000000 -0.222297638 0.535941362 -0.000174743 -0.001073969 0 0 0 0
796000000 0.263605773 0.502927899 -0.001751117 -0.000522359 0 0 0 0
804000000 0.57359004 0.138635873 -0.002709898 0.001777851 0 0 0 0
812000000 0.533094525 -0.311909347 -0.00098391 0.003623848 0 0 0 0
820000000 0.234519943 -0.588156521 0.001866477 0.003889435 0 0 0 0
828000000 -0.137183398 -0.631250262 0.003431831 0.002281955 0 0 0 0
836000000 -0.442114025 -0.488231033 0.00432401 0.000773269 0 0 0 0
844000000 -0.633027434 -0.240667656 0.005087117 -0.00124719 0 0 0 0
852000000 -0.695627868 0.036799494 0.005339373 -0.002965208 0 0 0 0
860000000 -0.642941236 0.295047253 0.005480958 -0.00517896 0 0 0 0
868000000 -0.487542718 0.485556364 0.004728479 -0.008612084 0 0 0 0
876000000 -0.267050921 0.573118448 0.001637481 -0.012385814 0 0 0 0
884000000 -0.045800872 0.536186039 -0.00533323 -0.015132167 0 0 0 0
892000000 0.106246463 0.377534896 -0.017079398 -0.01181001 0 0 0 0
900000000 0.278866738 0.156328216 -0.02641076 0.005671324 0 0 0 0
908000000 0.17308472 0.076637439 -0.017123801 0.027605392 0 0 0 0
916000000 0.081941135 0.086559481 0.01102466 0.033178031 0 0 0 0
924000000 0.025732172 0.145904377 0.031424749 0.011817228 0 0 0 0
932000000 0.025060215 0.268620133 0.024912871 -0.014397698 0 0 0 0
940000000 0.169198513 0.383511424 0.006643426 -0.020365934 0 0 0 0
948000000 0.410987913 0.363215148 -0.004716926 -0.015021277 0 0 0 0
956000000 0.564471542 0.162499755 -0.007324808 -0.007625178 0 0 0 0
964000000 0.599220454 -0.082987837 -0.006963363 -0.002714342 0 0 0 0
972000000 0.500634253 -0.330046623 -0.00620028 8.4523e-05 0 0 0 0
980000000 0.285209327 -0.520704984 -0.004167292 0.001247535 0 0 0 0
988000000 0.002732497 -0.57858175 -0.003963829 0.001935014 0 0 0 0
996000000 -0.27208805 -0.523742198 -0.00276875 0.00233826 0 0 0 0
1004000000 -0.499824881 -0.375751495 -0.003353122 0.002743009 0 0 0 0
