# Hz S RI R 50
700000000 0.76251167 0.548864662 -9.0076e-05 0.000624778 0 0 0 0
708000000 0.866107106 0.306758642 -7.2039e-05 0.000895078 0 0 0 0
716000000 0.89765799 0.032947253 2.4796e-05 0.001226494 0 0 0 0
724000000 0.846433222 -0.248287066 0.000154756 0.001445086 0 0 0 0
732000000 0.69410777 -0.505422472 0.000324617 0.001550568 0 0 0 0
740000000 0.45541349 -0.701266288 0.000557906 0.001459373 0 0 0 0
748000000 0.146305099 -0.800379633 0.00109115 0.00143237 0 0 0 0
756000000 -0.195112749 -0.756837129 0.001252999 0.001277198 0 0 0 0
764000000 -0.497677236 -0.548920631 0.001474345 0.000953784 0 0 0 0
772000000 -0.663410067 -0.189650923 0.001524415 0.000648311 0 0 0 0
780000000 -0.593119025 0.233729422 0.001784651 -0.000193223 0 0 0 0
788000000 -0.233510404 0.542420685 0.00108447 -0.001515249 0 0 0 0
796000000 0.254958927 0.520993292 -0.00102704 -0.001869369 0 0 0 0
804000000 0.579777956 0.156474813 -0.003488784 -0.000513358 0 0 0 0
812000000 0.548281848 -0.295401781 -0.003228735 0.002771362 0 0 0 0
820000000 0.256914585 -0.584045648 -0.000738728 0.004981879 0 0 0 0
828000000 -0.117112591 -0.638959884 0.002280518 0.004488384 0 0 0 0
836000000 -0.430223405 -0.506529808 0.004613893 0.003223617 0 0 0 0
844000000 -0.63714385 -0.266631484 0.006309793 0.000987244 0 0 0 0
852000000 -0.704165995 0.011421005 0.00765529 -0.001579034 0 0 0 0
860000000 -0.668040752 0.278151392 0.008356414 -0.004933679 0 0 0 0
868000000 -0.520147383 0.479254305 0.007706215 -0.010118885 0 0 0 0
876000000 -0.306488186 0.59073019 0.004219599 -0.015729701 0 0 0 0
884000000 -0.071517072 0.575280547 -0.004781428 -0.020147405 0 0 0 0
892000000 0.110167756 0.436865001 -0.020076654 -0.017873052 0 0 0 0
900000000 0.338743478 0.199823454 -0.035359855 0.002876629 0 0 0 0
908000000 0.253830462 0.067323289 -0.028017198 0.031437519 0 0 0 0
916000000 0.125667154 0.036179557 0.003892171 0.046580925 0 0 0 0
924000000 0.035524826 0.095201015 0.038103494 0.028883818 0 0 0 0
932000000 0.022441556 0.215657413 0.046215936 -0.009707618 0 0 0 0
940000000 0.133672803 0.344735503 0.020154619 -0.035574529 0 0 0 0
948000000 0.355132848 0.35483846 -0.007137362 -0.030514875 0 0 0 0
956000000 0.526967167 0.190495163 -0.016121534 -0.013751563 0 0 0 0
964000000 0.585326194 -0.053965162 -0.015240721 -0.002353685 0 0 0 0
972000000 0.498189568 -0.294223785 -0.011204559 0.00394537 0 0 0 0
980000000 0.289299428 -0.497549057 -0.005505014 0.006001994 0 0 0 0
988000000 0.035694029 -0.568505048 -0.002963433 0.006202781 0 0 0 0
996000000 -0.26500222 -0.523687005 -0.001048831 0.004244017 0 0 0 0
1004000000 -0.496372312 -0.385016322 -0.001073533 0.004105564 0 0 0 0
