# Hz S RI R 50
700000000 0.758669316 0.550149261 -3.8785e-05 0.000742736 0 0 0 0
708000000 0.865459203 0.309508591 4.3542e-05 0.001052985 0 0 0 0
716000000 0.897247552 0.035540565 0.000145073 0.001332692 0 0 0 0
724000000 0.84000051 -0.247702568 0.000359555 0.001481088 0 0 0 0
732000000 0.696529269 -0.504076778 0.000417959 0.001450118 0 0 0 0
740000000 0.456147342 -0.699259698 0.000848831 0.001279672 0 0 0 0
748000000 0.147163271 -0.797075212 0.001306144 0.001194497 0 0 0 0
756000000 -0.192807748 -0.757349193 0.00138788 0.000786889 0 0 0 0
764000000 -0.496134907 -0.553117811 0.001124826 0.000489206 0 0 0 0
772000000 -0.665315508 -0.197612062 0.00102418 6.4559e-05 0 0 0 0
780000000 -0.595776259 0.230966478 0.000859285 -0.000332252 0 0 0 0
788000000 -0.242443084 0.539554119 0.000107853 -0.000961097 0 0 0 0
796000000 0.251862317 0.525737285 -0.00138532 -0.000683018 0 0 0 0
804000000 0.577230453 0.168706685 -0.002497744 0.0009561 0 0 0 0
812000000 0.557694673 -0.290688991 -0.001491776 0.002953337 0 0 0 0
820000000 0.268311083 -0.583621799 0.000574656 0.003699096 0 0 0 0
828000000 -0.1128036 -0.644932568 0.002558039 0.003103134 0 0 0 0
836000000 -0.428942471 -0.509362876 0.003735266 0.001804532 0 0 0 0
844000000 -0.629966795 -0.268379926 0.004943559 9.2579e-05 0 0 0 0
852000000 -0.708616733 0.011165451 0.006014946 -0.001418918 0 0 0 0
860000000 -0.667428314 0.27716872 0.006803414 -0.003824307 0 0 0 0
868000000 -0.524258017 0.480008691 0.006751659 -0.007810254 0 0 0 0
876000000 -0.299513161 0.588966071 0.004689579 -0.012502804 0 0 0 0
884000000 -0.073158174 0.567486107 -0.001633027 -0.01751822 0 0 0 0
892000000 0.100308373 0.425005495 -0.014580177 -0.018192758 0 0 0 0
900000000 0.30881831 0.208937987 -0.031497888 -0.003728845 0 0 0 0
908000000 0.238026484 0.088689774 -0.029855424 0.023823572 0 0 0 0
916000000 0.141295507 0.062613926 -0.002420613 0.042688865 0 0 0 0
924000000 0.080354519 0.090068265 0.03256284 0.030785135 0 0 0 0
932000000 0.030265256 0.180219888 0.042463481 -0.007133269 0 0 0 0
940000000 0.09566766 0.325571507 0.01852885 -0.030034648 0 0 0 0
948000000 0.339401513 0.372598111 -0.005665105 -0.024913771 0 0 0 0
956000000 0.521818161 0.217653125 -0.011734956 -0.01188415 0 0 0 0
964000000 0.594930112 -0.046539988 -0.010769659 -0.003374496 0 0 0 0
972000000 0.515325546 -0.297098845 -0.008722976 0.001580662 0 0 0 0
980000000 0.30584824 -0.501455843 -0.004685299 0.00334014 0 0 0 0
988000000 0.016788184 -0.576748669 -0.003083839 0.003365924 0 0 0 0
996000000 -0.255059033 -0.529743373 -0.002691969 0.002468517 0 0 0 0
1004000000 -0.497448474 -0.3883017 -0.002668694 0.00290649 0 0 0 0
