# Hz S RI R 50
700000000 0.756962716 0.556302964 -9.9055e-05 0.000657076 0 0 0 0
708000000 0.867967128 0.308805137 -0.000151147 0.000968569 0 0 0 0
716000000 0.898464441 0.035982582 8.7725e-05 0.001234181 0 0 0 0
724000000 0.842338204 -0.241755366 0.000265473 0.001493765 0 0 0 0
732000000 0.695772945 -0.505446493 0.000408753 0.001569303 0 0 0 0
740000000 0.456168264 -0.701592147 0.000669757 0.001479928 0 0 0 0
748000000 0.146697074 -0.799764156 0.001057366 0.001350271 0 0 0 0
756000000 -0.195960193 -0.75872451 0.001203321 0.001171116 0 0 0 0
764000000 -0.499069064 -0.551626622 0.001268945 0.000888023 0 0 0 0
772000000 -0.666198015 -0.191327854 0.001509274 0.000522777 0 0 0 0
780000000 -0.591466367 0.237131744 0.001337443 -0.000316445 0 0 0 0
788000000 -0.23528254 0.54554522 0.000500358 -0.001258098 0 0 0 0
796000000 0.25760284 0.524433434 -0.001514026 -0.001262946 0 0 0 0
804000000 0.584010481 0.164673283 -0.00301197 0.000769201 0 0 0 0
812000000 0.559640407 -0.296793699 -0.001697599 0.003271872 0 0 0 0
820000000 0.267584413 -0.587400913 0.001016178 0.003942739 0 0 0 0
828000000 -0.113176152 -0.647687673 0.003040907 0.002800821 0 0 0 0
836000000 -0.430682599 -0.517535865 0.004238092 0.001247095 0 0 0 0
844000000 -0.6348989 -0.274111896 0.005056902 -0.000361159 0 0 0 0
852000000 -0.713854908 0.00368426 0.005609786 -0.002217297 0 0 0 0
860000000 -0.680146157 0.272002667 0.0061691 -0.004621744 0 0 0 0
868000000 -0.541236877 0.482674479 0.005657782 -0.008335037 0 0 0 0
876000000 -0.323842793 0.603731751 0.003030848 -0.012622223 0 0 0 0
884000000 -0.084726676 0.602422475 -0.003599878 -0.016222678 0 0 0 0
892000000 0.119138479 0.474920719 -0.015730081 -0.014893467 0 0 0 0
900000000 0.370481193 0.225395143 -0.028390057 6.9726e-05 0 0 0 0
908000000 0.299061655 0.05921198 -0.024366984 0.02521358 0 0 0 0
916000000 0.159074664 -0.001314426 0.002877807 0.038563463 0 0 0 0
924000000 0.039513222 0.057124231 0.031926229 0.024507606 0 0 0 0
932000000 0.005424416 0.187849536 0.037857048 -0.008473703 0 0 0 0
940000000 0.085742257 0.325554758 0.016370596 -0.028833003 0 0 0 0
948000000 0.314657896 0.365143924 -0.006023927 -0.023945296 0 0 0 0
956000000 0.497236102 0.223702907 -0.011800278 -0.011383197 0 0 0 0
964000000 0.58369857 -0.01949205 -0.01103615 -0.002539679 0 0 0 0
972000000 0.506005823 -0.269566208 -0.008793815 0.001792636 0 0 0 0
980000000 0.316760629 -0.477077752 -0.004185996 0.003572095 0 0 0 0
988000000 0.046216234 -0.555340409 -0.002861075 0.003804815 0 0 0 0
996000000 -0.237294554 -0.524773061 -0.001990414 0.002681955 0 0 0 0
1004000000 -0.476547628 -0.384052932 -0.002654746 0.003384788 0 0 0 0
