# Hz S RI R 50
700000000 0.760153293 0.5537256 -6.3795e-05 0.000577557 0 0 0 0
708000000 0.869112312 0.305349677 -9.3001e-05 0.000829868 0 0 0 0
716000000 0.9001742 0.030016547 -5.285e-05 0.001115774 0 0 0 0
724000000 0.844829678 -0.252410024 7.4419e-05 0.00145206 0 0 0 0
732000000 0.69485414 -0.507737576 0.000509729 0.001488107 0 0 0 0
740000000 0.455649763 -0.705572307 0.000881875 0.001574159 0 0 0 0
748000000 0.143494516 -0.798843979 0.001184581 0.001441826 0 0 0 0
756000000 -0.195890828 -0.75872606 0.00113235 0.001078911 0 0 0 0
764000000 -0.499503582 -0.549692392 0.001596339 0.000762576 0 0 0 0
772000000 -0.665392637 -0.190526038 0.001773431 0.000463482 0 0 0 0
780000000 -0.591557383 0.235918089 0.001648176 -0.000535022 0 0 0 0
788000000 -0.234813451 0.543305039 0.000762001 -0.001821915 0 0 0 0
796000000 0.256483912 0.520264029 -0.001701674 -0.002013497 0 0 0 0
804000000 0.578942239 0.159056216 -0.003915364 0.000115798 0 0 0 0
812000000 0.549259126 -0.297659397 -0.003235965 0.003334619 0 0 0 0
820000000 0.257501304 -0.584667026 -0.00023781 0.005364653 0 0 0 0
828000000 -0.122336857 -0.642075002 0.003023285 0.004979279 0 0 0 0
836000000 -0.4347907 -0.505608618 0.005215742 0.003021783 0 0 0 0
844000000 -0.637901365 -0.260528951 0.006968314 0.000642557 0 0 0 0
852000000 -0.709514498 0.017925769 0.008286085 -0.001912816 0 0 0 0
860000000 -0.663545489 0.282504498 0.008829735 -0.005833188 0 0 0 0
868000000 -0.515376746 0.486824393 0.007764339 -0.011348936 0 0 0 0
876000000 -0.29556778 0.588802278 0.00342297 -0.017251349 0 0 0 0
884000000 -0.065901286 0.57122755 -0.006828458 -0.021681098 0 0 0 0
892000000 0.112550243 0.427458375 -0.023695433 -0.017478758 0 0 0 0
900000000 0.320490747 0.193206429 -0.037269789 0.006150833 0 0 0 0
908000000 0.241610378 0.067619867 -0.026500606 0.037979103 0 0 0 0
916000000 0.118421353 0.053378306 0.011725462 0.049711335 0 0 0 0
924000000 0.04666347 0.109896592 0.045977387 0.023872405 0 0 0 0
932000000 0.039989531 0.202564045 0.045758899 -0.019750408 0 0 0 0
940000000 0.124677687 0.338993191 0.012471593 -0.03959288 0 0 0 0
948000000 0.351478129 0.364689737 -0.013432218 -0.026226023 0 0 0 0
956000000 0.53277707 0.190165579 -0.016827851 -0.009499553 0 0 0 0
964000000 0.576907575 -0.056193947 -0.013201738 2.0343e-05 0 0 0 0
972000000 0.493106573 -0.309178382 -0.009102771 0.004205929 0 0 0 0
980000000 0.293165087 -0.495890885 -0.004295819 0.005852701 0 0 0 0
988000000 0.019679242 -0.567681908 -0.002052396 0.005078778 0 0 0 0
996000000 -0.254656195 -0.507925987 -0.001271902 0.00320473 0 0 0 0
1004000000 -0.496434271 -0.377136528 -0.001281292 0.00316062 0 0 0 0
