# Hz S RI R 50
700000000 0.764190495 0.555131137 7.7331e-05 0.000584302 0 0 0 0
708000000 0.868744909 0.306248694 -4.6231e-05 0.000932685 0 0 0 0
716000000 0.901920616 0.034637451 2.5662e-05 0.001188336 0 0 0 0
724000000 0.843829631 -0.250332742 0.000173124 0.001432606 0 0 0 0
732000000 0.695477604 -0.503907978 0.000345861 0.001579255 0 0 0 0
740000000 0.457319051 -0.705032408 0.000554504 0.001526403 0 0 0 0
748000000 0.145864173 -0.801024854 0.001119755 0.001234139 0 0 0 0
756000000 -0.194986343 -0.760534703 0.001080146 0.00104743 0 0 0 0
764000000 -0.496060103 -0.554592311 0.001141482 0.00054308 0 0 0 0
772000000 -0.66241461 -0.195611 0.001337509 0.000304435 0 0 0 0
780000000 -0.594941854 0.232522383 0.001384141 -0.000293317 0 0 0 0
788000000 -0.242501378 0.539747416 0.000535589 -0.001130854 0 0 0 0
796000000 0.250441938 0.524777472 -0.001072301 -0.001125107 0 0 0 0
804000000 0.57924664 0.165334463 -0.002689315 0.000340046 0 0 0 0
812000000 0.554622054 -0.294148892 -0.002058617 0.002607531 0 0 0 0
820000000 0.262560367 -0.589053213 0.00032399 0.003725096 0 0 0 0
828000000 -0.118503302 -0.644577205 0.002134973 0.003205641 0 0 0 0
836000000 -0.433962851 -0.510420083 0.003643967 0.001931437 0 0 0 0
844000000 -0.636161744 -0.265310972 0.004657874 0.00049198 0 0 0 0
852000000 -0.712519049 0.014587633 0.005755729 -0.00109038 0 0 0 0
860000000 -0.668899178 0.283361375 0.006773967 -0.003391706 0 0 0 0
868000000 -0.523146629 0.492392092 0.006929096 -0.007308308 0 0 0 0
876000000 -0.298961877 0.596023976 0.005334462 -0.012070213 0 0 0 0
884000000 -0.063207842 0.575702369 -0.000920389 -0.017505841 0 0 0 0
892000000 0.11542955 0.42707321 -0.013900115 -0.018249575 0 0 0 0
900000000 0.33171463 0.197457686 -0.030635204 -0.004306901 0 0 0 0
908000000 0.242466792 0.077664755 -0.03071673 0.02181128 0 0 0 0
916000000 0.137414172 0.056427538 -0.004778633 0.04301441 0 0 0 0
924000000 0.063638754 0.082030497 0.031815152 0.032352264 0 0 0 0
932000000 0.012450262 0.181206017 0.042800255 -0.005195653 0 0 0 0
940000000 0.095387823 0.338633894 0.019052302 -0.028837023 0 0 0 0
948000000 0.344965934 0.379093974 -0.003540925 -0.02423954 0 0 0 0
956000000 0.523622691 0.212879434 -0.010098038 -0.013329812 0 0 0 0
964000000 0.606785118 -0.042158894 -0.010862831 -0.004542501 0 0 0 0
972000000 0.525788664 -0.291750282 -0.009235243 0.000315808 0 0 0 0
980000000 0.315003782 -0.508205235 -0.006025834 0.002377419 0 0 0 0
988000000 0.02912319 -0.575833678 -0.004620892 0.003021638 0 0 0 0
996000000 -0.259415894 -0.531148612 -0.003413507 0.003309484 0 0 0 0
1004000000 -0.483499497 -0.392802268 -0.002795001 0.003841709 0 0 0 0
