# Hz S RI R 50
700000000 0.76355642 0.548943459 -0.000125064 0.000598781 0 0 0 0
708000000 0.867864787 0.306661248 -0.000161868 0.000961395 0 0 0 0
716000000 0.897251129 0.031804457 2.8528e-05 0.001373809 0 0 0 0
724000000 0.843893349 -0.244800552 0.000163645 0.001342894 0 0 0 0
732000000 0.693702995 -0.506573975 0.000427412 0.001693097 0 0 0 0
740000000 0.454292386 -0.70129472 0.000871497 0.001417313 0 0 0 0
748000000 0.14690791 -0.800278902 0.000949456 0.001302395 0 0 0 0
756000000 -0.193738579 -0.759327888 0.00136888 0.001079761 0 0 0 0
764000000 -0.496677458 -0.553231656 0.001390775 0.000526186 0 0 0 0
772000000 -0.664085507 -0.189894482 0.001736031 1.6186e-05 0 0 0 0
780000000 -0.592995166 0.235685303 0.001382111 -0.000905396 0 0 0 0
788000000 -0.23603931 0.540680587 7.2943e-05 -0.001835494 0 0 0 0
796000000 0.252780735 0.518883347 -0.002188545 -0.001497913 0 0 0 0
804000000 0.579446911 0.158704921 -0.003867069 0.0008744 0 0 0 0
812000000 0.551714658 -0.299663305 -0.002818654 0.004133419 0 0 0 0
820000000 0.257674217 -0.585885524 0.000596976 0.00577192 0 0 0 0
828000000 -0.118850179 -0.642482936 0.003905105 0.004910816 0 0 0 0
836000000 -0.432999253 -0.506525278 0.006071333 0.002711412 0 0 0 0
844000000 -0.634809911 -0.261624097 0.007407525 -3.422e-05 0 0 0 0
852000000 -0.703327715 0.016971128 0.008554471 -0.003260589 0 0 0 0
860000000 -0.661486744 0.278552263 0.008620653 -0.007675517 0 0 0 0
868000000 -0.515050828 0.478339135 0.006437799 -0.013310466 0 0 0 0
876000000 -0.298316568 0.583750247 0.000520819 -0.018668489 0 0 0 0
884000000 -0.070621624 0.5644207 -0.011403772 -0.020621988 0 0 0 0
892000000 0.103268437 0.425849378 -0.027330677 -0.01242067 0 0 0 0
900000000 0.3159478 0.192939996 -0.035890612 0.015399613 0 0 0 0
908000000 0.229081645 0.074424408 -0.017027948 0.042517304 0 0 0 0
916000000 0.12966226 0.064918726 0.021728457 0.045007716 0 0 0 0
924000000 0.073168843 0.110032297 0.048870939 0.013156224 0 0 0 0
932000000 0.035004664 0.182469189 0.038969591 -0.027663851 0 0 0 0
940000000 0.119851544 0.32605049 0.004250245 -0.039202515 0 0 0 0
948000000 0.342606961 0.352615445 -0.016838677 -0.02233323 0 0 0 0
956000000 0.515303075 0.192100957 -0.016894413 -0.006262783 0 0 0 0
964000000 0.575259506 -0.047484595 -0.012535397 0.002074774 0 0 0 0
972000000 0.503272116 -0.290117323 -0.007859185 0.005155471 0 0 0 0
980000000 0.307087361 -0.484053879 -0.003154565 0.006285926 0 0 0 0
988000000 0.03424916 -0.561701893 -0.000770693 0.004921971 0 0 0 0
996000000 -0.241204187 -0.520101428 6.2787e-05 0.003451843 0 0 0 0
1004000000 -0.492321848 -0.381876617 -0.000846237 0.002660443 0 0 0 0
