# Hz S RI R 50
700000000 0.759720623 0.554746508 -5.1513e-05 0.000745002 0 0 0 0
708000000 0.867264211 0.30793327 -4.2549e-05 0.000921881 0 0 0 0
716000000 0.896486282 0.034573256 5.6282e-05 0.001373925 0 0 0 0
724000000 0.841844081 -0.248468086 0.000203568 0.001510554 0 0 0 0
732000000 0.697553098 -0.506242275 0.000644191 0.00126901 0 0 0 0
740000000 0.459924161 -0.701222002 0.000761427 0.001369859 0 0 0 0
748000000 0.151697218 -0.800899147 0.000990407 0.001226862 0 0 0 0
756000000 -0.189211055 -0.760683059 0.001346055 0.001029811 0 0 0 0
764000000 -0.493859201 -0.555993378 0.001372028 0.00062148 0 0 0 0
772000000 -0.661433041 -0.204197332 0.001333699 0.000273369 0 0 0 0
780000000 -0.598756253 0.220709264 0.001134512 -0.000194509 0 0 0 0
788000000 -0.254751741 0.534286558 0.000520138 -0.001097319 0 0 0 0
796000000 0.233566537 0.533261895 -0.001028605 -0.001208569 0 0 0 0
804000000 0.573189198 0.193149253 -0.002499806 0.000420095 0 0 0 0
812000000 0.566632509 -0.268595635 -0.002073241 0.002565468 0 0 0 0
820000000 0.285344153 -0.574815392 -0.000105887 0.003707974 0 0 0 0
828000000 -0.090183906 -0.647841989 0.002102787 0.003382517 0 0 0 0
836000000 -0.413142919 -0.525106012 0.003350596 0.002163557 0 0 0 0
844000000 -0.628323614 -0.288104683 0.004766779 0.00077915 0 0 0 0
852000000 -0.710695862 -0.009098565 0.005960067 -0.000960389 0 0 0 0
860000000 -0.681145548 0.258071094 0.007233574 -0.003343511 0 0 0 0
868000000 -0.548367619 0.466241031 0.007469074 -0.007553875 0 0 0 0
876000000 -0.338216334 0.587617039 0.005908357 -0.012543846 0 0 0 0
884000000 -0.106703601 0.589836418 -0.000573139 -0.018117159 0 0 0 0
892000000 0.08721143 0.46807605 -0.014054512 -0.019687537 0 0 0 0
900000000 0.340045303 0.254465013 -0.031611409 -0.006235269 0 0 0 0
908000000 0.285498291 0.105198904 -0.032664954 0.022818477 0 0 0 0
916000000 0.19083926 0.059937216 -0.005677481 0.04419614 0 0 0 0
924000000 0.108264207 0.064834982 0.030611332 0.035471934 0 0 0 0
932000000 0.056470192 0.131813764 0.045828912 -0.001299928 0 0 0 0
940000000 0.069769173 0.266525417 0.025049649 -0.029510604 0 0 0 0
948000000 0.282853335 0.349926054 -0.001731667 -0.029575563 0 0 0 0
956000000 0.483113467 0.230278626 -0.012698457 -0.016087146 0 0 0 0
964000000 0.568821966 -0.007206861 -0.013607158 -0.005171149 0 0 0 0
972000000 0.509687423 -0.26593247 -0.01168338 0.001007125 0 0 0 0
980000000 0.311304986 -0.469499826 -0.007150541 0.004735637 0 0 0 0
988000000 0.046739611 -0.552464902 -0.004498509 0.005392923 0 0 0 0
996000000 -0.237810492 -0.51415342 -0.003205836 0.004699557 0 0 0 0
1004000000 -0.472788542 -0.389489978 -0.001744698 0.004317073 0 0 0 0
