# Hz S RI R 50
700000000 0.762011229 0.552177667 -1.3711e-05 0.000646269 0 0 0 0
708000000 0.866543531 0.307521462 -0.000163599 0.000865003 0 0 0 0
716000000 0.897186875 0.033607836 -1.9657e-05 0.001317095 0 0 0 0
724000000 0.841681897 -0.249401077 0.000228227 0.00132799 0 0 0 0
732000000 0.69436115 -0.506295859 0.000487779 0.001385574 0 0 0 0
740000000 0.454142898 -0.702617108 0.000589524 0.001493532 0 0 0 0
748000000 0.147594287 -0.798496901 0.001113547 0.001450201 0 0 0 0
756000000 -0.19608815 -0.75907135 0.00117362 0.001164716 0 0 0 0
764000000 -0.499185562 -0.551184535 0.001236841 0.001015146 0 0 0 0
772000000 -0.668572723 -0.19185996 0.001398824 0.000714337 0 0 0 0
780000000 -0.592282414 0.236759588 0.00176839 -1.995e-06 0 0 0 0
788000000 -0.238039419 0.541233301 0.001144252 -0.001255421 0 0 0 0
796000000 0.250247865 0.521704018 -0.000737965 -0.001877576 0 0 0 0
804000000 0.576204597 0.164612874 -0.002927525 -0.000817542 0 0 0 0
812000000 0.553721487 -0.290417164 -0.00315567 0.002166599 0 0 0 0
820000000 0.261403113 -0.582551062 -0.001089182 0.004387843 0 0 0 0
828000000 -0.115302175 -0.638728857 0.001511543 0.004180517 0 0 0 0
836000000 -0.42579624 -0.507696926 0.003761832 0.003016438 0 0 0 0
844000000 -0.628174066 -0.268073767 0.005296405 0.001408276 0 0 0 0
852000000 -0.70021069 0.005138918 0.006472584 -0.000556072 0 0 0 0
860000000 -0.663276731 0.271242767 0.00772892 -0.003072004 0 0 0 0
868000000 -0.525910377 0.467165201 0.007980771 -0.007502574 0 0 0 0
876000000 -0.311326771 0.582275569 0.006352793 -0.012895657 0 0 0 0
884000000 -0.085903398 0.569465577 -2.2533e-05 -0.01872638 0 0 0 0
892000000 0.083244778 0.441558301 -0.013676873 -0.020439423 0 0 0 0
900000000 0.322694897 0.229250967 -0.030619341 -0.007322182 0 0 0 0
908000000 0.26862657 0.106059469 -0.033268369 0.019829271 0 0 0 0
916000000 0.17463307 0.05914855 -0.009812111 0.042122676 0 0 0 0
924000000 0.081428609 0.064152672 0.024902107 0.038193926 0 0 0 0
932000000 0.022603966 0.174748569 0.044246036 0.006238073 0 0 0 0
940000000 0.100504837 0.3088907 0.030411856 -0.024650231 0 0 0 0
948000000 0.324902355 0.349992752 0.004173255 -0.030757259 0 0 0 0
956000000 0.499135762 0.19882965 -0.00998691 -0.020235083 0 0 0 0
964000000 0.581263244 -0.038618899 -0.013589474 -0.008866844 0 0 0 0
972000000 0.486897826 -0.288620382 -0.012907474 -0.000643618 0 0 0 0
980000000 0.297745376 -0.481388986 -0.009137762 0.003642615 0 0 0 0
988000000 0.036166448 -0.567847013 -0.005394026 0.005201127 0 0 0 0
996000000 -0.259779512 -0.522408127 -0.003366374 0.005048352 0 0 0 0
1004000000 -0.479822009 -0.3831968 -0.002710109 0.005262063 0 0 0 0
