# Hz S RI R 50
700000000 0.766731083 0.553148806 -6.1498e-05 0.000587986 0 0 0 0
708000000 0.87005937 0.309622675 -1.808e-05 0.000848369 0 0 0 0
716000000 0.900205612 0.029844529 -4.232e-06 0.001179495 0 0 0 0
724000000 0.842694759 -0.243998289 0.000199603 0.001521771 0 0 0 0
732000000 0.695089101 -0.503594756 0.000422537 0.001671737 0 0 0 0
740000000 0.456327795 -0.700777053 0.0008044 0.001397971 0 0 0 0
748000000 0.150130361 -0.80066502 0.000967538 0.001364416 0 0 0 0
756000000 -0.192132592 -0.7586537 0.001375089 0.000900262 0 0 0 0
764000000 -0.498599261 -0.554462254 0.001311459 0.000646912 0 0 0 0
772000000 -0.66855365 -0.195112258 0.001639059 0.000226584 0 0 0 0
780000000 -0.594311833 0.229956731 0.00105919 -0.000746601 0 0 0 0
788000000 -0.236843124 0.543206274 3.901e-06 -0.001539426 0 0 0 0
796000000 0.253567874 0.522738456 -0.002253799 -0.001257237 0 0 0 0
804000000 0.579324245 0.161815091 -0.003716811 0.001329281 0 0 0 0
812000000 0.550617694 -0.296283304 -0.002298224 0.004572239 0 0 0 0
820000000 0.257499694 -0.586602509 0.001223005 0.005707826 0 0 0 0
828000000 -0.119435541 -0.641104876 0.004171601 0.004322189 0 0 0 0
836000000 -0.433623343 -0.503260314 0.006200657 0.00194764 0 0 0 0
844000000 -0.632432281 -0.260316461 0.007395784 -0.000754508 0 0 0 0
852000000 -0.703329324 0.015824662 0.008374675 -0.004249128 0 0 0 0
860000000 -0.663683295 0.275298237 0.007728924 -0.008425069 0 0 0 0
868000000 -0.516279518 0.47895357 0.00508052 -0.013583129 0 0 0 0
876000000 -0.299329847 0.584475636 -0.001324535 -0.018289696 0 0 0 0
884000000 -0.071588568 0.570741415 -0.013380929 -0.019133055 0 0 0 0
892000000 0.100798815 0.42999953 -0.028471771 -0.008767982 0 0 0 0
900000000 0.318621963 0.206243991 -0.03237392 0.018870262 0 0 0 0
908000000 0.237995803 0.078989677 -0.009900778 0.043619342 0 0 0 0
916000000 0.143042728 0.069785155 0.028387071 0.038898736 0 0 0 0
924000000 0.082333132 0.093107938 0.047873146 0.003156429 0 0 0 0
932000000 0.033898666 0.179687097 0.030147019 -0.032613195 0 0 0 0
940000000 0.108466818 0.329083859 -0.004023026 -0.034718535 0 0 0 0
948000000 0.336498498 0.361987829 -0.017131388 -0.014819338 0 0 0 0
956000000 0.511987924 0.202323153 -0.013395695 -0.002708353 0 0 0 0
964000000 0.577889442 -0.044327143 -0.008966568 0.002306362 0 0 0 0
972000000 0.501047372 -0.29057902 -0.005858748 0.003717007 0 0 0 0
980000000 0.296786397 -0.485576599 -0.002809704 0.004253386 0 0 0 0
988000000 0.036792192 -0.565180182 -0.001685751 0.003805353 0 0 0 0
996000000 -0.245974376 -0.523567974 -0.000898802 0.002577668 0 0 0 0
1004000000 -0.49109295 -0.39129877 -0.000814793 0.00270772 0 0 0 0
