# Hz S RI R 50
700000000 0.762199819 0.551668107 4.4089e-05 0.000616998 0 0 0 0
708000000 0.865398645 0.309876233 -4.364e-06 0.000905563 0 0 0 0
716000000 0.901353061 0.032813273 2.23e-05 0.001082044 0 0 0 0
724000000 0.847120881 -0.24558717 0.000298789 0.001435025 0 0 0 0
732000000 0.697782754 -0.50357753 0.000495066 0.001370602 0 0 0 0
740000000 0.462432712 -0.702887356 0.000879971 0.001511549 0 0 0 0
748000000 0.148060411 -0.801793873 0.001047952 0.001339486 0 0 0 0
756000000 -0.192091807 -0.760436832 0.00127875 0.00118871 0 0 0 0
764000000 -0.495483189 -0.558828115 0.001212307 0.000774619 0 0 0 0
772000000 -0.665819048 -0.200225979 0.00132828 0.000608663 0 0 0 0
780000000 -0.600990712 0.228419199 0.001468832 -2.3509e-05 0 0 0 0
788000000 -0.247752144 0.542264819 0.001106207 -0.00139793 0 0 0 0
796000000 0.242658808 0.534424722 -0.000755182 -0.002077002 0 0 0 0
804000000 0.582003474 0.179894596 -0.003226148 -0.000753973 0 0 0 0
812000000 0.56619662 -0.286573052 -0.003283095 0.002137577 0 0 0 0
820000000 0.277134776 -0.585465848 -0.000977362 0.00419071 0 0 0 0
828000000 -0.103874459 -0.652926921 0.001413204 0.004087793 0 0 0 0
836000000 -0.423668026 -0.52612698 0.003190203 0.003025501 0 0 0 0
844000000 -0.633675098 -0.284262657 0.005007181 0.001470949 0 0 0 0
852000000 -0.716641008 -0.00265467 0.006476072 -0.000139463 0 0 0 0
860000000 -0.681511104 0.265120834 0.007849822 -0.002814912 0 0 0 0
868000000 -0.543073356 0.47663185 0.008520399 -0.007157113 0 0 0 0
876000000 -0.327366739 0.594148039 0.007182667 -0.013167371 0 0 0 0
884000000 -0.096188329 0.591888368 0.000491966 -0.019593171 0 0 0 0
892000000 0.093942709 0.464787989 -0.013472899 -0.021642927 0 0 0 0
900000000 0.340400367 0.246547028 -0.033533778 -0.008325516 0 0 0 0
908000000 0.289741247 0.102778561 -0.036326572 0.020494241 0 0 0 0
916000000 0.191092446 0.043429367 -0.011296152 0.045921795 0 0 0 0
924000000 0.089698776 0.03854338 0.026990262 0.042228814 0 0 0 0
932000000 0.016087314 0.151283085 0.050105307 0.006703365 0 0 0 0
940000000 0.078507751 0.309641748 0.034082289 -0.029599145 0 0 0 0
948000000 0.30741623 0.361099272 0.001380074 -0.035129696 0 0 0 0
956000000 0.479386091 0.22901766 -0.013756628 -0.021376015 0 0 0 0
964000000 0.584686994 -0.022253535 -0.015915576 -0.007183088 0 0 0 0
972000000 0.516743361 -0.282246112 -0.013028569 0.00085405 0 0 0 0
980000000 0.310773104 -0.478141456 -0.008142658 0.004222457 0 0 0 0
988000000 0.048280961 -0.571521401 -0.004997772 0.005136433 0 0 0 0
996000000 -0.245434433 -0.52407664 -0.003087298 0.00457595 0 0 0 0
1004000000 -0.485098987 -0.393673449 -0.002668626 0.004812672 0 0 0 0
