# Hz S RI R 50
700000000 0.763570129 0.554276168 -4.7483e-05 0.000574104 0 0 0 0
708000000 0.869418621 0.309245824 -3.4718e-05 0.000857217 0 0 0 0
716000000 0.898354291 0.031293243 -1.4093e-05 0.001247292 0 0 0 0
724000000 0.842550694 -0.247563049 0.000255293 0.001306327 0 0 0 0
732000000 0.696314573 -0.507686734 0.000305224 0.001461476 0 0 0 0
740000000 0.461029887 -0.70190525 0.00060707 0.001360781 0 0 0 0
748000000 0.147228792 -0.801589787 0.000822007 0.001399121 0 0 0 0
756000000 -0.193608134 -0.762409806 0.000901411 0.00103453 0 0 0 0
764000000 -0.497601568 -0.556497871 0.001072397 0.001047082 0 0 0 0
772000000 -0.668636322 -0.20277597 0.001446823 0.000797867 0 0 0 0
780000000 -0.601965725 0.227970495 0.00163848 0.000267337 0 0 0 0
788000000 -0.252917557 0.542470693 0.001296951 -0.00083599 0 0 0 0
796000000 0.244455918 0.534190118 -0.00036709 -0.001789024 0 0 0 0
804000000 0.58368653 0.179616704 -0.002720063 -0.000577185 0 0 0 0
812000000 0.568004131 -0.281946897 -0.002485975 0.002148824 0 0 0 0
820000000 0.279385387 -0.587726533 -0.000321341 0.003527416 0 0 0 0
828000000 -0.100659646 -0.655148148 0.001693806 0.003343678 0 0 0 0
836000000 -0.424124419 -0.525503873 0.003323493 0.00200558 0 0 0 0
844000000 -0.632261455 -0.283535033 0.004537756 0.000723781 0 0 0 0
852000000 -0.717722773 -0.002440518 0.005415518 -0.001039351 0 0 0 0
860000000 -0.684569299 0.26641637 0.006620163 -0.003094958 0 0 0 0
868000000 -0.54747641 0.480080366 0.006900959 -0.006719733 0 0 0 0
876000000 -0.331511825 0.600046157 0.005445177 -0.011425614 0 0 0 0
884000000 -0.091887779 0.597523272 -0.000325948 -0.016741471 0 0 0 0
892000000 0.100406385 0.473994076 -0.012474579 -0.017890648 0 0 0 0
900000000 0.355415314 0.236670136 -0.028613407 -0.005103856 0 0 0 0
908000000 0.289495885 0.102595143 -0.029310915 0.018813244 0 0 0 0
916000000 0.188166812 0.040508635 -0.007166735 0.038442462 0 0 0 0
924000000 0.100343212 0.040322497 0.023454373 0.032639626 0 0 0 0
932000000 0.021859085 0.131004765 0.04017315 0.002633825 0 0 0 0
940000000 0.068139597 0.292814671 0.025816677 -0.023806771 0 0 0 0
948000000 0.295848876 0.358718276 0.002013308 -0.026965856 0 0 0 0
956000000 0.474158436 0.234779402 -0.009416452 -0.017542434 0 0 0 0
964000000 0.573106884 -0.010667453 -0.011930184 -0.007234926 0 0 0 0
972000000 0.510923743 -0.275095134 -0.010666818 -1.8901e-05 0 0 0 0
980000000 0.32182464 -0.476372867 -0.006785169 0.002537465 0 0 0 0
988000000 0.049286223 -0.563582122 -0.0046416 0.004508315 0 0 0 0
996000000 -0.244929134 -0.529623329 -0.003507089 0.004110409 0 0 0 0
1004000000 -0.469383478 -0.39928472 -0.002519425 0.004236175 0 0 0 0
