# Hz S RI R 50
700000000 0.764900743 0.550542652 -0.000114523 0.000609072 0 0 0 0
708000000 0.869565486 0.30665943 0.000107785 0.000987089 0 0 0 0
716000000 0.900345623 0.033530481 1.5365e-05 0.001272172 0 0 0 0
724000000 0.850513815 -0.247695773 0.000185344 0.001288107 0 0 0 0
732000000 0.699225008 -0.507480263 0.000478174 0.001412431 0 0 0 0
740000000 0.461789846 -0.706429779 0.000724802 0.001357068 0 0 0 0
748000000 0.147784322 -0.801282227 0.00108152 0.001317035 0 0 0 0
756000000 -0.192481413 -0.76214236 0.001181742 0.000963709 0 0 0 0
764000000 -0.4968037 -0.558485031 0.001327422 0.000640818 0 0 0 0
772000000 -0.668490111 -0.197738483 0.001267525 8.9511e-05 0 0 0 0
780000000 -0.599432885 0.227318421 0.001020763 -0.000553223 0 0 0 0
788000000 -0.251321464 0.54035753 -0.000146533 -0.000991052 0 0 0 0
796000000 0.245757266 0.531641542 -0.001550451 -0.000630622 0 0 0 0
804000000 0.579775571 0.174444675 -0.002820387 0.001168916 0 0 0 0
812000000 0.564011037 -0.286298394 -0.00171404 0.003515589 0 0 0 0
820000000 0.269191414 -0.583917915 0.001080371 0.004241275 0 0 0 0
828000000 -0.109473161 -0.649295508 0.003002445 0.003029743 0 0 0 0
836000000 -0.428268134 -0.515830874 0.004078853 0.001182566 0 0 0 0
844000000 -0.63626033 -0.276533365 0.005072309 -0.000443123 0 0 0 0
852000000 -0.715204238 0.004735853 0.00571228 -0.002288751 0 0 0 0
860000000 -0.679217696 0.273080915 0.00610387 -0.00419244 0 0 0 0
868000000 -0.533667743 0.484748274 0.005863062 -0.008002945 0 0 0 0
876000000 -0.313690781 0.597547948 0.00386544 -0.012253127 0 0 0 0
884000000 -0.079680025 0.587870061 -0.002699042 -0.01660281 0 0 0 0
892000000 0.105440333 0.445809632 -0.014680265 -0.016145851 0 0 0 0
900000000 0.341121077 0.208275929 -0.029043795 -0.002061915 0 0 0 0
908000000 0.255446672 0.086929589 -0.028083885 0.024064799 0 0 0 0
916000000 0.156921997 0.053180944 -0.000502618 0.042658317 0 0 0 0
924000000 0.090481631 0.063334509 0.034036833 0.029478309 0 0 0 0
932000000 0.028792673 0.148461714 0.042345624 -0.009753316 0 0 0 0
940000000 0.083351299 0.315941482 0.015319393 -0.031046286 0 0 0 0
948000000 0.316995084 0.371249496 -0.006940082 -0.023752268 0 0 0 0
956000000 0.526889741 0.227780193 -0.012305167 -0.0110418 0 0 0 0
964000000 0.590359091 -0.030773827 -0.011199473 -0.002567847 0 0 0 0
972000000 0.522272467 -0.292300909 -0.008929859 0.001743151 0 0 0 0
980000000 0.316227912 -0.493077307 -0.004711677 0.003671057 0 0 0 0
988000000 0.03609953 -0.579833865 -0.003440707 0.003764875 0 0 0 0
996000000 -0.240272969 -0.523594558 -0.002390019 0.003491857 0 0 0 0
1004000000 -0.501279473 -0.387196719 -0.002017989 0.003521997 0 0 0 0
