# Hz S RI R 50
700000000 0.762698769 0.555872142 -0.000101619 0.000600236 0 0 0 0
708000000 0.866495013 0.308423459 1.7858e-05 0.000913472 0 0 0 0
716000000 0.899374186 0.037619579 -4.6608e-05 0.001052056 0 0 0 0
724000000 0.843328416 -0.250470787 0.000374501 0.001311548 0 0 0 0
732000000 0.696078181 -0.502521097 0.000428376 0.00141373 0 0 0 0
740000000 0.45851165 -0.700057685 0.000649301 0.001346696 0 0 0 0
748000000 0.153265297 -0.798733234 0.00107959 0.001312 0 0 0 0
756000000 -0.187767222 -0.758997261 0.001027083 0.000999454 0 0 0 0
764000000 -0.491879999 -0.558814823 0.001181783 0.000860239 0 0 0 0
772000000 -0.665232479 -0.206556916 0.001190165 0.000435004 0 0 0 0
780000000 -0.6017192 0.215772628 0.001231191 -0.00010105 0 0 0 0
788000000 -0.260968685 0.532208085 0.000866238 -0.001018781 0 0 0 0
796000000 0.223324686 0.53498739 -0.000660945 -0.001525696 0 0 0 0
804000000 0.566359341 0.197490021 -0.002685062 -7.8313e-05 0 0 0 0
812000000 0.56724298 -0.260084033 -0.002435917 0.002522974 0 0 0 0
820000000 0.292569071 -0.568883597 -0.00021775 0.004103949 0 0 0 0
828000000 -0.08608593 -0.645769953 0.00229341 0.003498397 0 0 0 0
836000000 -0.406192779 -0.526164948 0.003741316 0.002319609 0 0 0 0
844000000 -0.620274782 -0.292207211 0.005044507 0.000427679 0 0 0 0
852000000 -0.707145512 -0.018961137 0.00583671 -0.00127606 0 0 0 0
860000000 -0.67970246 0.250183999 0.006481766 -0.003709929 0 0 0 0
868000000 -0.547097623 0.457985997 0.006428658 -0.007343077 0 0 0 0
876000000 -0.340868979 0.578460931 0.004570886 -0.01171134 0 0 0 0
884000000 -0.112035207 0.58511877 -0.00071339 -0.016240881 0 0 0 0
892000000 0.075567364 0.466219037 -0.012019101 -0.017667891 0 0 0 0
900000000 0.327390193 0.260595202 -0.028663575 -0.006409736 0 0 0 0
908000000 0.274618178 0.127638444 -0.030777005 0.018113829 0 0 0 0
916000000 0.194688886 0.081237867 -0.008676924 0.040019463 0 0 0 0
924000000 0.132641553 0.074254542 0.02500125 0.035598699 0 0 0 0
932000000 0.082538306 0.118827246 0.043154314 0.003761492 0 0 0 0
940000000 0.084546931 0.252650529 0.027801344 -0.026796229 0 0 0 0
948000000 0.273096263 0.3442761 0.000303482 -0.030226362 0 0 0 0
956000000 0.477952092 0.227640584 -0.012006189 -0.017048075 0 0 0 0
964000000 0.560259461 -0.007283666 -0.01335779 -0.005920169 0 0 0 0
972000000 0.502730667 -0.262714236 -0.010987204 0.000681861 0 0 0 0
980000000 0.309448331 -0.480517268 -0.007224065 0.003716089 0 0 0 0
988000000 0.046707183 -0.556924879 -0.004206178 0.00453925 0 0 0 0
996000000 -0.242245554 -0.521054089 -0.002593905 0.004034557 0 0 0 0
1004000000 -0.48485881 -0.390071779 -0.001950359 0.004373101 0 0 0 0
