# Hz S RI R 50
700000000 0.761868715 0.556104898 -8.701e-06 0.000597944 0 0 0 0
708000000 0.871356964 0.308132648 -5.3982e-05 0.000962119 0 0 0 0
716000000 0.900518774 0.031797092 0.000142372 0.001285396 0 0 0 0
724000000 0.84605503 -0.249112591 0.000253998 0.001463054 0 0 0 0
732000000 0.697451353 -0.50513488 0.000538085 0.001570695 0 0 0 0
740000000 0.460864245 -0.702567577 0.000913981 0.001502038 0 0 0 0
748000000 0.151429966 -0.802631437 0.000891945 0.001354686 0 0 0 0
756000000 -0.192274928 -0.761332809 0.001183671 0.001142952 0 0 0 0
764000000 -0.496397078 -0.558357954 0.001336999 0.000879863 0 0 0 0
772000000 -0.666021525 -0.201489567 0.00138473 0.000559203 0 0 0 0
780000000 -0.603281199 0.224947705 0.00147269 0.000298674 0 0 0 0
788000000 -0.253499984 0.540033876 0.001314863 -0.000865605 0 0 0 0
796000000 0.241435289 0.538897633 4.5396e-05 -0.001914948 0 0 0 0
804000000 0.581587135 0.185397475 -0.002570429 -0.001297681 0 0 0 0
812000000 0.571741163 -0.279472857 -0.00347405 0.001481063 0 0 0 0
820000000 0.283569604 -0.586468756 -0.001158836 0.003783665 0 0 0 0
828000000 -0.098555691 -0.657553613 0.001208083 0.004190969 0 0 0 0
836000000 -0.422661066 -0.527440011 0.003182437 0.003100108 0 0 0 0
844000000 -0.636601209 -0.285069555 0.005001913 0.001255098 0 0 0 0
852000000 -0.717793881 -0.003932329 0.006135717 -0.000722161 0 0 0 0
860000000 -0.683874726 0.266306072 0.006717316 -0.003313419 0 0 0 0
868000000 -0.544423222 0.479634404 0.00688343 -0.007105581 0 0 0 0
876000000 -0.326783746 0.592785298 0.005023271 -0.011201681 0 0 0 0
884000000 -0.092662222 0.588276684 -9.21e-05 -0.015550999 0 0 0 0
892000000 0.093132391 0.456573605 -0.010423444 -0.016326896 0 0 0 0
900000000 0.321213632 0.241966053 -0.024187348 -0.007671033 0 0 0 0
908000000 0.274109214 0.121541537 -0.027287963 0.012122193 0 0 0 0
916000000 0.190280362 0.074858143 -0.012901904 0.03056815 0 0 0 0
924000000 0.119764797 0.053143609 0.012784748 0.033342197 0 0 0 0
932000000 0.037921059 0.132905706 0.034200061 0.014152381 0 0 0 0
940000000 0.070670276 0.287286579 0.031190937 -0.014077375 0 0 0 0
948000000 0.298689395 0.363945156 0.009754244 -0.026307176 0 0 0 0
956000000 0.479701787 0.217001914 -0.004870859 -0.020212883 0 0 0 0
964000000 0.577123403 -0.020221147 -0.011220565 -0.010924441 0 0 0 0
972000000 0.522804439 -0.272541046 -0.012005263 -0.003418902 0 0 0 0
980000000 0.325339198 -0.472475111 -0.009194975 0.001274236 0 0 0 0
988000000 0.04317535 -0.564498841 -0.0073342 0.003786875 0 0 0 0
996000000 -0.249613389 -0.528960049 -0.005731626 0.004039645 0 0 0 0
1004000000 -0.488710492 -0.381748884 -0.004212331 0.005277446 0 0 0 0
