# Hz S RI R 50
700000000 0.761390328 0.55591309 1.267e-06 0.00063419 0 0 0 0
708000000 0.870619118 0.306518107 -7.2202e-05 0.000994482 0 0 0 0
716000000 0.902294814 0.032576795 -4.1581e-05 0.001171347 0 0 0 0
724000000 0.84172213 -0.251978427 0.000345546 0.001282199 0 0 0 0
732000000 0.696934223 -0.506742417 0.000538875 0.001380663 0 0 0 0
740000000 0.455669194 -0.704233348 0.000855137 0.001341012 0 0 0 0
748000000 0.145192459 -0.800918996 0.001178517 0.001078749 0 0 0 0
756000000 -0.193319767 -0.757977962 0.001081525 0.000911354 0 0 0 0
764000000 -0.496556818 -0.550732076 0.001183102 0.000662194 0 0 0 0
772000000 -0.661392807 -0.191977605 0.001189042 -7.2427e-05 0 0 0 0
780000000 -0.588947832 0.236164242 0.000665983 -0.000519625 0 0 0 0
788000000 -0.230365559 0.540592253 -0.000169744 -0.000807792 0 0 0 0
796000000 0.259876191 0.511538326 -0.001724831 -0.000242081 0 0 0 0
804000000 0.575617253 0.148606166 -0.002170817 0.001683306 0 0 0 0
812000000 0.543296933 -0.303874641 -0.000793696 0.003570439 0 0 0 0
820000000 0.246518641 -0.58945471 0.001947262 0.003787847 0 0 0 0
828000000 -0.130715981 -0.637635529 0.003567375 0.002387705 0 0 0 0
836000000 -0.439041376 -0.496323943 0.00432309 0.000759053 0 0 0 0
844000000 -0.632749795 -0.250112086 0.005354786 -0.001234291 0 0 0 0
852000000 -0.70256257 0.024521365 0.005455757 -0.003085094 0 0 0 0
860000000 -0.654156386 0.287855833 0.005499203 -0.005676914 0 0 0 0
868000000 -0.502609491 0.481066197 0.004658457 -0.009402395 0 0 0 0
876000000 -0.282693535 0.578709423 0.001016612 -0.013472161 0 0 0 0
884000000 -0.058504704 0.550266802 -0.0068851 -0.015650408 0 0 0 0
892000000 0.103692725 0.405013769 -0.018904114 -0.011329874 0 0 0 0
900000000 0.307155877 0.189651489 -0.02869649 0.007185756 0 0 0 0
908000000 0.215595424 0.075941041 -0.017243945 0.031314399 0 0 0 0
916000000 0.113092884 0.062624432 0.013674977 0.036795172 0 0 0 0
924000000 0.039598267 0.108476229 0.037094671 0.012169593 0 0 0 0
932000000 0.015555871 0.227352455 0.029628464 -0.019597157 0 0 0 0
940000000 0.138136193 0.368505239 0.004796219 -0.02667405 0 0 0 0
948000000 0.388820916 0.357626289 -0.008365432 -0.016576969 0 0 0 0
956000000 0.53715825 0.178495958 -0.010667797 -0.007543651 0 0 0 0
964000000 0.597093939 -0.065129041 -0.009181463 -0.001112935 0 0 0 0
972000000 0.506339132 -0.309811085 -0.007394022 0.002832549 0 0 0 0
980000000 0.293016254 -0.504665374 -0.00366885 0.003514609 0 0 0 0
988000000 0.029347538 -0.566522836 -0.002161155 0.003975011 0 0 0 0
996000000 -0.265048354 -0.525552511 -0.001922828 0.002750846 0 0 0 0
1004000000 -0.500204801 -0.381195932 -0.001664646 0.00241646 0 0 0 0
