# Hz S RI R 50
700000000 0.761049032 0.555849611 -8.5516e-05 0.000554731 0 0 0 0
708000000 0.86864978 0.306750297 -0.000214057 0.000880145 0 0 0 0
716000000 0.902086198 0.032145645 -7.19e-06 0.00123211 0 0 0 0
724000000 0.843153178 -0.249012261 0.000186991 0.001532468 0 0 0 0
732000000 0.697627484 -0.507219672 0.000598036 0.001594003 0 0 0 0
740000000 0.455528885 -0.703507184 0.000812104 0.001661766 0 0 0 0
748000000 0.144102305 -0.801009535 0.001032331 0.00142353 0 0 0 0
756000000 -0.193740457 -0.759554028 0.00133417 0.000830838 0 0 0 0
764000000 -0.49878776 -0.553333342 0.001444086 0.000521139 0 0 0 0
772000000 -0.665742695 -0.195644155 0.001446343 0.000326179 0 0 0 0
780000000 -0.593788683 0.232883721 0.001415568 -0.000534566 0 0 0 0
788000000 -0.243088215 0.543207824 0.000456364 -0.001319597 0 0 0 0
796000000 0.247063502 0.526993513 -0.001467734 -0.001373234 0 0 0 0
804000000 0.578982412 0.171687334 -0.003400775 0.00053951 0 0 0 0
812000000 0.558799266 -0.290818035 -0.002563768 0.003445725 0 0 0 0
820000000 0.272650629 -0.58485496 0.000451168 0.004492297 0 0 0 0
828000000 -0.109917789 -0.648933112 0.00275816 0.003677219 0 0 0 0
836000000 -0.428960829 -0.518582999 0.004412766 0.002099496 0 0 0 0
844000000 -0.632859349 -0.27906391 0.005517915 0.0001891 0 0 0 0
852000000 -0.713445246 0.001327609 0.006484453 -0.001816219 0 0 0 0
860000000 -0.679831326 0.2692281 0.007258616 -0.004467689 0 0 0 0
868000000 -0.535691618 0.479305356 0.006969011 -0.008894034 0 0 0 0
876000000 -0.324009805 0.598890602 0.004241722 -0.013869775 0 0 0 0
884000000 -0.085074923 0.590974032 -0.003579304 -0.01836528 0 0 0 0
892000000 0.109349168 0.462735772 -0.017154179 -0.017219327 0 0 0 0
900000000 0.352612316 0.229403898 -0.031540501 -0.000689186 0 0 0 0
908000000 0.275643378 0.092384368 -0.027993561 0.027572091 0 0 0 0
916000000 0.165290266 0.050876021 0.001414066 0.044432673 0 0 0 0
924000000 0.091068513 0.072869136 0.035725299 0.029831193 0 0 0 0
932000000 0.031335014 0.157555878 0.044916961 -0.009192061 0 0 0 0
940000000 0.093226052 0.288330793 0.0187192 -0.033603142 0 0 0 0
948000000 0.309251219 0.351982653 -0.007212835 -0.027067454 0 0 0 0
956000000 0.490981131 0.220845565 -0.013923882 -0.012399146 0 0 0 0
964000000 0.572608828 -0.021711168 -0.01269502 -0.002925912 0 0 0 0
972000000 0.512650191 -0.274863392 -0.00941882 0.002162772 0 0 0 0
980000000 0.307999163 -0.4757407 -0.005686509 0.003795284 0 0 0 0
988000000 0.045761257 -0.569864869 -0.003337207 0.004314548 0 0 0 0
996000000 -0.236675262 -0.52243036 -0.002783129 0.004137438 0 0 0 0
1004000000 -0.483163744 -0.389684528 -0.002550708 0.003560082 0 0 0 0
