# Hz S RI R 50
700000000 0.760336577 0.557825446 -7.5892e-05 0.000731031 0 0 0 0
708000000 0.866222858 0.307359725 6.3475e-05 0.001005871 0 0 0 0
716000000 0.902684211 0.030957393 0.000261069 0.001269153 0 0 0 0
724000000 0.84012717 -0.244527041 0.000264484 0.00145935 0 0 0 0
732000000 0.695660471 -0.505610644 0.000481803 0.001381568 0 0 0 0
740000000 0.457644879 -0.703136682 0.000781586 0.001458547 0 0 0 0
748000000 0.147018402 -0.801254749 0.00107401 0.001070137 0 0 0 0
756000000 -0.194309324 -0.758272826 0.001358674 0.000941991 0 0 0 0
764000000 -0.499165713 -0.551484227 0.001166476 0.000544533 0 0 0 0
772000000 -0.66293478 -0.190449222 0.001159107 4.1988e-05 0 0 0 0
780000000 -0.587530434 0.236467242 0.000967871 -0.000306242 0 0 0 0
788000000 -0.23141247 0.542731821 0.000116823 -0.000674707 0 0 0 0
796000000 0.259686321 0.516946315 -0.001224934 -0.000381566 0 0 0 0
804000000 0.581058263 0.154096528 -0.00203224 0.001049304 0 0 0 0
812000000 0.549063563 -0.301820814 -0.001165462 0.002876638 0 0 0 0
820000000 0.251884311 -0.59062469 0.001136844 0.003395881 0 0 0 0
828000000 -0.126790985 -0.641286849 0.002827776 0.002264266 0 0 0 0
836000000 -0.440272986 -0.501778483 0.003504003 0.001076204 0 0 0 0
844000000 -0.635669589 -0.254645913 0.004389625 -0.000402601 0 0 0 0
852000000 -0.702998578 0.022936457 0.004957549 -0.00202098 0 0 0 0
860000000 -0.656829595 0.290148854 0.005614237 -0.004003017 0 0 0 0
868000000 -0.505757391 0.488648056 0.005629425 -0.007439361 0 0 0 0
876000000 -0.287314116 0.588238537 0.003603795 -0.01165156 0 0 0 0
884000000 -0.057812377 0.556857824 -0.002564524 -0.015715457 0 0 0 0
892000000 0.107747964 0.40782082 -0.014205607 -0.015355153 0 0 0 0
900000000 0.303322911 0.182856082 -0.028003329 -0.000934715 0 0 0 0
908000000 0.217006072 0.080771364 -0.025354987 0.023737831 0 0 0 0
916000000 0.122888572 0.06660249 0.001406171 0.039446003 0 0 0 0
924000000 0.056110188 0.108736157 0.03202904 0.025482013 0 0 0 0
932000000 0.024182662 0.219452187 0.037699453 -0.008692947 0 0 0 0
940000000 0.12830016 0.351348668 0.016139565 -0.028044123 0 0 0 0
948000000 0.372265875 0.361393183 -0.005121855 -0.023120643 0 0 0 0
956000000 0.530297338 0.188234999 -0.011510227 -0.010956591 0 0 0 0
964000000 0.593074679 -0.055685579 -0.010194497 -0.00255171 0 0 0 0
972000000 0.510041415 -0.311913371 -0.008360313 0.00130006 0 0 0 0
980000000 0.299908101 -0.498568832 -0.005066724 0.002963975 0 0 0 0
988000000 0.022620134 -0.576954782 -0.003350681 0.003891455 0 0 0 0
996000000 -0.259969145 -0.525473237 -0.002189465 0.003122938 0 0 0 0
1004000000 -0.497669786 -0.384633779 -0.002180652 0.00328796 0 0 0 0
