# Hz S RI R 50
700000000 0.761583387 0.552882432 -7.699e-06 0.000712583 0 0 0 0
708000000 0.868173003 0.309613287 7.2716e-05 0.000993758 0 0 0 0
716000000 0.90290457 0.03536209 -6.4772e-05 0.001039597 0 0 0 0
724000000 0.843724966 -0.249539628 0.000185473 0.001443608 0 0 0 0
732000000 0.698437392 -0.504103779 0.000554514 0.001579105 0 0 0 0
740000000 0.461587488 -0.701518595 0.00094506 0.001474927 0 0 0 0
748000000 0.150034263 -0.79920727 0.001091767 0.001104191 0 0 0 0
756000000 -0.190825819 -0.762430012 0.001306157 0.000882942 0 0 0 0
764000000 -0.492310822 -0.558351039 0.001222908 0.000485283 0 0 0 0
772000000 -0.663578212 -0.205082863 0.001250206 0.00034088 0 0 0 0
780000000 -0.600057363 0.220703855 0.000935125 -0.000234925 0 0 0 0
788000000 -0.252349466 0.53741616 0.000301168 -0.000903252 0 0 0 0
796000000 0.237594753 0.528895854 -0.001349571 -0.000875723 0 0 0 0
804000000 0.575283169 0.177868515 -0.002636988 0.001015214 0 0 0 0
812000000 0.562524855 -0.285602927 -0.001101197 0.003041962 0 0 0 0
820000000 0.273342818 -0.57755059 0.001192701 0.003523258 0 0 0 0
828000000 -0.10649392 -0.643865466 0.002745856 0.002146758 0 0 0 0
836000000 -0.423434168 -0.516383171 0.003509535 0.00077677 0 0 0 0
844000000 -0.626248538 -0.27422741 0.004075493 -0.000447303 0 0 0 0
852000000 -0.707606375 0.002120638 0.004570181 -0.001824263 0 0 0 0
860000000 -0.671973645 0.266622513 0.005133924 -0.003288061 0 0 0 0
868000000 -0.5310207 0.472483009 0.005219247 -0.006231324 0 0 0 0
876000000 -0.314085066 0.582970201 0.004302871 -0.010014604 0 0 0 0
884000000 -0.090022668 0.573434352 -0.000133655 -0.014411344 0 0 0 0
892000000 0.089637257 0.441502988 -0.010135394 -0.016211474 0 0 0 0
900000000 0.319172143 0.227377042 -0.025584787 -0.006795697 0 0 0 0
908000000 0.249194562 0.109020285 -0.029555169 0.015968732 0 0 0 0
916000000 0.167616292 0.075395777 -0.00934096 0.037447441 0 0 0 0
924000000 0.111420534 0.080124162 0.023931505 0.033740483 0 0 0 0
932000000 0.03894947 0.146123051 0.040646322 0.001983923 0 0 0 0
940000000 0.085576958 0.300217747 0.02446104 -0.025322992 0 0 0 0
948000000 0.305587947 0.363901972 0.000798972 -0.026593549 0 0 0 0
956000000 0.496525228 0.216604903 -0.010215957 -0.015255559 0 0 0 0
964000000 0.589053452 -0.028177548 -0.011519213 -0.005426448 0 0 0 0
972000000 0.518037378 -0.288623571 -0.009917831 9.5929e-05 0 0 0 0
980000000 0.31233707 -0.491285413 -0.00650602 0.002497044 0 0 0 0
988000000 0.045194353 -0.571172654 -0.004844302 0.003751003 0 0 0 0
996000000 -0.250601917 -0.528102934 -0.00318318 0.003325808 0 0 0 0
1004000000 -0.492647975 -0.39254567 -0.003218066 0.00399614 0 0 0 0
