# Hz S RI R 50
700000000 0.762957632 0.553248286 3.9909e-05 0.000668807 0 0 0 0
708000000 0.865600168 0.306888014 -6.581e-05 0.000925269 0 0 0 0
716000000 0.900437533 0.033661 5.1943e-05 0.001214215 0 0 0 0
724000000 0.83833909 -0.245774194 9.5819e-05 0.001494512 0 0 0 0
732000000 0.695254266 -0.505599319 0.000537513 0.001457034 0 0 0 0
740000000 0.456528663 -0.706578016 0.000594399 0.001545511 0 0 0 0
748000000 0.146531566 -0.801551222 0.00105502 0.001336386 0 0 0 0
756000000 -0.192778185 -0.758107781 0.001228422 0.001124933 0 0 0 0
764000000 -0.495205223 -0.554254591 0.001234455 0.000820368 0 0 0 0
772000000 -0.665250301 -0.195064544 0.001437447 0.000808548 0 0 0 0
780000000 -0.593212246 0.232279807 0.001804775 -0.000139657 0 0 0 0
788000000 -0.239554375 0.542254209 0.001333424 -0.001319765 0 0 0 0
796000000 0.250990003 0.523252308 -0.000717485 -0.001966947 0 0 0 0
804000000 0.580660581 0.161688506 -0.003081229 -0.000475367 0 0 0 0
812000000 0.552758276 -0.296215593 -0.00303369 0.002527365 0 0 0 0
820000000 0.259936094 -0.584162414 -0.000354209 0.004201113 0 0 0 0
828000000 -0.114741131 -0.646360754 0.001914374 0.003660315 0 0 0 0
836000000 -0.429811298 -0.509073376 0.003692942 0.002318884 0 0 0 0
844000000 -0.632448494 -0.268230885 0.00499232 0.0005657 0 0 0 0
852000000 -0.713221728 0.009549369 0.005871121 -0.001072363 0 0 0 0
860000000 -0.670354723 0.273901015 0.006533605 -0.003246043 0 0 0 0
868000000 -0.531977057 0.481328636 0.006924549 -0.006943587 0 0 0 0
876000000 -0.311683177 0.590871453 0.005599162 -0.011706367 0 0 0 0
884000000 -0.083981469 0.583953499 -0.000196106 -0.016886431 0 0 0 0
892000000 0.108225315 0.448050677 -0.011815289 -0.018410403 0 0 0 0
900000000 0.335040748 0.229843035 -0.029087914 -0.007484871 0 0 0 0
908000000 0.276142776 0.082026965 -0.031910169 0.017643686 0 0 0 0
916000000 0.158247977 0.036223579 -0.011140178 0.039828512 0 0 0 0
924000000 0.047640059 0.059930469 0.023111924 0.037575162 0 0 0 0
932000000 0.001067262 0.20432879 0.043785527 0.006682089 0 0 0 0
940000000 0.110408782 0.347947418 0.031061146 -0.025339039 0 0 0 0
948000000 0.344667971 0.360220074 0.003093831 -0.03185999 0 0 0 0
956000000 0.519045829 0.217639625 -0.012174881 -0.019884308 0 0 0 0
964000000 0.589596807 -0.035527966 -0.015061384 -0.006421265 0 0 0 0
972000000 0.50684905 -0.296266525 -0.012212675 0.001137383 0 0 0 0
980000000 0.314029216 -0.495875507 -0.007811721 0.004355639 0 0 0 0
988000000 0.021003371 -0.576266646 -0.004385604 0.005402912 0 0 0 0
996000000 -0.255072265 -0.527563333 -0.002603359 0.004015779 0 0 0 0
1004000000 -0.495611786 -0.392280876 -0.001584297 0.003952619 0 0 0 0
