# Hz S RI R 50
700000000 0.76312524 0.552606582 -7.5419e-05 0.000627033 0 0 0 0
708000000 0.86781907 0.306068837 -0.000124274 0.00089045 0 0 0 0
716000000 0.90176022 0.031784221 -6.4306e-05 0.001078196 0 0 0 0
724000000 0.84630984 -0.24529758 8.2599e-05 0.00132316 0 0 0 0
732000000 0.697202146 -0.505575537 0.000313255 0.00158086 0 0 0 0
740000000 0.459280431 -0.702484548 0.000698206 0.001631524 0 0 0 0
748000000 0.147585839 -0.802854537 0.001096251 0.001235778 0 0 0 0
756000000 -0.193612068 -0.760845243 0.001005617 0.001255079 0 0 0 0
764000000 -0.49467355 -0.554028272 0.001287144 0.000862313 0 0 0 0
772000000 -0.664855957 -0.200771465 0.001500168 0.000724278 0 0 0 0
780000000 -0.598651528 0.227619662 0.001940278 3.242e-05 0 0 0 0
788000000 -0.246033459 0.544913172 0.001565224 -0.001143225 0 0 0 0
796000000 0.247353598 0.527772605 -0.000437503 -0.00241117 0 0 0 0
804000000 0.579153239 0.171209573 -0.003196266 -0.000970075 0 0 0 0
812000000 0.563260674 -0.290191322 -0.003345468 0.002304858 0 0 0 0
820000000 0.269324481 -0.588253378 -0.00070909 0.004250209 0 0 0 0
828000000 -0.111748248 -0.648618698 0.001887362 0.003923384 0 0 0 0
836000000 -0.430640071 -0.511901021 0.003790551 0.002567641 0 0 0 0
844000000 -0.63197571 -0.273666322 0.005127025 0.001097213 0 0 0 0
852000000 -0.715081334 0.00989408 0.006222695 -0.000811912 0 0 0 0
860000000 -0.671868324 0.274032622 0.006938311 -0.003311415 0 0 0 0
868000000 -0.530376732 0.48236531 0.007094976 -0.007033808 0 0 0 0
876000000 -0.307595402 0.590349078 0.005852228 -0.011780166 0 0 0 0
884000000 -0.077475987 0.57648158 0.000158975 -0.017316395 0 0 0 0
892000000 0.097957856 0.437532931 -0.012015268 -0.01902553 0 0 0 0
900000000 0.322118818 0.206506013 -0.028829924 -0.006949981 0 0 0 0
908000000 0.24821034 0.103813119 -0.031842634 0.017444336 0 0 0 0
916000000 0.168920159 0.069286197 -0.012008856 0.039679538 0 0 0 0
924000000 0.086578428 0.075407966 0.022198088 0.039013635 0 0 0 0
932000000 0.026716515 0.180409923 0.04408672 0.008247954 0 0 0 0
940000000 0.102225877 0.31744942 0.03185359 -0.024983519 0 0 0 0
948000000 0.332519114 0.357375234 0.004594877 -0.032030649 0 0 0 0
956000000 0.503885805 0.212540969 -0.010967531 -0.02061217 0 0 0 0
964000000 0.584381043 -0.034066855 -0.015190656 -0.007866139 0 0 0 0
972000000 0.505952656 -0.289058417 -0.013386285 7.9094e-05 0 0 0 0
980000000 0.305944621 -0.491170108 -0.009031977 0.003889722 0 0 0 0
988000000 0.031536914 -0.569465339 -0.005404465 0.005218372 0 0 0 0
996000000 -0.247269973 -0.525150477 -0.003485544 0.005214052 0 0 0 0
1004000000 -0.495406657 -0.392127156 -0.002233939 0.004578372 0 0 0 0
