# Hz S RI R 50
700000000 0.764256715 0.551588118 2.427e-06 0.000561461 0 0 0 0
708000000 0.869807422 0.306569814 -0.000147036 0.00102819 0 0 0 0
716000000 0.901966333 0.030970472 2.4058e-05 0.001157637 0 0 0 0
724000000 0.844715476 -0.249694064 0.000182105 0.001509499 0 0 0 0
732000000 0.697678804 -0.50606209 0.000395229 0.001408793 0 0 0 0
740000000 0.458331018 -0.705012023 0.000714923 0.001486058 0 0 0 0
748000000 0.150993376 -0.803339242 0.001157597 0.001154702 0 0 0 0
756000000 -0.191854313 -0.760366976 0.001379374 0.000919003 0 0 0 0
764000000 -0.49620831 -0.558560132 0.001083567 0.000531457 0 0 0 0
772000000 -0.664230227 -0.204260468 0.001313993 0.000194812 0 0 0 0
780000000 -0.601874649 0.221946567 0.00099655 -0.000292955 0 0 0 0
788000000 -0.254057645 0.538063943 0.000181353 -0.001045762 0 0 0 0
796000000 0.234929308 0.530977606 -0.001329687 -0.00083707 0 0 0 0
804000000 0.575774848 0.180661484 -0.00280556 0.000574237 0 0 0 0
812000000 0.56097728 -0.278322964 -0.002093747 0.003120564 0 0 0 0
820000000 0.278745323 -0.581813693 0.000729198 0.004143704 0 0 0 0
828000000 -0.102319873 -0.649101257 0.002633755 0.003380957 0 0 0 0
836000000 -0.421431928 -0.52203226 0.00396213 0.001889215 0 0 0 0
844000000 -0.630322337 -0.27872765 0.005501566 0.000142523 0 0 0 0
852000000 -0.710079014 -0.0026057 0.006525565 -0.001980029 0 0 0 0
860000000 -0.674841403 0.266121357 0.006959197 -0.004864504 0 0 0 0
868000000 -0.5404163 0.475041538 0.006495439 -0.00868097 0 0 0 0
876000000 -0.322510361 0.589698076 0.00390221 -0.013539339 0 0 0 0
884000000 -0.091420322 0.589449822 -0.003272401 -0.017974784 0 0 0 0
892000000 0.100287064 0.454747468 -0.01697446 -0.016890589 0 0 0 0
900000000 0.330798357 0.23664458 -0.032717697 -0.001043472 0 0 0 0
908000000 0.263170689 0.09652324 -0.028505356 0.026928221 0 0 0 0
916000000 0.172549396 0.056696519 0.001334576 0.0453891 0 0 0 0
924000000 0.099723003 0.067405916 0.037507582 0.028750132 0 0 0 0
932000000 0.036825127 0.136336013 0.043761383 -0.011271201 0 0 0 0
940000000 0.079303972 0.305347084 0.015819475 -0.032828491 0 0 0 0
948000000 0.305153638 0.377673476 -0.006891401 -0.02471316 0 0 0 0
956000000 0.499210387 0.226972714 -0.012612874 -0.012529439 0 0 0 0
964000000 0.594125509 -0.026275062 -0.012089027 -0.002831355 0 0 0 0
972000000 0.516251027 -0.279738992 -0.009520185 0.002259456 0 0 0 0
980000000 0.315612196 -0.488911956 -0.0056823 0.004463304 0 0 0 0
988000000 0.043509814 -0.566884338 -0.003541789 0.004287533 0 0 0 0
996000000 -0.246678635 -0.530044853 -0.001709016 0.003542663 0 0 0 0
1004000000 -0.495046019 -0.393967777 -0.001806787 0.003931379 0 0 0 0
