# Hz S RI R 50
700000000 0.760459065 0.553672909 -1.9588e-05 0.00059277 0 0 0 0
708000000 0.867642343 0.306709825 -2.9338e-05 0.000903932 0 0 0 0
716000000 0.90063405 0.032784596 0.000136347 0.001223704 0 0 0 0
724000000 0.848574817 -0.248363897 0.000324441 0.001413546 0 0 0 0
732000000 0.699438393 -0.504476964 0.000385554 0.001335732 0 0 0 0
740000000 0.458850115 -0.699550092 0.000619316 0.001364128 0 0 0 0
748000000 0.150659769 -0.802507102 0.000951804 0.001182027 0 0 0 0
756000000 -0.192627325 -0.761200249 0.001263327 0.001036046 0 0 0 0
764000000 -0.495875597 -0.55619508 0.001209981 0.000969566 0 0 0 0
772000000 -0.668793857 -0.202006444 0.001520313 0.000637521 0 0 0 0
780000000 -0.601204156 0.229761868 0.001730175 -5.501e-05 0 0 0 0
788000000 -0.252366572 0.544372797 0.000951617 -0.001267486 0 0 0 0
796000000 0.244157984 0.535293817 -0.001128611 -0.00192971 0 0 0 0
804000000 0.584439218 0.185845121 -0.003484701 -0.000150414 0 0 0 0
812000000 0.571974098 -0.278694242 -0.00284789 0.002855935 0 0 0 0
820000000 0.284951001 -0.585730075 -9.0885e-05 0.004579239 0 0 0 0
828000000 -0.099389024 -0.653194904 0.002717324 0.003850826 0 0 0 0
836000000 -0.420107185 -0.527935087 0.004305724 0.001912585 0 0 0 0
844000000 -0.63124603 -0.288588643 0.005089661 -1.3035e-05 0 0 0 0
852000000 -0.713784992 -0.008664778 0.005756386 -0.001845739 0 0 0 0
860000000 -0.686234295 0.25942865 0.006309241 -0.004087843 0 0 0 0
868000000 -0.547992885 0.47199136 0.006040691 -0.007659122 0 0 0 0
876000000 -0.340027481 0.596419155 0.00427463 -0.011685463 0 0 0 0
884000000 -0.105125129 0.604955077 -0.001447798 -0.015956403 0 0 0 0
892000000 0.09396959 0.487604767 -0.01258085 -0.016367813 0 0 0 0
900000000 0.364231109 0.262138813 -0.02803957 -0.004616395 0 0 0 0
908000000 0.310157358 0.099946908 -0.027970587 0.018398938 0 0 0 0
916000000 0.207795739 0.020841371 -0.007121425 0.037126693 0 0 0 0
924000000 0.092791147 0.028793962 0.023565271 0.0325316 0 0 0 0
932000000 0.017099557 0.130640372 0.039803914 0.003451416 0 0 0 0
940000000 0.065470218 0.295368224 0.026054404 -0.024208564 0 0 0 0
948000000 0.285004496 0.354258179 0.001012782 -0.027726804 0 0 0 0
956000000 0.468695253 0.234657868 -0.010460576 -0.017083518 0 0 0 0
964000000 0.572402119 -0.001741019 -0.012962266 -0.006607112 0 0 0 0
972000000 0.509151279 -0.260556966 -0.011568681 0.000336243 0 0 0 0
980000000 0.325455754 -0.469128549 -0.006858805 0.00402455 0 0 0 0
988000000 0.053249359 -0.556236624 -0.004217436 0.004541859 0 0 0 0
996000000 -0.240921646 -0.53273642 -0.002474925 0.003834568 0 0 0 0
1004000000 -0.480496853 -0.39275071 -0.002032349 0.003352355 0 0 0 0
