# Hz S RI R 50
700000000 0.761466622 0.553858339 -1.7972e-05 0.000592154 0 0 0 0
708000000 0.867764234 0.306682795 -3.3054e-05 0.001074569 0 0 0 0
716000000 0.900598824 0.029689494 0.000243333 0.001267543 0 0 0 0
724000000 0.842009723 -0.248528361 0.000332468 0.001480535 0 0 0 0
732000000 0.694859564 -0.505071878 0.00048252 0.001490228 0 0 0 0
740000000 0.455817401 -0.702604174 0.000985982 0.001249278 0 0 0 0
748000000 0.144812718 -0.796963751 0.001099562 0.001254597 0 0 0 0
756000000 -0.19477801 -0.755170643 0.001239905 0.000918985 0 0 0 0
764000000 -0.495456993 -0.551040351 0.001364697 0.000645706 0 0 0 0
772000000 -0.661901235 -0.194518044 0.001300306 0.000411677 0 0 0 0
780000000 -0.58806163 0.23362872 0.001173518 -0.000360663 0 0 0 0
788000000 -0.237669721 0.53958714 0.00031126 -0.001158174 0 0 0 0
796000000 0.250450342 0.518472969 -0.001718976 -0.000809884 0 0 0 0
804000000 0.576642036 0.163927495 -0.00268321 0.001058899 0 0 0 0
812000000 0.552443385 -0.291993111 -0.001606079 0.003547778 0 0 0 0
820000000 0.262564688 -0.581811666 0.000996761 0.004087425 0 0 0 0
828000000 -0.115529283 -0.639546513 0.003241923 0.002997503 0 0 0 0
836000000 -0.426387459 -0.506880819 0.004492511 0.001394449 0 0 0 0
844000000 -0.629190742 -0.268505632 0.005259363 -0.000557911 0 0 0 0
852000000 -0.708350062 0.009644439 0.005867408 -0.00246757 0 0 0 0
860000000 -0.667755842 0.278931617 0.006579288 -0.005081515 0 0 0 0
868000000 -0.523450374 0.481155455 0.005936093 -0.009155495 0 0 0 0
876000000 -0.304464578 0.586796522 0.002752453 -0.013603528 0 0 0 0
884000000 -0.076248638 0.57235676 -0.005134433 -0.017373275 0 0 0 0
892000000 0.105555936 0.431652784 -0.018731882 -0.014699402 0 0 0 0
900000000 0.330641031 0.199373334 -0.031138187 0.003900543 0 0 0 0
908000000 0.239374458 0.081145085 -0.021643079 0.031387664 0 0 0 0
916000000 0.139034032 0.067974641 0.011241816 0.040438536 0 0 0 0
924000000 0.072506666 0.087211482 0.038090847 0.016247101 0 0 0 0
932000000 0.025383194 0.185468673 0.032915849 -0.018155157 0 0 0 0
940000000 0.108869284 0.326933234 0.007338405 -0.028025357 0 0 0 0
948000000 0.347183972 0.365657418 -0.008569255 -0.018575936 0 0 0 0
956000000 0.529986381 0.211945265 -0.011190892 -0.007743876 0 0 0 0
964000000 0.590768456 -0.041231494 -0.008917524 -0.000685213 0 0 0 0
972000000 0.511102557 -0.30054304 -0.006796232 0.001683881 0 0 0 0
980000000 0.30080375 -0.501320481 -0.00345795 0.00345215 0 0 0 0
988000000 0.028143709 -0.571014702 -0.002759011 0.002873797 0 0 0 0
996000000 -0.260755598 -0.520726442 -0.002313534 0.001727333 0 0 0 0
1004000000 -0.490969955 -0.38492763 -0.001852789 0.00266237 0 0 0 0
