# Hz S RI R 50
700000000 0.757175862 0.554881215 -3.1429e-05 0.000509603 0 0 0 0
708000000 0.868868947 0.30903697 -0.000106347 0.000803701 0 0 0 0
716000000 0.898031055 0.031852949 6.331e-06 0.001012587 0 0 0 0
724000000 0.847094118 -0.250305891 0.000208672 0.001360119 0 0 0 0
732000000 0.69730699 -0.506929695 0.000497575 0.001628955 0 0 0 0
740000000 0.459620952 -0.701990246 0.000523078 0.00134119 0 0 0 0
748000000 0.147399276 -0.801308929 0.000772653 0.0014325 0 0 0 0
756000000 -0.194847494 -0.759095191 0.001121878 0.001273122 0 0 0 0
764000000 -0.500001013 -0.553537905 0.001057982 0.00095605 0 0 0 0
772000000 -0.670745134 -0.194355472 0.001428311 0.000955435 0 0 0 0
780000000 -0.598080098 0.234039515 0.001878286 0.000367825 0 0 0 0
788000000 -0.242795825 0.547370254 0.001948078 -0.001165191 0 0 0 0
796000000 0.251447886 0.533427 -0.000181537 -0.002631577 0 0 0 0
804000000 0.585111558 0.174581289 -0.003210054 -0.001538218 0 0 0 0
812000000 0.566324174 -0.291243106 -0.003839791 0.001939147 0 0 0 0
820000000 0.276989817 -0.589305162 -0.001175987 0.004674861 0 0 0 0
828000000 -0.105631627 -0.654506862 0.001538482 0.004322834 0 0 0 0
836000000 -0.429479211 -0.522503256 0.003976543 0.002887174 0 0 0 0
844000000 -0.639322698 -0.278151839 0.005177366 0.000751003 0 0 0 0
852000000 -0.717235386 0.000234469 0.006101636 -0.001319665 0 0 0 0
860000000 -0.678490221 0.272831439 0.006821454 -0.00345903 0 0 0 0
868000000 -0.536552608 0.479958593 0.006716383 -0.007212459 0 0 0 0
876000000 -0.319156229 0.595876753 0.005148786 -0.011412963 0 0 0 0
884000000 -0.084571689 0.588245332 -0.000183828 -0.016204275 0 0 0 0
892000000 0.100536376 0.458137243 -0.011339082 -0.017434649 0 0 0 0
900000000 0.333987504 0.234582841 -0.026200842 -0.006479789 0 0 0 0
908000000 0.275951594 0.100305348 -0.028964346 0.016360374 0 0 0 0
916000000 0.188549354 0.044796232 -0.0100269 0.035757839 0 0 0 0
924000000 0.084998078 0.047499317 0.019649989 0.03462262 0 0 0 0
932000000 0.021058881 0.157432302 0.039126608 0.008483062 0 0 0 0
940000000 0.09069845 0.306959092 0.029710639 -0.021348625 0 0 0 0
948000000 0.314491301 0.361618995 0.004279726 -0.029409123 0 0 0 0
956000000 0.492624461 0.218114212 -0.010075275 -0.018473235 0 0 0 0
964000000 0.580204844 -0.029170742 -0.012509498 -0.006739947 0 0 0 0
972000000 0.504695415 -0.282981723 -0.010778184 -0.000362027 0 0 0 0
980000000 0.308174222 -0.484476357 -0.007314466 0.002996028 0 0 0 0
988000000 0.040268354 -0.561128973 -0.00518738 0.004491088 0 0 0 0
996000000 -0.25556463 -0.519241452 -0.003053515 0.003679053 0 0 0 0
1004000000 -0.48931995 -0.387918442 -0.002532145 0.004446992 0 0 0 0
