# Hz S RI R 50
700000000 0.761380016 0.55768454 -6.039e-05 0.000580483 0 0 0 0
708000000 0.865277469 0.306882143 -4.8009e-05 0.000857322 0 0 0 0
716000000 0.900839984 0.031847093 -0.000111286 0.001103298 0 0 0 0
724000000 0.84647119 -0.247448146 -6.9926e-05 0.001347986 0 0 0 0
732000000 0.695453703 -0.504553973 0.000242435 0.001522027 0 0 0 0
740000000 0.456007957 -0.702854037 0.000716437 0.001462262 0 0 0 0
748000000 0.145268544 -0.797609984 0.000977889 0.001502224 0 0 0 0
756000000 -0.193346202 -0.758840501 0.001210964 0.001202816 0 0 0 0
764000000 -0.496463179 -0.553590536 0.001496987 0.000912424 0 0 0 0
772000000 -0.662636637 -0.197109997 0.001859113 0.00059252 0 0 0 0
780000000 -0.596371829 0.229207277 0.001844924 -0.00019134 0 0 0 0
788000000 -0.247941285 0.541728436 0.001367251 -0.00173553 0 0 0 0
796000000 0.243016913 0.528979063 -0.001041369 -0.002294505 0 0 0 0
804000000 0.578995585 0.177581146 -0.003665402 -0.000838148 0 0 0 0
812000000 0.56130892 -0.282750308 -0.003706574 0.002755471 0 0 0 0
820000000 0.274538397 -0.581613719 -0.000992963 0.005149324 0 0 0 0
828000000 -0.104210637 -0.647834599 0.00221888 0.005056362 0 0 0 0
836000000 -0.420112788 -0.516417682 0.004590766 0.003424211 0 0 0 0
844000000 -0.630360722 -0.279350578 0.006239419 0.001352447 0 0 0 0
852000000 -0.709601342 -0.001983063 0.007924597 -0.001215196 0 0 0 0
860000000 -0.673251926 0.267095088 0.008814305 -0.004737295 0 0 0 0
868000000 -0.539063513 0.47346422 0.008364764 -0.00996536 0 0 0 0
876000000 -0.324990034 0.593652367 0.004897976 -0.015836823 0 0 0 0
884000000 -0.091340139 0.58985424 -0.003927408 -0.02088733 0 0 0 0
892000000 0.102225795 0.45900613 -0.019615897 -0.019598094 0 0 0 0
900000000 0.344286769 0.230365037 -0.035996638 -0.000388954 0 0 0 0
908000000 0.271305322 0.083407625 -0.031111193 0.030821792 0 0 0 0
916000000 0.155343979 0.046477094 0.001161534 0.048350825 0 0 0 0
924000000 0.075446836 0.07821311 0.037680443 0.033706482 0 0 0 0
932000000 0.041090976 0.164084568 0.049481239 -0.007107655 0 0 0 0
940000000 0.095566518 0.294309049 0.023790175 -0.037876769 0 0 0 0
948000000 0.29959324 0.35490325 -0.007916026 -0.033200033 0 0 0 0
956000000 0.487032026 0.217512264 -0.017055973 -0.014661169 0 0 0 0
964000000 0.572303414 -0.028974968 -0.014855733 -0.002113035 0 0 0 0
972000000 0.507321655 -0.282154917 -0.011056177 0.003519236 0 0 0 0
980000000 0.31244865 -0.489741802 -0.005839351 0.005754808 0 0 0 0
988000000 0.044569298 -0.567544162 -0.002939221 0.00554136 0 0 0 0
996000000 -0.246598005 -0.513766944 -0.001882125 0.004357384 0 0 0 0
1004000000 -0.484891563 -0.388088673 -0.001154981 0.0038446 0 0 0 0
