# Hz S RI R 50
700000000 0.76360166 0.552775681 -2.6069e-05 0.000538064 0 0 0 0
708000000 0.870599031 0.308423429 -4.4059e-05 0.000844459 0 0 0 0
716000000 0.898671269 0.028505265 -5.0626e-05 0.001166331 0 0 0 0
724000000 0.845163345 -0.251608312 0.000111004 0.001344064 0 0 0 0
732000000 0.697725057 -0.509108722 0.000408294 0.001652733 0 0 0 0
740000000 0.458198726 -0.705944418 0.000497112 0.001521051 0 0 0 0
748000000 0.147896498 -0.801713168 0.001059575 0.001316313 0 0 0 0
756000000 -0.194306164 -0.761479496 0.001110115 0.0010393 0 0 0 0
764000000 -0.497833311 -0.553364038 0.001321379 0.001148318 0 0 0 0
772000000 -0.666179955 -0.199795991 0.00152206 0.000708946 0 0 0 0
780000000 -0.597717821 0.229372978 0.001835295 6.9045e-05 0 0 0 0
788000000 -0.247405543 0.540722906 0.001348894 -0.001182353 0 0 0 0
796000000 0.247184231 0.526330828 -0.000736172 -0.002208817 0 0 0 0
804000000 0.579485058 0.172317355 -0.003140626 -0.000925051 0 0 0 0
812000000 0.556756079 -0.288165152 -0.003241703 0.002454891 0 0 0 0
820000000 0.269348382 -0.584933459 -0.000648024 0.004637224 0 0 0 0
828000000 -0.109176941 -0.647398948 0.002077128 0.004224358 0 0 0 0
836000000 -0.42507711 -0.516363143 0.00397938 0.002755804 0 0 0 0
844000000 -0.632992029 -0.27542451 0.005600887 0.000870209 0 0 0 0
852000000 -0.709454417 0.00053096 0.00650958 -0.001310577 0 0 0 0
860000000 -0.673289954 0.26754257 0.007302215 -0.004061772 0 0 0 0
868000000 -0.534961342 0.476499855 0.006996723 -0.007869505 0 0 0 0
876000000 -0.323668837 0.590557396 0.004949304 -0.012655712 0 0 0 0
884000000 -0.08743406 0.588576674 -0.001571868 -0.017582383 0 0 0 0
892000000 0.096551895 0.461374104 -0.013978192 -0.017989344 0 0 0 0
900000000 0.341646164 0.238460421 -0.029348818 -0.005285127 0 0 0 0
908000000 0.279933303 0.09276437 -0.030880222 0.020751792 0 0 0 0
916000000 0.17695558 0.04711847 -0.007396965 0.041444197 0 0 0 0
924000000 0.077248506 0.050559651 0.027521075 0.036142006 0 0 0 0
932000000 0.009312937 0.175451681 0.04543516 0.002619605 0 0 0 0
940000000 0.08647155 0.324085086 0.027824405 -0.028465269 0 0 0 0
948000000 0.326461315 0.376118272 -4.7584e-05 -0.03167532 0 0 0 0
956000000 0.513021826 0.226860299 -0.012753078 -0.018610892 0 0 0 0
964000000 0.591064929 -0.035100266 -0.015288788 -0.005838517 0 0 0 0
972000000 0.512709796 -0.286754846 -0.012319023 0.0016543 0 0 0 0
980000000 0.318454325 -0.487257599 -0.007226231 0.00478088 0 0 0 0
988000000 0.034401759 -0.573652505 -0.004077835 0.005858642 0 0 0 0
996000000 -0.254263669 -0.535122275 -0.002189376 0.004946223 0 0 0 0
1004000000 -0.485847532 -0.397949784 -0.001599204 0.0044194 0 0 0 0
