# Hz S RI R 50
700000000 0.758920431 0.556998848 7.3059e-05 0.000570978 0 0 0 0
708000000 0.868061959 0.30694738 0.000109932 0.000893104 0 0 0 0
716000000 0.901126742 0.034440111 0.000136632 0.001207565 0 0 0 0
724000000 0.845874309 -0.249178975 0.000232316 0.001484706 0 0 0 0
732000000 0.698695003 -0.50503689 0.000640041 0.001459098 0 0 0 0
740000000 0.460081964 -0.701039671 0.00090035 0.001456035 0 0 0 0
748000000 0.149259895 -0.801488697 0.001085246 0.001224898 0 0 0 0
756000000 -0.191168978 -0.760219097 0.001293155 0.00102574 0 0 0 0
764000000 -0.494866311 -0.557594835 0.001160649 0.00070043 0 0 0 0
772000000 -0.662023663 -0.203153118 0.001264052 0.000578672 0 0 0 0
780000000 -0.601418614 0.220670044 0.001146127 -0.000218575 0 0 0 0
788000000 -0.254403352 0.535587966 0.000563469 -0.001022233 0 0 0 0
796000000 0.233351379 0.530467212 -0.000812163 -0.001197039 0 0 0 0
804000000 0.572673857 0.18414767 -0.002513186 -0.000121671 0 0 0 0
812000000 0.561087727 -0.276914477 -0.002576964 0.002464699 0 0 0 0
820000000 0.280367076 -0.579197168 -0.000300627 0.003536399 0 0 0 0
828000000 -0.096782244 -0.642437219 0.001710577 0.003497516 0 0 0 0
836000000 -0.416294902 -0.517688751 0.003208752 0.002518546 0 0 0 0
844000000 -0.627324879 -0.281716644 0.004849958 0.001146993 0 0 0 0
852000000 -0.707535564 -0.00401638 0.005998327 -0.000565826 0 0 0 0
860000000 -0.673206686 0.258418351 0.007324068 -0.002935659 0 0 0 0
868000000 -0.539035856 0.464858174 0.007909132 -0.006780611 0 0 0 0
876000000 -0.325709581 0.579725742 0.006868994 -0.012256687 0 0 0 0
884000000 -0.103315457 0.578792572 0.00050958 -0.018570318 0 0 0 0
892000000 0.08154717 0.459182232 -0.012988616 -0.02080336 0 0 0 0
900000000 0.31315276 0.249482899 -0.032440379 -0.00890086 0 0 0 0
908000000 0.270665526 0.120684944 -0.035626806 0.019603053 0 0 0 0
916000000 0.192907318 0.080615706 -0.010933049 0.044772721 0 0 0 0
924000000 0.124171502 0.069354109 0.027681339 0.03988973 0 0 0 0
932000000 0.05912432 0.128189995 0.047528058 0.003696383 0 0 0 0
940000000 0.079362086 0.265724509 0.029586097 -0.028738982 0 0 0 0
948000000 0.287205994 0.346173018 0.001146066 -0.030781405 0 0 0 0
956000000 0.488703459 0.221727073 -0.012017171 -0.017973197 0 0 0 0
964000000 0.577719569 -0.008411699 -0.013848586 -0.006730818 0 0 0 0
972000000 0.517903149 -0.266820073 -0.012212431 -0.00022036 0 0 0 0
980000000 0.319696873 -0.483433812 -0.007513018 0.003349401 0 0 0 0
988000000 0.040200058 -0.567186176 -0.005990799 0.004672349 0 0 0 0
996000000 -0.237739309 -0.531026124 -0.003725308 0.004676711 0 0 0 0
1004000000 -0.484747081 -0.393453747 -0.002745813 0.004976056 0 0 0 0
