# Hz S RI R 50
700000000 0.762475013 0.549519419 -1.9839e-05 0.000740867 0 0 0 0
708000000 0.868615686 0.307177633 4.071e-05 0.00085459 0 0 0 0
716000000 0.900296628 0.02806475 0.000146659 0.001221604 0 0 0 0
724000000 0.846939861 -0.246432498 0.000371883 0.001457518 0 0 0 0
732000000 0.693817257 -0.503887951 0.000396451 0.001399318 0 0 0 0
740000000 0.455034881 -0.702744483 0.000674758 0.001570573 0 0 0 0
748000000 0.144902974 -0.799840569 0.000919797 0.001318508 0 0 0 0
756000000 -0.197204589 -0.756353855 0.001374903 0.000989196 0 0 0 0
764000000 -0.498418718 -0.548390805 0.001276811 0.000554236 0 0 0 0
772000000 -0.660227358 -0.185877963 0.001443136 0.000220907 0 0 0 0
780000000 -0.582986474 0.23909673 0.001229118 -0.000354855 0 0 0 0
788000000 -0.223438441 0.541929841 0.00011607 -0.000965282 0 0 0 0
796000000 0.26547873 0.508168816 -0.001418717 -0.000711138 0 0 0 0
804000000 0.578497827 0.144436717 -0.002319702 0.001063198 0 0 0 0
812000000 0.540733635 -0.309660613 -0.001164022 0.003222178 0 0 0 0
820000000 0.246698215 -0.59059298 0.001294202 0.003521053 0 0 0 0
828000000 -0.130761578 -0.639079689 0.002792733 0.00228729 0 0 0 0
836000000 -0.440214008 -0.499102056 0.003549359 0.00093261 0 0 0 0
844000000 -0.639124333 -0.253720283 0.004301636 -0.000576172 0 0 0 0
852000000 -0.71046251 0.02644344 0.00490669 -0.001883498 0 0 0 0
860000000 -0.663742601 0.28975895 0.005235872 -0.003628509 0 0 0 0
868000000 -0.508965849 0.494549989 0.005509666 -0.006662479 0 0 0 0
876000000 -0.288481593 0.594442248 0.004219809 -0.010733572 0 0 0 0
884000000 -0.049897961 0.568550944 -0.001059007 -0.015244065 0 0 0 0
892000000 0.129418358 0.418854176 -0.012584786 -0.015871729 0 0 0 0
900000000 0.335422664 0.177429035 -0.028085893 -0.003439951 0 0 0 0
908000000 0.226003155 0.043684277 -0.027231682 0.021346982 0 0 0 0
916000000 0.103507071 0.037660516 -0.001407765 0.039144534 0 0 0 0
924000000 0.02303466 0.112122684 0.030498171 0.02577071 0 0 0 0
932000000 0.008490422 0.23906137 0.035951238 -0.007352833 0 0 0 0
940000000 0.12977162 0.368354916 0.015663517 -0.025074606 0 0 0 0
948000000 0.375935584 0.379596859 -0.00314223 -0.021273782 0 0 0 0
956000000 0.533834397 0.192677587 -0.009149046 -0.011590579 0 0 0 0
964000000 0.59440422 -0.047673393 -0.009514776 -0.003782694 0 0 0 0
972000000 0.515226423 -0.312393039 -0.008089467 0.000363881 0 0 0 0
980000000 0.308762222 -0.501678764 -0.004914617 0.002144897 0 0 0 0
988000000 0.037604555 -0.580839455 -0.003999013 0.002506717 0 0 0 0
996000000 -0.254523545 -0.528136849 -0.003322948 0.002029523 0 0 0 0
1004000000 -0.490593254 -0.381233334 -0.003089068 0.002736391 0 0 0 0
