# Hz S RI R 50
700000000 0.764989435 0.554842293 9.2331e-05 0.000670367 0 0 0 0
708000000 0.86747229 0.307921797 0.000120394 0.000857676 0 0 0 0
716000000 0.900345385 0.033067762 -4.681e-06 0.001344707 0 0 0 0
724000000 0.847113609 -0.245028927 0.000173172 0.00131224 0 0 0 0
732000000 0.699574291 -0.504935026 0.000493597 0.001559653 0 0 0 0
740000000 0.456380814 -0.704543232 0.00079329 0.001503778 0 0 0 0
748000000 0.149719431 -0.798364758 0.001035319 0.001287241 0 0 0 0
756000000 -0.193057119 -0.759746849 0.001325962 0.000902765 0 0 0 0
764000000 -0.496128857 -0.554029285 0.001148818 0.00073381 0 0 0 0
772000000 -0.664186656 -0.197371244 0.001571047 0.00046456 0 0 0 0
780000000 -0.596826672 0.230435192 0.001408396 -0.000141029 0 0 0 0
788000000 -0.242783561 0.540151357 0.000775576 -0.001315493 0 0 0 0
796000000 0.247022628 0.524840712 -0.001114926 -0.001651898 0 0 0 0
804000000 0.576376736 0.170077785 -0.003211639 -0.000209085 0 0 0 0
812000000 0.555860102 -0.284448474 -0.002913913 0.002652972 0 0 0 0
820000000 0.26966685 -0.580594182 -0.000437551 0.004511704 0 0 0 0
828000000 -0.109046027 -0.642437219 0.002387525 0.004098676 0 0 0 0
836000000 -0.425006568 -0.515361189 0.004193527 0.002796374 0 0 0 0
844000000 -0.631295561 -0.274000406 0.005999652 0.000836519 0 0 0 0
852000000 -0.707026064 0.008335875 0.00730459 -0.001531403 0 0 0 0
860000000 -0.671067655 0.269626587 0.008175758 -0.004757353 0 0 0 0
868000000 -0.528081953 0.475121319 0.007640803 -0.009578961 0 0 0 0
876000000 -0.312804996 0.588707923 0.004447551 -0.015486645 0 0 0 0
884000000 -0.08476071 0.577770292 -0.004402338 -0.020379601 0 0 0 0
892000000 0.105175808 0.448076575 -0.020049028 -0.01828901 0 0 0 0
900000000 0.339164286 0.215204179 -0.035768274 0.002502937 0 0 0 0
908000000 0.256433784 0.082468949 -0.029132658 0.032106075 0 0 0 0
916000000 0.144085347 0.047695755 0.004296739 0.048082884 0 0 0 0
924000000 0.068578772 0.089066781 0.040403999 0.029799807 0 0 0 0
932000000 0.040247574 0.180602937 0.047631654 -0.011669237 0 0 0 0
940000000 0.109252691 0.321695417 0.019198482 -0.037503119 0 0 0 0
948000000 0.327224701 0.35713759 -0.009305911 -0.030312696 0 0 0 0
956000000 0.509084224 0.21364957 -0.016664171 -0.012607376 0 0 0 0
964000000 0.589682817 -0.030769178 -0.01502236 -0.001697875 0 0 0 0
972000000 0.511490106 -0.289066076 -0.010371796 0.004038276 0 0 0 0
980000000 0.297333121 -0.485967606 -0.005305597 0.005606791 0 0 0 0
988000000 0.033104669 -0.559734702 -0.002952109 0.005543492 0 0 0 0
996000000 -0.258060604 -0.526801705 -0.00153101 0.004277636 0 0 0 0
1004000000 -0.478350877 -0.395589858 -0.001056415 0.003665622 0 0 0 0
