# Hz S RI R 50
700000000 0.763729393 0.549864649 -5.4013e-05 0.00064173 0 0 0 0
708000000 0.869341611 0.308136075 -7.0733e-05 0.00080865 0 0 0 0
716000000 0.901603519 0.034447021 9.1759e-05 0.001240262 0 0 0 0
724000000 0.847501277 -0.25097683 0.000381251 0.001308825 0 0 0 0
732000000 0.697964251 -0.506886065 0.00046794 0.001470782 0 0 0 0
740000000 0.459689855 -0.703281402 0.000812318 0.001469534 0 0 0 0
748000000 0.149291008 -0.804473459 0.001127677 0.001277979 0 0 0 0
756000000 -0.191920056 -0.761668801 0.001111662 0.001018962 0 0 0 0
764000000 -0.495870649 -0.557709455 0.001222786 0.000869292 0 0 0 0
772000000 -0.667521715 -0.197518348 0.001424142 0.000413548 0 0 0 0
780000000 -0.599384665 0.225246444 0.001204543 -0.000122391 0 0 0 0
788000000 -0.250907719 0.539568662 0.000711709 -0.001163575 0 0 0 0
796000000 0.239676579 0.531837284 -0.000925101 -0.001396368 0 0 0 0
804000000 0.575831651 0.182312816 -0.002952189 0.000214783 0 0 0 0
812000000 0.566205799 -0.276399523 -0.002262825 0.002685327 0 0 0 0
820000000 0.281288713 -0.577053487 -6.2875e-05 0.00382111 0 0 0 0
828000000 -0.096675075 -0.649626255 0.002007509 0.003556062 0 0 0 0
836000000 -0.417439609 -0.526593208 0.003714317 0.002394795 0 0 0 0
844000000 -0.627163231 -0.289118856 0.00517001 0.000764487 0 0 0 0
852000000 -0.713865935 -0.012947242 0.006245551 -0.001059836 0 0 0 0
860000000 -0.686859488 0.261928707 0.007283157 -0.003465645 0 0 0 0
868000000 -0.557313501 0.472239285 0.007640346 -0.007836475 0 0 0 0
876000000 -0.342035651 0.598181128 0.005633793 -0.013328818 0 0 0 0
884000000 -0.10423921 0.60494554 -0.001361396 -0.018800446 0 0 0 0
892000000 0.094974167 0.489541023 -0.015280789 -0.019519224 0 0 0 0
900000000 0.358979523 0.259207308 -0.032448738 -0.004262243 0 0 0 0
908000000 0.30826959 0.099131874 -0.0329432 0.025348495 0 0 0 0
916000000 0.206558763 0.023926852 -0.002996678 0.047135978 0 0 0 0
924000000 0.110773928 0.031554598 0.035684742 0.034079317 0 0 0 0
932000000 0.029865948 0.109065793 0.047107115 -0.006455699 0 0 0 0
940000000 0.056102443 0.265971302 0.021376335 -0.032696399 0 0 0 0
948000000 0.269227504 0.360127508 -0.005412814 -0.028016138 0 0 0 0
956000000 0.468465983 0.244274973 -0.013678927 -0.01311573 0 0 0 0
964000000 0.57577002 -0.00011582 -0.012719314 -0.003115236 0 0 0 0
972000000 0.525930523 -0.261486947 -0.009566563 0.002072249 0 0 0 0
980000000 0.325968027 -0.470778226 -0.005992007 0.003286928 0 0 0 0
988000000 0.062776133 -0.559606671 -0.00395913 0.004620122 0 0 0 0
996000000 -0.22926782 -0.530354559 -0.002547107 0.003460844 0 0 0 0
1004000000 -0.479815036 -0.396525204 -0.002555001 0.004141572 0 0 0 0
