# Hz S RI R 50
700000000 0.758393108 0.549991607 -0.000143499 0.00072232 0 0 0 0
708000000 0.866864621 0.309990763 4.5027e-05 0.000957392 0 0 0 0
716000000 0.898859858 0.033169206 -5.5502e-05 0.001296397 0 0 0 0
724000000 0.84825623 -0.247125506 0.000363906 0.00138651 0 0 0 0
732000000 0.696002602 -0.503715574 0.000297868 0.001597353 0 0 0 0
740000000 0.455602109 -0.700787961 0.000788722 0.00151052 0 0 0 0
748000000 0.149709299 -0.798331379 0.000944365 0.001208016 0 0 0 0
756000000 -0.192087098 -0.758861422 0.001294441 0.000752499 0 0 0 0
764000000 -0.493674814 -0.556391716 0.001411839 0.000578314 0 0 0 0
772000000 -0.661138713 -0.201597839 0.001432961 0.000468605 0 0 0 0
780000000 -0.593151271 0.222733199 0.001488322 -0.000482911 0 0 0 0
788000000 -0.248116478 0.529951989 0.000660414 -0.001430438 0 0 0 0
796000000 0.235417634 0.521218121 -0.001212749 -0.001852495 0 0 0 0
804000000 0.562346398 0.178376361 -0.003337667 -0.000151166 0 0 0 0
812000000 0.549360096 -0.274673789 -0.002982409 0.003005079 0 0 0 0
820000000 0.271704226 -0.567655146 -0.000241742 0.00471388 0 0 0 0
828000000 -0.098701931 -0.635312557 0.00225665 0.004019997 0 0 0 0
836000000 -0.411453515 -0.509308516 0.004059868 0.002586466 0 0 0 0
844000000 -0.617862999 -0.27534908 0.005324743 0.000568297 0 0 0 0
852000000 -0.695734024 -0.002495772 0.006356382 -0.001009951 0 0 0 0
860000000 -0.660428702 0.259694516 0.007232689 -0.003645306 0 0 0 0
868000000 -0.523750305 0.454369813 0.007337235 -0.007913202 0 0 0 0
876000000 -0.316747367 0.565528333 0.005655716 -0.012806364 0 0 0 0
884000000 -0.099809929 0.557602047 -0.000782006 -0.018070846 0 0 0 0
892000000 0.068094037 0.437251806 -0.01375733 -0.019240619 0 0 0 0
900000000 0.300465941 0.233936935 -0.031218197 -0.005444431 0 0 0 0
908000000 0.238637298 0.13065879 -0.032069932 0.021048527 0 0 0 0
916000000 0.163392022 0.107896976 -0.007764401 0.041840516 0 0 0 0
924000000 0.125048056 0.11286699 0.027041494 0.035291835 0 0 0 0
932000000 0.087005585 0.158439576 0.042889639 0.002367173 0 0 0 0
940000000 0.118753537 0.275380909 0.026177048 -0.025750886 0 0 0 0
948000000 0.305552929 0.329887211 0.001700933 -0.028170796 0 0 0 0
956000000 0.48752889 0.191770493 -0.010141803 -0.017112607 0 0 0 0
964000000 0.5653705 -0.035052597 -0.012525035 -0.006844228 0 0 0 0
972000000 0.502103865 -0.291155278 -0.011201644 8.32e-06 0 0 0 0
980000000 0.298218518 -0.489075809 -0.007406607 0.003229054 0 0 0 0
988000000 0.028896255 -0.570644915 -0.005017452 0.003954931 0 0 0 0
996000000 -0.248161405 -0.524210333 -0.002988419 0.004188288 0 0 0 0
1004000000 -0.491408437 -0.377670794 -0.002161177 0.004427069 0 0 0 0
