# Hz S RI R 50
700000000 0.758781433 0.555581867 -8.8706e-05 0.000684136 0 0 0 0
708000000 0.865186274 0.308331757 -0.0001429 0.001002372 0 0 0 0
716000000 0.898036479 0.033152878 2.6262e-05 0.001197033 0 0 0 0
724000000 0.840165734 -0.247327148 0.000311182 0.001244596 0 0 0 0
732000000 0.695708632 -0.504609048 0.000546187 0.001606443 0 0 0 0
740000000 0.456542015 -0.700303912 0.000836594 0.001458195 0 0 0 0
748000000 0.146885544 -0.800085127 0.001185387 0.001143998 0 0 0 0
756000000 -0.192983254 -0.75683999 0.001045181 0.000865961 0 0 0 0
764000000 -0.494942784 -0.55367887 0.001203959 0.000788239 0 0 0 0
772000000 -0.661185026 -0.198069676 0.001430456 0.000369837 0 0 0 0
780000000 -0.590821743 0.223106145 0.001135819 -0.000299123 0 0 0 0
788000000 -0.245540022 0.531449079 0.000691191 -0.001218726 0 0 0 0
796000000 0.23778136 0.51863718 -0.001220343 -0.001489127 0 0 0 0
804000000 0.562967598 0.170869395 -0.00311319 0.000165101 0 0 0 0
812000000 0.550430655 -0.277121275 -0.002457787 0.002784729 0 0 0 0
820000000 0.267751425 -0.570165872 -9.4758e-05 0.004567007 0 0 0 0
828000000 -0.104802221 -0.633096635 0.002363778 0.003865598 0 0 0 0
836000000 -0.419097095 -0.504522383 0.004208964 0.002641614 0 0 0 0
844000000 -0.621865272 -0.270357191 0.005514305 0.000634879 0 0 0 0
852000000 -0.695214927 0.0029441 0.006732764 -0.001157282 0 0 0 0
860000000 -0.656117618 0.263199359 0.007908515 -0.004077339 0 0 0 0
868000000 -0.516447901 0.464367419 0.007773005 -0.008410282 0 0 0 0
876000000 -0.30691123 0.569256246 0.005339111 -0.013968385 0 0 0 0
884000000 -0.085759565 0.55416125 -0.00204337 -0.019525425 0 0 0 0
892000000 0.076050579 0.418211966 -0.016663929 -0.019630184 0 0 0 0
900000000 0.294109523 0.214759007 -0.034789219 -0.003074844 0 0 0 0
908000000 0.223441809 0.112886503 -0.03183721 0.027292659 0 0 0 0
916000000 0.145022764 0.101210318 -0.001559258 0.046666748 0 0 0 0
924000000 0.106856822 0.13718608 0.035350855 0.032629359 0 0 0 0
932000000 0.089906841 0.178582891 0.046122979 -0.006647397 0 0 0 0
940000000 0.135591328 0.29462552 0.020970636 -0.032635848 0 0 0 0
948000000 0.333347409 0.332451969 -0.005400596 -0.027569416 0 0 0 0
956000000 0.494782954 0.191025361 -0.012967523 -0.013075252 0 0 0 0
964000000 0.580269873 -0.043573725 -0.012158923 -0.003653286 0 0 0 0
972000000 0.492957383 -0.292671918 -0.009794754 0.001500678 0 0 0 0
980000000 0.299708694 -0.499964952 -0.005802467 0.004348553 0 0 0 0
988000000 0.018200738 -0.557869195 -0.003836724 0.003944059 0 0 0 0
996000000 -0.251049429 -0.520891427 -0.002393415 0.003741406 0 0 0 0
1004000000 -0.487991452 -0.378888458 -0.002466248 0.004075628 0 0 0 0
