# Hz S RI R 50
700000000 0.760159015 0.54685384 -7.7232e-05 0.000674802 0 0 0 0
708000000 0.870301187 0.307628661 4.7591e-05 0.000903113 0 0 0 0
716000000 0.895950973 0.031532473 0.000117433 0.001245277 0 0 0 0
724000000 0.840953707 -0.248810365 0.000261525 0.001542157 0 0 0 0
732000000 0.69760394 -0.50852406 0.000396177 0.001378481 0 0 0 0
740000000 0.456752687 -0.703418076 0.000739659 0.001356134 0 0 0 0
748000000 0.146560639 -0.802655756 0.001176477 0.001192291 0 0 0 0
756000000 -0.19585295 -0.758459746 0.001030934 0.000830195 0 0 0 0
764000000 -0.499292343 -0.552973151 0.001052874 0.000422221 0 0 0 0
772000000 -0.663497388 -0.190855845 0.001152318 0.000360452 0 0 0 0
780000000 -0.589190304 0.236495286 0.001226849 0.000331606 0 0 0 0
788000000 -0.231558591 0.542078375 0.000982705 -0.00053623 0 0 0 0
796000000 0.25805369 0.515100479 -0.000502591 -0.00108992 0 0 0 0
804000000 0.579957544 0.155559718 -0.00204337 -0.000377682 0 0 0 0
812000000 0.549246847 -0.298693835 -0.002100532 0.001924782 0 0 0 0
820000000 0.253897219 -0.587063789 -0.000191771 0.003418768 0 0 0 0
828000000 -0.123747132 -0.640013217 0.00169439 0.002814125 0 0 0 0
836000000 -0.436230808 -0.500056564 0.003008825 0.001625164 0 0 0 0
844000000 -0.632022917 -0.254300445 0.004021879 0.000365582 0 0 0 0
852000000 -0.700936853 0.020555183 0.004630721 -0.000957587 0 0 0 0
860000000 -0.652797162 0.286709368 0.005482824 -0.002462167 0 0 0 0
868000000 -0.500272393 0.479024648 0.006158506 -0.00533533 0 0 0 0
876000000 -0.282034099 0.573654651 0.005835921 -0.009310225 0 0 0 0
884000000 -0.063827976 0.544659256 0.001977468 -0.014431118 0 0 0 0
892000000 0.091065809 0.397641897 -0.007674275 -0.017775675 0 0 0 0
900000000 0.282015651 0.19235453 -0.023953475 -0.010036207 0 0 0 0
908000000 0.209245443 0.103261075 -0.029714338 0.011570698 0 0 0 0
916000000 0.140384539 0.087141714 -0.013941567 0.033911965 0 0 0 0
924000000 0.068813659 0.108188718 0.016630465 0.034398972 0 0 0 0
932000000 0.039324846 0.206048414 0.035522352 0.009136103 0 0 0 0
940000000 0.135000184 0.353321731 0.026640323 -0.016857212 0 0 0 0
948000000 0.368309706 0.358834922 0.007026966 -0.02401622 0 0 0 0
956000000 0.531837284 0.200729578 -0.005794136 -0.01733255 0 0 0 0
964000000 0.599764287 -0.055984158 -0.009328018 -0.008482382 0 0 0 0
972000000 0.495655924 -0.317499488 -0.010147932 -0.002876753 0 0 0 0
980000000 0.300881326 -0.503477096 -0.007645037 0.000697759 0 0 0 0
988000000 0.021294983 -0.573230147 -0.005591342 0.002340695 0 0 0 0
996000000 -0.2671054 -0.530266582 -0.004874651 0.003497852 0 0 0 0
1004000000 -0.494341224 -0.385647892 -0.004271995 0.003979977 0 0 0 0
