# Hz S RI R 50
700000000 0.756945371 0.556111931 -0.000118555 0.000593446 0 0 0 0
708000000 0.864608228 0.307534039 -0.00022301 0.000882385 0 0 0 0
716000000 0.89999026 0.032180335 3.9642e-05 0.001256932 0 0 0 0
724000000 0.842275679 -0.243839666 0.000230275 0.001255054 0 0 0 0
732000000 0.69574368 -0.502588987 0.000382196 0.001650484 0 0 0 0
740000000 0.457302957 -0.700734794 0.000731179 0.00149282 0 0 0 0
748000000 0.149576023 -0.799600899 0.001140169 0.001292483 0 0 0 0
756000000 -0.18995662 -0.760196506 0.001286272 0.001100592 0 0 0 0
764000000 -0.493723243 -0.556744456 0.001490151 0.000699074 0 0 0 0
772000000 -0.667044758 -0.201449617 0.001323003 0.000386047 0 0 0 0
780000000 -0.599238693 0.220057547 0.00145116 -0.000291133 0 0 0 0
788000000 -0.257336795 0.537368834 0.000717223 -0.001387241 0 0 0 0
796000000 0.230302572 0.53311783 -0.001224885 -0.00183274 0 0 0 0
804000000 0.571327924 0.191033005 -0.003186633 -3.0954e-05 0 0 0 0
812000000 0.567526876 -0.266236156 -0.002878803 0.002813116 0 0 0 0
820000000 0.288021355 -0.572833895 -0.000407299 0.004689547 0 0 0 0
828000000 -0.088327355 -0.647708058 0.00211916 0.004511051 0 0 0 0
836000000 -0.409653484 -0.526486217 0.004237576 0.003045195 0 0 0 0
844000000 -0.621805846 -0.292452543 0.005939436 0.001101069 0 0 0 0
852000000 -0.711297512 -0.013537486 0.007217384 -0.001000973 0 0 0 0
860000000 -0.68207997 0.252760291 0.008259065 -0.004125095 0 0 0 0
868000000 -0.552863717 0.467667013 0.00815252 -0.009033361 0 0 0 0
876000000 -0.345551222 0.589242339 0.005595881 -0.01455627 0 0 0 0
884000000 -0.106561854 0.595947086 -0.002255053 -0.020083514 0 0 0 0
892000000 0.08548548 0.48299849 -0.01670856 -0.020603217 0 0 0 0
900000000 0.344465672 0.265421539 -0.03591961 -0.004780241 0 0 0 0
908000000 0.295791 0.104192823 -0.035089675 0.026666536 0 0 0 0
916000000 0.186089366 0.041858587 -0.004902021 0.049566108 0 0 0 0
924000000 0.098089277 0.064867906 0.035809811 0.039180103 0 0 0 0
932000000 0.048765562 0.141084104 0.052410714 -0.002998733 0 0 0 0
940000000 0.08378493 0.276693195 0.026839036 -0.036530498 0 0 0 0
948000000 0.283543825 0.345099389 -0.004167519 -0.033916145 0 0 0 0
956000000 0.484035432 0.219846114 -0.016007391 -0.017132246 0 0 0 0
964000000 0.562374055 -0.019709274 -0.016015911 -0.004199679 0 0 0 0
972000000 0.508042335 -0.266540616 -0.012465988 0.002952164 0 0 0 0
980000000 0.319656759 -0.475722938 -0.00674466 0.005837657 0 0 0 0
988000000 0.04602231 -0.554540634 -0.003478041 0.006044918 0 0 0 0
996000000 -0.238046824 -0.522621572 -0.001578032 0.004859823 0 0 0 0
1004000000 -0.476970046 -0.396545678 -0.001500832 0.004077315 0 0 0 0
