# Hz S RI R 50
700000000 0.761296927 0.550490498 8.0195e-05 0.000538294 0 0 0 0
708000000 0.868898034 0.30670154 -2.5695e-05 0.000947098 0 0 0 0
716000000 0.902324557 0.031089775 0.000125643 0.001151451 0 0 0 0
724000000 0.848276555 -0.248470157 0.000290554 0.001385867 0 0 0 0
732000000 0.698278784 -0.504450976 0.000299439 0.001387158 0 0 0 0
740000000 0.459138721 -0.701271057 0.000510583 0.001488568 0 0 0 0
748000000 0.146288618 -0.800920307 0.001073664 0.001373511 0 0 0 0
756000000 -0.195108667 -0.760307848 0.001112588 0.001152337 0 0 0 0
764000000 -0.499139487 -0.551831424 0.001412468 0.000965171 0 0 0 0
772000000 -0.666506528 -0.194050982 0.001718524 0.000691602 0 0 0 0
780000000 -0.593719005 0.232216566 0.001891351 -7.7382e-05 0 0 0 0
788000000 -0.242660284 0.538692772 0.001132054 -0.001389197 0 0 0 0
796000000 0.248131573 0.526039719 -0.00089124 -0.002172479 0 0 0 0
804000000 0.575793623 0.170666679 -0.003543762 -0.000768665 0 0 0 0
812000000 0.555932044 -0.287254303 -0.003583781 0.002556002 0 0 0 0
820000000 0.26745665 -0.580977439 -0.000774228 0.004718677 0 0 0 0
828000000 -0.110514439 -0.643706023 0.001885297 0.004350665 0 0 0 0
836000000 -0.426817983 -0.511984407 0.004047619 0.003176307 0 0 0 0
844000000 -0.629745304 -0.273955464 0.005677636 0.001173924 0 0 0 0
852000000 -0.709592938 0.006468778 0.006875323 -0.000864839 0 0 0 0
860000000 -0.670319855 0.276003301 0.007984603 -0.003897104 0 0 0 0
868000000 -0.529064774 0.48119378 0.007978422 -0.00839404 0 0 0 0
876000000 -0.3075971 0.592958211 0.005803485 -0.014023289 0 0 0 0
884000000 -0.076266244 0.576293587 -0.001591081 -0.019902253 0 0 0 0
892000000 0.105335362 0.437569171 -0.016403093 -0.020327411 0 0 0 0
900000000 0.330821782 0.216930374 -0.035196449 -0.004130249 0 0 0 0
908000000 0.256712317 0.090126678 -0.032813053 0.025571778 0 0 0 0
916000000 0.146902129 0.042493138 -0.004412284 0.046379245 0 0 0 0
924000000 0.056314215 0.082387067 0.032198633 0.036296442 0 0 0 0
932000000 0.024925034 0.196032643 0.048367917 -0.00126814 0 0 0 0
940000000 0.114377222 0.329731404 0.027470305 -0.032077729 0 0 0 0
948000000 0.339957147 0.367923885 -0.001765412 -0.032400589 0 0 0 0
956000000 0.51548624 0.197385832 -0.0144384 -0.01748724 0 0 0 0
964000000 0.585294306 -0.046922769 -0.015335603 -0.004831243 0 0 0 0
972000000 0.510475099 -0.302500247 -0.01200946 0.001939012 0 0 0 0
980000000 0.30825141 -0.495390385 -0.007100005 0.005700527 0 0 0 0
988000000 0.029096288 -0.565000593 -0.003818675 0.005529217 0 0 0 0
996000000 -0.245037868 -0.525399327 -0.001912162 0.004420103 0 0 0 0
1004000000 -0.491534411 -0.383132159 -0.001529805 0.004367252 0 0 0 0
