# Hz S RI R 50
700000000 0.763370633 0.551400184 -3.0076e-05 0.000687898 0 0 0 0
708000000 0.8668558 0.306018412 -6.82e-05 0.000917594 0 0 0 0
716000000 0.900776863 0.031973041 9.829e-05 0.00116637 0 0 0 0
724000000 0.844487488 -0.245751276 0.00028572 0.001558695 0 0 0 0
732000000 0.695114552 -0.508696556 0.000433136 0.001447111 0 0 0 0
740000000 0.455187231 -0.703172445 0.000860093 0.001318652 0 0 0 0
748000000 0.147589758 -0.799436211 0.001143403 0.001144262 0 0 0 0
756000000 -0.196925178 -0.755528032 0.001180822 0.000911335 0 0 0 0
764000000 -0.498822808 -0.549856781 0.001304382 0.000683908 0 0 0 0
772000000 -0.660756826 -0.195280417 0.001272509 0.000115215 0 0 0 0
780000000 -0.589598715 0.230643838 0.001181658 -0.000605971 0 0 0 0
788000000 -0.238836824 0.53180474 0.000154982 -0.001066439 0 0 0 0
796000000 0.248712748 0.516173541 -0.001588864 -0.000973393 0 0 0 0
804000000 0.571803927 0.163699582 -0.002769154 0.00082462 0 0 0 0
812000000 0.542084813 -0.288992673 -0.001921958 0.003465242 0 0 0 0
820000000 0.259889602 -0.577451109 0.000686696 0.004223119 0 0 0 0
828000000 -0.115066125 -0.634104371 0.00283855 0.00344043 0 0 0 0
836000000 -0.426099956 -0.505281448 0.00431805 0.002146102 0 0 0 0
844000000 -0.625968992 -0.265486329 0.005521566 0.000278432 0 0 0 0
852000000 -0.702089369 0.014971458 0.006596644 -0.001834605 0 0 0 0
860000000 -0.658460736 0.27431339 0.00741975 -0.004572528 0 0 0 0
868000000 -0.51588726 0.477675914 0.007046582 -0.00914085 0 0 0 0
876000000 -0.299099415 0.578942596 0.00425807 -0.01452786 0 0 0 0
884000000 -0.076545938 0.562520444 -0.003905366 -0.019664503 0 0 0 0
892000000 0.090178228 0.425296634 -0.018986599 -0.018064163 0 0 0 0
900000000 0.311437517 0.21753633 -0.035902604 0.001396892 0 0 0 0
908000000 0.232515573 0.098949901 -0.028600605 0.031767178 0 0 0 0
916000000 0.135756671 0.084486216 0.006215196 0.047443617 0 0 0 0
924000000 0.090935558 0.110862769 0.041399206 0.026513462 0 0 0 0
932000000 0.054558694 0.185777798 0.04285689 -0.016673078 0 0 0 0
940000000 0.113616019 0.311622142 0.012468009 -0.033901289 0 0 0 0
948000000 0.342593163 0.346472948 -0.009219327 -0.023194108 0 0 0 0
956000000 0.514977693 0.206572055 -0.01273672 -0.010193781 0 0 0 0
964000000 0.580448389 -0.045114859 -0.011377158 -0.002185689 0 0 0 0
972000000 0.504118204 -0.304163157 -0.008830846 0.001757047 0 0 0 0
980000000 0.301188677 -0.495148688 -0.005549443 0.003937961 0 0 0 0
988000000 0.027715675 -0.578835487 -0.00334617 0.003729947 0 0 0 0
996000000 -0.255211979 -0.516346335 -0.003163913 0.003971509 0 0 0 0
1004000000 -0.486008673 -0.381140917 -0.002072588 0.003627946 0 0 0 0
