# Hz S RI R 50
700000000 0.758776545 0.551297008 -9.5413e-05 0.000700716 0 0 0 0
708000000 0.867096006 0.308444052 -9.3152e-05 0.001002851 0 0 0 0
716000000 0.899225354 0.032710772 -1.3393e-05 0.00136138 0 0 0 0
724000000 0.843587756 -0.247884273 0.000145901 0.001618129 0 0 0 0
732000000 0.697511613 -0.504431784 0.000339256 0.00161536 0 0 0 0
740000000 0.459112733 -0.701016545 0.000776821 0.001426111 0 0 0 0
748000000 0.147374555 -0.799426078 0.001168688 0.001247332 0 0 0 0
756000000 -0.191131681 -0.758817672 0.001305485 0.000909833 0 0 0 0
764000000 -0.491950571 -0.553533852 0.001478501 0.000554337 0 0 0 0
772000000 -0.660280585 -0.202807784 0.001536665 5.4841e-05 0 0 0 0
780000000 -0.589941978 0.22301355 0.001337718 -0.000608455 0 0 0 0
788000000 -0.243243947 0.526768624 0.000356773 -0.001717803 0 0 0 0
796000000 0.241336569 0.511189103 -0.001612989 -0.001715329 0 0 0 0
804000000 0.561111629 0.16547136 -0.003550317 0.000269496 0 0 0 0
812000000 0.539172947 -0.282648921 -0.003031892 0.003338845 0 0 0 0
820000000 0.256567299 -0.571893274 5.5134e-05 0.00497878 0 0 0 0
828000000 -0.115886084 -0.628484964 0.002874515 0.004475589 0 0 0 0
836000000 -0.424654453 -0.495357155 0.004871777 0.003062804 0 0 0 0
844000000 -0.619927227 -0.255643904 0.006496952 0.000886348 0 0 0 0
852000000 -0.690327882 0.019619241 0.007828012 -0.001764557 0 0 0 0
860000000 -0.644740164 0.27854222 0.008587818 -0.005440015 0 0 0 0
868000000 -0.499124467 0.470901072 0.007681974 -0.01054781 0 0 0 0
876000000 -0.283228784 0.56085658 0.003961374 -0.016537424 0 0 0 0
884000000 -0.071607276 0.524319648 -0.006058323 -0.021077606 0 0 0 0
892000000 0.07223992 0.383088946 -0.021969366 -0.017160139 0 0 0 0
900000000 0.252175271 0.19249688 -0.036523025 0.004292546 0 0 0 0
908000000 0.175332635 0.118019998 -0.02651387 0.03352908 0 0 0 0
916000000 0.114298753 0.145703747 0.00717902 0.046345833 0 0 0 0
924000000 0.108719564 0.170941054 0.039985071 0.026628296 0 0 0 0
932000000 0.103961363 0.211058527 0.04455585 -0.01328668 0 0 0 0
940000000 0.162631303 0.298476755 0.016254875 -0.034904528 0 0 0 0
948000000 0.35784164 0.333088099 -0.007338451 -0.02718033 0 0 0 0
956000000 0.513247251 0.181703194 -0.014528349 -0.013058417 0 0 0 0
964000000 0.575592219 -0.071694947 -0.013567285 -0.003284686 0 0 0 0
972000000 0.491334915 -0.308535248 -0.010611783 0.002882809 0 0 0 0
980000000 0.288022845 -0.497950315 -0.006211988 0.004514229 0 0 0 0
988000000 0.011500202 -0.562506198 -0.003935465 0.005186452 0 0 0 0
996000000 -0.262269318 -0.507975816 -0.002310676 0.004706092 0 0 0 0
1004000000 -0.489377528 -0.373296856 -0.001252337 0.004232098 0 0 0 0
