# Hz S RI R 50
700000000 0.762275218 0.555341601 -1.6001e-05 0.000551062 0 0 0 0
708000000 0.870086669 0.304893702 -0.000171039 0.000885765 0 0 0 0
716000000 0.901527404 0.031836908 -0.000142459 0.001157806 0 0 0 0
724000000 0.847727775 -0.251119911 0.000211669 0.001384813 0 0 0 0
732000000 0.697271287 -0.505912423 0.00047398 0.001617207 0 0 0 0
740000000 0.45707345 -0.703598856 0.000631809 0.001435343 0 0 0 0
748000000 0.150017946 -0.800219893 0.001030527 0.001424798 0 0 0 0
756000000 -0.192403808 -0.759437024 0.001190719 0.001258879 0 0 0 0
764000000 -0.493832349 -0.555950939 0.001176181 0.000891646 0 0 0 0
772000000 -0.663811266 -0.196227177 0.001723678 0.000681424 0 0 0 0
780000000 -0.59558171 0.228660807 0.00197734 -7.334e-06 0 0 0 0
788000000 -0.24355401 0.535855054 0.001371569 -0.001351351 0 0 0 0
796000000 0.247777938 0.521052658 -0.000516848 -0.00233358 0 0 0 0
804000000 0.573466598 0.168086424 -0.003451162 -0.001259042 0 0 0 0
812000000 0.553121626 -0.287467479 -0.003802249 0.002213335 0 0 0 0
820000000 0.265262633 -0.584641993 -0.001223034 0.004803998 0 0 0 0
828000000 -0.112997666 -0.642147302 0.001652822 0.00482157 0 0 0 0
836000000 -0.429192721 -0.507702887 0.003947155 0.003497213 0 0 0 0
844000000 -0.626961886 -0.266018837 0.006044008 0.001717843 0 0 0 0
852000000 -0.706319153 0.010227817 0.007532869 -0.000951858 0 0 0 0
860000000 -0.664277791 0.2761904 0.008501799 -0.004338021 0 0 0 0
868000000 -0.521721065 0.480103731 0.008198248 -0.009096364 0 0 0 0
876000000 -0.306459486 0.585342705 0.005266822 -0.015068376 0 0 0 0
884000000 -0.076257266 0.571295738 -0.003026027 -0.020402021 0 0 0 0
892000000 0.100885547 0.428929835 -0.018182765 -0.019207611 0 0 0 0
900000000 0.328150838 0.209182068 -0.033548943 -0.002237616 0 0 0 0
908000000 0.233661636 0.085028551 -0.030887633 0.027125125 0 0 0 0
916000000 0.13603124 0.064561203 -0.002297522 0.045627743 0 0 0 0
924000000 0.058545526 0.097441427 0.033051896 0.034363549 0 0 0 0
932000000 0.026705421 0.20394887 0.047611888 -0.002621889 0 0 0 0
940000000 0.118302032 0.347390145 0.026272492 -0.032605279 0 0 0 0
948000000 0.35213983 0.352455705 -0.002768261 -0.032568257 0 0 0 0
956000000 0.529043614 0.199059352 -0.015370859 -0.017630962 0 0 0 0
964000000 0.597720146 -0.051871255 -0.01597912 -0.0040294 0 0 0 0
972000000 0.510834574 -0.301447004 -0.012001241 0.002650263 0 0 0 0
980000000 0.293718516 -0.495990812 -0.006874768 0.005343247 0 0 0 0
988000000 0.027306461 -0.571157395 -0.003689439 0.005952215 0 0 0 0
996000000 -0.249283969 -0.521871626 -0.002376127 0.0041853 0 0 0 0
1004000000 -0.501097798 -0.381705105 -0.001857588 0.004416654 0 0 0 0
