# Hz S RI R 50
700000000 0.762079119 0.553814768 -2.4334e-05 0.000543334 0 0 0 0
708000000 0.86806035 0.305803805 -0.000141998 0.000943009 0 0 0 0
716000000 0.901183128 0.032999619 0.000109624 0.001116914 0 0 0 0
724000000 0.846169888 -0.246924087 0.000127398 0.001318784 0 0 0 0
732000000 0.694796144 -0.502959728 0.00039007 0.001355852 0 0 0 0
740000000 0.456229478 -0.703400909 0.000882316 0.001388851 0 0 0 0
748000000 0.145991578 -0.799579024 0.00110864 0.001430902 0 0 0 0
756000000 -0.194323003 -0.758208096 0.00127164 0.00106232 0 0 0 0
764000000 -0.495386004 -0.552814126 0.001345513 0.000701514 0 0 0 0
772000000 -0.663584351 -0.193967655 0.001449061 0.000343451 0 0 0 0
780000000 -0.594104349 0.228272035 0.001353612 -0.00027962 0 0 0 0
788000000 -0.241905942 0.538759708 0.00074533 -0.001167183 0 0 0 0
796000000 0.247364819 0.522081434 -0.001020683 -0.001598994 0 0 0 0
804000000 0.576554358 0.173355475 -0.00301079 -8.0952e-05 0 0 0 0
812000000 0.555511116 -0.289725571 -0.002872949 0.002893772 0 0 0 0
820000000 0.26878792 -0.579968094 -0.000284337 0.004742748 0 0 0 0
828000000 -0.109731465 -0.642787575 0.002348255 0.003989481 0 0 0 0
836000000 -0.427340358 -0.51059556 0.00427907 0.002700759 0 0 0 0
844000000 -0.630829036 -0.26971051 0.00569121 0.000779877 0 0 0 0
852000000 -0.705251514 0.007098008 0.007101797 -0.001257351 0 0 0 0
860000000 -0.665889382 0.272638857 0.008109175 -0.004538409 0 0 0 0
868000000 -0.522173821 0.476843863 0.007726599 -0.009233786 0 0 0 0
876000000 -0.31060332 0.583428561 0.004758205 -0.014654174 0 0 0 0
884000000 -0.08223702 0.57297486 -0.002996884 -0.019800653 0 0 0 0
892000000 0.097058922 0.435711681 -0.017766606 -0.019233863 0 0 0 0
900000000 0.327740937 0.207769468 -0.034535259 -0.001052605 0 0 0 0
908000000 0.249739035 0.094339348 -0.031448535 0.028059756 0 0 0 0
916000000 0.146868273 0.06051921 -0.000796858 0.047653496 0 0 0 0
924000000 0.083974234 0.088318817 0.037102121 0.034194972 0 0 0 0
932000000 0.043662689 0.174724206 0.049713406 -0.007155931 0 0 0 0
940000000 0.104699715 0.30684489 0.022163541 -0.036855656 0 0 0 0
948000000 0.314628213 0.356317251 -0.007908053 -0.030363233 0 0 0 0
956000000 0.503273367 0.21118085 -0.015815066 -0.013554302 0 0 0 0
964000000 0.582473993 -0.030843764 -0.014102012 -0.00262537 0 0 0 0
972000000 0.503091692 -0.288219451 -0.010561284 0.003146846 0 0 0 0
980000000 0.30346924 -0.487864762 -0.00547797 0.004865766 0 0 0 0
988000000 0.036065757 -0.561275124 -0.003271437 0.004130546 0 0 0 0
996000000 -0.247125536 -0.514576554 -0.002573392 0.003799807 0 0 0 0
1004000000 -0.471688538 -0.369470536 -0.00212331 0.003634241 0 0 0 0
