# Hz S RI R 50
700000000 0.76240766 0.553398132 0.000106417 0.000598266 0 0 0 0
708000000 0.870427191 0.305460959 -3.8871e-05 0.000884388 0 0 0 0
716000000 0.899205684 0.03896439 0.000123256 0.001269751 0 0 0 0
724000000 0.842485964 -0.247362658 0.000189093 0.001466161 0 0 0 0
732000000 0.696764051 -0.504411637 0.000417977 0.001502907 0 0 0 0
740000000 0.456549644 -0.701770484 0.000677657 0.001674697 0 0 0 0
748000000 0.148034304 -0.799953937 0.001140142 0.001251747 0 0 0 0
756000000 -0.193055912 -0.76046884 0.001205944 0.001043702 0 0 0 0
764000000 -0.498288661 -0.553261339 0.0011513 0.000891192 0 0 0 0
772000000 -0.668218195 -0.195101633 0.001324099 0.000512114 0 0 0 0
780000000 -0.593167781 0.231173679 0.001378182 -0.000450254 0 0 0 0
788000000 -0.236702993 0.541702508 0.000564285 -0.00117244 0 0 0 0
796000000 0.250562191 0.52565962 -0.00118495 -0.001229905 0 0 0 0
804000000 0.578762352 0.1689547 -0.002866696 0.000666143 0 0 0 0
812000000 0.556889832 -0.291385114 -0.002041351 0.003285211 0 0 0 0
820000000 0.267535895 -0.585749506 0.000527849 0.004184841 0 0 0 0
828000000 -0.110171422 -0.645787239 0.002536871 0.003214311 0 0 0 0
836000000 -0.426488757 -0.515684425 0.003896477 0.001784456 0 0 0 0
844000000 -0.634391844 -0.277182102 0.005069336 2.0226e-05 0 0 0 0
852000000 -0.711857318 0.003425358 0.005973343 -0.001932136 0 0 0 0
860000000 -0.679769217 0.269988119 0.006518077 -0.004276145 0 0 0 0
868000000 -0.541032075 0.475293159 0.006495856 -0.00810898 0 0 0 0
876000000 -0.321399927 0.596765995 0.004167366 -0.012971742 0 0 0 0
884000000 -0.086697973 0.59275031 -0.002939977 -0.017746217 0 0 0 0
892000000 0.11089953 0.466805934 -0.016304178 -0.016763195 0 0 0 0
900000000 0.3561185 0.231786713 -0.03043414 -0.00087531 0 0 0 0
908000000 0.287834972 0.073995597 -0.026856897 0.026117794 0 0 0 0
916000000 0.17088136 0.017038872 0.001556474 0.04226784 0 0 0 0
924000000 0.060300722 0.055366449 0.033569153 0.027367923 0 0 0 0
932000000 0.013689969 0.171037361 0.041138079 -0.007971336 0 0 0 0
940000000 0.089688979 0.31463772 0.018360834 -0.029871858 0 0 0 0
948000000 0.317676723 0.368506222 -0.005252878 -0.026223555 0 0 0 0
956000000 0.50632137 0.211068019 -0.012941937 -0.012411464 0 0 0 0
964000000 0.575018107 -0.023752341 -0.012062042 -0.00285353 0 0 0 0
972000000 0.513228297 -0.278548181 -0.009515907 0.0024094 0 0 0 0
980000000 0.318571835 -0.483439803 -0.005558029 0.003981485 0 0 0 0
988000000 0.041814539 -0.562522113 -0.003521097 0.004483218 0 0 0 0
996000000 -0.24287346 -0.519845545 -0.002391871 0.003115226 0 0 0 0
1004000000 -0.474636971 -0.389969021 -0.001903994 0.003021502 0 0 0 0
