# Hz S RI R 50
700000000 0.758709669 0.55281645 -3.7273e-05 0.000661114 0 0 0 0
708000000 0.868363797 0.308418661 1.845e-05 0.000935144 0 0 0 0
716000000 0.900670349 0.035169929 2.1086e-05 0.001220084 0 0 0 0
724000000 0.843640625 -0.245752438 0.000218875 0.001240885 0 0 0 0
732000000 0.696060597 -0.506266713 0.000546188 0.001544173 0 0 0 0
740000000 0.458909839 -0.702387928 0.000968828 0.001395085 0 0 0 0
748000000 0.144432395 -0.803471922 0.001064585 0.001281073 0 0 0 0
756000000 -0.193619012 -0.75934261 0.00128461 0.001004189 0 0 0 0
764000000 -0.497043728 -0.552263438 0.001214312 0.000521032 0 0 0 0
772000000 -0.663159251 -0.193622231 0.001259067 3.5541e-05 0 0 0 0
780000000 -0.589429795 0.233075663 0.00093503 -0.000501304 0 0 0 0
788000000 -0.231792062 0.537518739 0.000128419 -0.001302873 0 0 0 0
796000000 0.255883187 0.516637742 -0.001481572 -0.001001808 0 0 0 0
804000000 0.576845049 0.157433912 -0.002886007 0.000838122 0 0 0 0
812000000 0.547164142 -0.302523821 -0.001679621 0.003357203 0 0 0 0
820000000 0.251507908 -0.585723459 0.000958026 0.004321761 0 0 0 0
828000000 -0.123765908 -0.639016151 0.002918448 0.003303314 0 0 0 0
836000000 -0.435198277 -0.502287805 0.004086973 0.001905123 0 0 0 0
844000000 -0.632921755 -0.257298916 0.005418157 0.000248416 0 0 0 0
852000000 -0.705976724 0.020606266 0.006324985 -0.001804902 0 0 0 0
860000000 -0.659027159 0.285768717 0.007114753 -0.004494952 0 0 0 0
868000000 -0.50792706 0.484947711 0.006963523 -0.009039039 0 0 0 0
876000000 -0.287173509 0.58076024 0.004252204 -0.014372532 0 0 0 0
884000000 -0.063139766 0.553904294 -0.003854519 -0.01931261 0 0 0 0
892000000 0.102892979 0.40395528 -0.019035307 -0.017511863 0 0 0 0
900000000 0.29305154 0.190037995 -0.034894686 0.000958207 0 0 0 0
908000000 0.204865053 0.088296808 -0.02818717 0.030652171 0 0 0 0
916000000 0.114132396 0.086965993 0.00587114 0.046125467 0 0 0 0
924000000 0.070049479 0.12409877 0.039869636 0.026115607 0 0 0 0
932000000 0.051561899 0.212014004 0.042421288 -0.014054777 0 0 0 0
940000000 0.134419322 0.334296017 0.014849231 -0.03307854 0 0 0 0
948000000 0.364634543 0.349335521 -0.00709272 -0.02447286 0 0 0 0
956000000 0.533901393 0.174701422 -0.013053704 -0.011940776 0 0 0 0
964000000 0.583794951 -0.050891146 -0.01199638 -0.002953447 0 0 0 0
972000000 0.50305438 -0.313725173 -0.00926906 0.001992739 0 0 0 0
980000000 0.295165747 -0.49854812 -0.006074854 0.003988199 0 0 0 0
988000000 0.021623888 -0.573932051 -0.004335084 0.005283445 0 0 0 0
996000000 -0.261411905 -0.517148494 -0.002435303 0.004488871 0 0 0 0
1004000000 -0.484342128 -0.372015416 -0.002396735 0.004379556 0 0 0 0
