# Hz S RI R 50
700000000 0.762503087 0.554317474 3.7595e-05 0.00077653 0 0 0 0
708000000 0.869860231 0.310023605 7.6513e-05 0.000954384 0 0 0 0
716000000 0.902718603 0.030516054 0.000210879 0.001292325 0 0 0 0
724000000 0.841370522 -0.250459313 0.000295216 0.001448959 0 0 0 0
732000000 0.695598244 -0.506537914 0.000559344 0.001454984 0 0 0 0
740000000 0.457368016 -0.703885078 0.00091363 0.001349625 0 0 0 0
748000000 0.148400515 -0.799791693 0.001044437 0.001078152 0 0 0 0
756000000 -0.194613203 -0.758812069 0.001103421 0.000760164 0 0 0 0
764000000 -0.497764706 -0.553304255 0.00118649 0.000588905 0 0 0 0
772000000 -0.666917622 -0.197449371 0.000847062 0.000174075 0 0 0 0
780000000 -0.596197009 0.233611315 0.000946031 -2.2501e-05 0 0 0 0
788000000 -0.239403277 0.54346019 0.000311897 -0.000439262 0 0 0 0
796000000 0.257640391 0.523205757 -0.000792302 -0.000511157 0 0 0 0
804000000 0.583547413 0.163551643 -0.001659867 0.000526415 0 0 0 0
812000000 0.555792093 -0.301428318 -0.001252653 0.002304902 0 0 0 0
820000000 0.260992616 -0.592678606 0.000558977 0.002902745 0 0 0 0
828000000 -0.123769909 -0.648963332 0.001933697 0.002292662 0 0 0 0
836000000 -0.436952799 -0.511742472 0.002976473 0.001230156 0 0 0 0
844000000 -0.639582097 -0.264060497 0.003740111 0.000331904 0 0 0 0
852000000 -0.713146746 0.018662238 0.004668251 -0.000943202 0 0 0 0
860000000 -0.668667197 0.285547733 0.005594104 -0.002510717 0 0 0 0
868000000 -0.519082367 0.491445928 0.006183634 -0.005670464 0 0 0 0
876000000 -0.293406456 0.592256069 0.005734843 -0.009892514 0 0 0 0
884000000 -0.06057851 0.567490458 0.001141123 -0.015178398 0 0 0 0
892000000 0.107816211 0.418238401 -0.009520974 -0.017783345 0 0 0 0
900000000 0.310120999 0.199529081 -0.026238717 -0.009204613 0 0 0 0
908000000 0.235390886 0.088796645 -0.03035677 0.014544161 0 0 0 0
916000000 0.136532992 0.063619345 -0.011538021 0.036865755 0 0 0 0
924000000 0.070017218 0.082442618 0.021028794 0.035652421 0 0 0 0
932000000 0.021386105 0.180235534 0.03999231 0.005610196 0 0 0 0
940000000 0.108000598 0.342131704 0.026887549 -0.021860446 0 0 0 0
948000000 0.348922431 0.367886245 0.003972933 -0.026204705 0 0 0 0
956000000 0.532747387 0.206750109 -0.008473935 -0.017949404 0 0 0 0
964000000 0.593669056 -0.039071645 -0.011489247 -0.007740218 0 0 0 0
972000000 0.510867953 -0.297097712 -0.011061588 -0.000630375 0 0 0 0
980000000 0.310022115 -0.491948246 -0.007500078 0.002441933 0 0 0 0
988000000 0.027974598 -0.576155185 -0.005115049 0.003602026 0 0 0 0
996000000 -0.251572698 -0.524015009 -0.003948568 0.00384102 0 0 0 0
1004000000 -0.492298662 -0.380360484 -0.002818996 0.004129376 0 0 0 0
