# Hz S RI R 50
700000000 0.761915385 0.553110301 -3.1984e-05 0.000665403 0 0 0 0
708000000 0.870001733 0.305350333 9.6823e-05 0.000868983 0 0 0 0
716000000 0.900796473 0.030572416 0.000108682 0.001121323 0 0 0 0
724000000 0.845494389 -0.245543599 0.000204678 0.001128568 0 0 0 0
732000000 0.697149097 -0.503871679 0.000562438 0.001340166 0 0 0 0
740000000 0.460165351 -0.702402651 0.000792014 0.001264633 0 0 0 0
748000000 0.150139406 -0.800492703 0.001003734 0.001202846 0 0 0 0
756000000 -0.192080959 -0.760801732 0.001203065 0.001021839 0 0 0 0
764000000 -0.492024332 -0.557369053 0.001154532 0.000740157 0 0 0 0
772000000 -0.664234101 -0.204866781 0.001247498 0.000558609 0 0 0 0
780000000 -0.599243938 0.221974298 0.001281122 6.5577e-05 0 0 0 0
788000000 -0.256280571 0.5340752 0.000605156 -0.00079717 0 0 0 0
796000000 0.230734691 0.530187249 -0.000637463 -0.000934832 0 0 0 0
804000000 0.568599641 0.185776606 -0.002347637 0.000160263 0 0 0 0
812000000 0.559951007 -0.273643821 -0.002066426 0.002323821 0 0 0 0
820000000 0.280428528 -0.575200319 0.000200833 0.003678306 0 0 0 0
828000000 -0.099273435 -0.643765687 0.002130182 0.002947574 0 0 0 0
836000000 -0.414274185 -0.517990946 0.003323231 0.001823008 0 0 0 0
844000000 -0.621036171 -0.281032979 0.004738309 0.000535397 0 0 0 0
852000000 -0.704063355 -0.007049368 0.005518056 -0.001283954 0 0 0 0
860000000 -0.672348856 0.258488804 0.006611998 -0.003315033 0 0 0 0
868000000 -0.538224041 0.464539468 0.006649533 -0.006827135 0 0 0 0
876000000 -0.322553485 0.577347874 0.005398439 -0.011460863 0 0 0 0
884000000 -0.103577323 0.572271108 -0.000256235 -0.016727877 0 0 0 0
892000000 0.077128157 0.449082344 -0.012132209 -0.018170144 0 0 0 0
900000000 0.308045566 0.250144273 -0.028181765 -0.007451693 0 0 0 0
908000000 0.255801916 0.132424965 -0.031773205 0.01853368 0 0 0 0
916000000 0.185511857 0.085155501 -0.008967094 0.041105803 0 0 0 0
924000000 0.120921775 0.090692512 0.026091016 0.035948768 0 0 0 0
932000000 0.066317327 0.138524234 0.043199025 0.002346635 0 0 0 0
940000000 0.093373641 0.269159525 0.026251282 -0.026441587 0 0 0 0
948000000 0.28908199 0.352485299 0.001168617 -0.028840603 0 0 0 0
956000000 0.480019897 0.21297267 -0.010911813 -0.017809826 0 0 0 0
964000000 0.57793051 -0.016073582 -0.013401082 -0.006188522 0 0 0 0
972000000 0.512466132 -0.27942723 -0.010842783 0.000990491 0 0 0 0
980000000 0.310937643 -0.48983854 -0.007343852 0.003717021 0 0 0 0
988000000 0.042883429 -0.572091519 -0.004594491 0.004768289 0 0 0 0
996000000 -0.237659081 -0.530515491 -0.002789608 0.003909038 0 0 0 0
1004000000 -0.488310277 -0.380092382 -0.002062277 0.004117376 0 0 0 0
