# Hz S RI R 50
700000000 0.761495828 0.554184556 -0.000100449 0.000602562 0 0 0 0
708000000 0.868723154 0.309456676 -9.1533e-05 0.000881002 0 0 0 0
716000000 0.897811114 0.032844103 7.862e-05 0.001240443 0 0 0 0
724000000 0.844748377 -0.246171131 0.000348227 0.001374738 0 0 0 0
732000000 0.697463929 -0.501653134 0.000471171 0.001574403 0 0 0 0
740000000 0.458729535 -0.70155251 0.000983305 0.001397819 0 0 0 0
748000000 0.151909261 -0.801439344 0.001210307 0.001240303 0 0 0 0
756000000 -0.187983706 -0.761360406 0.001239246 0.000957791 0 0 0 0
764000000 -0.490134447 -0.559790432 0.00134005 0.000799762 0 0 0 0
772000000 -0.661315381 -0.205528467 0.001344636 0.000256332 0 0 0 0
780000000 -0.601154625 0.215670511 0.001203423 -0.000572025 0 0 0 0
788000000 -0.261644214 0.531522035 0.000296066 -0.001354849 0 0 0 0
796000000 0.223195806 0.535104215 -0.001509221 -0.001227535 0 0 0 0
804000000 0.568284213 0.194858342 -0.003055797 0.000305596 0 0 0 0
812000000 0.566236138 -0.264403283 -0.002386077 0.003074208 0 0 0 0
820000000 0.290429234 -0.568017661 5.8359e-05 0.004638616 0 0 0 0
828000000 -0.086766801 -0.645138442 0.002671186 0.003765412 0 0 0 0
836000000 -0.40605551 -0.524541318 0.004216207 0.002437172 0 0 0 0
844000000 -0.617079138 -0.29052177 0.00569943 0.000286085 0 0 0 0
852000000 -0.70518434 -0.013975484 0.006771107 -0.001515635 0 0 0 0
860000000 -0.68165183 0.252576202 0.007494188 -0.004396154 0 0 0 0
868000000 -0.543926537 0.463391602 0.007315342 -0.008924224 0 0 0 0
876000000 -0.338154286 0.583424448 0.00461661 -0.013916909 0 0 0 0
884000000 -0.11055018 0.585529506 -0.00293224 -0.018853073 0 0 0 0
892000000 0.078516989 0.46817106 -0.016561308 -0.018335044 0 0 0 0
900000000 0.329728633 0.251968502 -0.032507866 -0.00165296 0 0 0 0
908000000 0.280701369 0.106967732 -0.030260602 0.026577137 0 0 0 0
916000000 0.183756902 0.068102963 -0.00055118 0.045180998 0 0 0 0
924000000 0.119655944 0.082285113 0.035115722 0.030739614 0 0 0 0
932000000 0.070509374 0.128387063 0.043709803 -0.007991111 0 0 0 0
940000000 0.086508877 0.264024645 0.018247868 -0.031307574 0 0 0 0
948000000 0.27939257 0.339991927 -0.005333146 -0.025372978 0 0 0 0
956000000 0.480998247 0.225600853 -0.011801648 -0.012257941 0 0 0 0
964000000 0.570660829 -0.009711779 -0.010956544 -0.003485752 0 0 0 0
972000000 0.500687718 -0.272928059 -0.008921968 0.000695538 0 0 0 0
980000000 0.321139693 -0.472772449 -0.005461442 0.003052227 0 0 0 0
988000000 0.049274168 -0.564070761 -0.003951275 0.003421186 0 0 0 0
996000000 -0.239801689 -0.534543514 -0.00293021 0.003122344 0 0 0 0
1004000000 -0.483790397 -0.389588713 -0.002797044 0.003357714 0 0 0 0
