# Hz S RI R 50
700000000 0.757189929 0.552458047 -1.0893e-05 0.00060926 0 0 0 0
708000000 0.866714537 0.30861172 -3.587e-05 0.000995316 0 0 0 0
716000000 0.896535992 0.034950166 -1.7535e-05 0.001167812 0 0 0 0
724000000 0.84021455 -0.242808938 0.000208515 0.001295517 0 0 0 0
732000000 0.698015809 -0.502679824 0.000572917 0.001499852 0 0 0 0
740000000 0.457147806 -0.69961524 0.000764649 0.001403715 0 0 0 0
748000000 0.146822676 -0.798031985 0.001183102 0.001223326 0 0 0 0
756000000 -0.191142201 -0.757161974 0.001161705 0.001026928 0 0 0 0
764000000 -0.492998987 -0.553636968 0.001405797 0.000589832 0 0 0 0
772000000 -0.661752223 -0.200608029 0.001291324 0.000154228 0 0 0 0
780000000 -0.593168377 0.225184679 0.001171293 -0.000263068 0 0 0 0
788000000 -0.244773462 0.534586548 0.000306204 -0.001159671 0 0 0 0
796000000 0.240935266 0.522798418 -0.0013783 -0.00100983 0 0 0 0
804000000 0.571172177 0.172145843 -0.002800022 0.000795834 0 0 0 0
812000000 0.553657174 -0.283041417 -0.001798128 0.002954001 0 0 0 0
820000000 0.269190132 -0.578571021 0.000502625 0.003794274 0 0 0 0
828000000 -0.109346933 -0.641413509 0.00241101 0.003187519 0 0 0 0
836000000 -0.422004103 -0.508920609 0.003880723 0.001980106 0 0 0 0
844000000 -0.626094102 -0.266232907 0.005088884 0.000403701 0 0 0 0
852000000 -0.700125396 0.010091345 0.006221476 -0.00135426 0 0 0 0
860000000 -0.661023139 0.275952845 0.007159123 -0.004219762 0 0 0 0
868000000 -0.522322595 0.473906844 0.006925712 -0.008454581 0 0 0 0
876000000 -0.301650136 0.579156756 0.004272482 -0.013544109 0 0 0 0
884000000 -0.079027384 0.560087919 -0.003088079 -0.01847162 0 0 0 0
892000000 0.090481154 0.424361824 -0.016889182 -0.017627699 0 0 0 0
900000000 0.309099555 0.210778459 -0.032958254 -0.001223372 0 0 0 0
908000000 0.236917793 0.104647286 -0.028467031 0.027674091 0 0 0 0
916000000 0.149498537 0.081042401 0.001900596 0.044286064 0 0 0 0
924000000 0.084941118 0.096646003 0.036144975 0.027317829 0 0 0 0
932000000 0.050761092 0.163896724 0.041445687 -0.010554887 0 0 0 0
940000000 0.112215399 0.312299668 0.016373978 -0.029943063 0 0 0 0
948000000 0.341484338 0.364384382 -0.005278171 -0.023798728 0 0 0 0
956000000 0.509988963 0.207491576 -0.011936043 -0.012592887 0 0 0 0
964000000 0.589245021 -0.046603862 -0.01143998 -0.004275723 0 0 0 0
972000000 0.500497341 -0.292472094 -0.009473751 0.001488104 0 0 0 0
980000000 0.307404547 -0.506731152 -0.005794224 0.003638526 0 0 0 0
988000000 0.026666089 -0.578547298 -0.003683937 0.004639288 0 0 0 0
996000000 -0.2484885 -0.513794541 -0.002910533 0.00360378 0 0 0 0
1004000000 -0.488135159 -0.379046589 -0.001845405 0.00407843 0 0 0 0
