# Hz S RI R 50
700000000 0.760112464 0.551036477 -1.225e-06 0.000437049 0 0 0 0
708000000 0.868909299 0.30590716 -0.000133519 0.00092865 0 0 0 0
716000000 0.900415301 0.034141875 -0.000115465 0.001134323 0 0 0 0
724000000 0.84054929 -0.246997743 0.000116291 0.001587856 0 0 0 0
732000000 0.695126295 -0.506918787 0.000191656 0.001675634 0 0 0 0
740000000 0.456627398 -0.704250335 0.000757609 0.001744373 0 0 0 0
748000000 0.147331625 -0.801326155 0.001123575 0.001496803 0 0 0 0
756000000 -0.192428559 -0.75749123 0.001355812 0.000991171 0 0 0 0
764000000 -0.495047688 -0.554709374 0.001528686 0.000861114 0 0 0 0
772000000 -0.66253525 -0.197262838 0.001650542 0.000407876 0 0 0 0
780000000 -0.590535342 0.226628392 0.001532131 -0.000442711 0 0 0 0
788000000 -0.238011091 0.539000391 0.00064083 -0.001558991 0 0 0 0
796000000 0.250194936 0.518864512 -0.001432146 -0.001762721 0 0 0 0
804000000 0.572357356 0.16255331 -0.003648093 0.000523974 0 0 0 0
812000000 0.552621424 -0.292993247 -0.002514975 0.00361904 0 0 0 0
820000000 0.258603513 -0.584421157 0.000541959 0.004852279 0 0 0 0
828000000 -0.116397067 -0.640115022 0.002994701 0.004079848 0 0 0 0
836000000 -0.431597381 -0.506464958 0.004756932 0.002370716 0 0 0 0
844000000 -0.635129451 -0.26275283 0.006020881 -4.709e-05 0 0 0 0
852000000 -0.704270362 0.011630896 0.006947161 -0.002219123 0 0 0 0
860000000 -0.661123871 0.282749474 0.007231685 -0.005313941 0 0 0 0
868000000 -0.516769587 0.484186142 0.006512305 -0.009882552 0 0 0 0
876000000 -0.297052025 0.585704445 0.003207965 -0.014728358 0 0 0 0
884000000 -0.065375365 0.561950087 -0.005484812 -0.019027722 0 0 0 0
892000000 0.104642778 0.413734495 -0.020234763 -0.015784747 0 0 0 0
900000000 0.309492498 0.194799259 -0.032996531 0.004473705 0 0 0 0
908000000 0.214180409 0.080539464 -0.024252329 0.032700065 0 0 0 0
916000000 0.115837089 0.076828554 0.00878355 0.043690722 0 0 0 0
924000000 0.059811722 0.110468879 0.039887014 0.023004878 0 0 0 0
932000000 0.042846437 0.213179498 0.041369814 -0.016159255 0 0 0 0
940000000 0.128077954 0.342999219 0.011662157 -0.034230217 0 0 0 0
948000000 0.35803318 0.367385417 -0.010309662 -0.023551777 0 0 0 0
956000000 0.532517433 0.18851982 -0.013512904 -0.009406943 0 0 0 0
964000000 0.593807458 -0.062875665 -0.011101246 -0.001078921 0 0 0 0
972000000 0.499604731 -0.308165431 -0.008012658 0.002510535 0 0 0 0
980000000 0.297676503 -0.507597625 -0.004722761 0.003735121 0 0 0 0
988000000 0.024917244 -0.573707222 -0.002795923 0.003580663 0 0 0 0
996000000 -0.258306652 -0.521788179 -0.001694556 0.004046706 0 0 0 0
1004000000 -0.487984657 -0.378089904 -0.002328812 0.00366047 0 0 0 0
