# Hz S RI R 50
700000000 0.76480478 0.554146766 3.9864e-05 0.000684972 0 0 0 0
708000000 0.868577897 0.307145357 1.4966e-05 0.000894623 0 0 0 0
716000000 0.900341987 0.032522819 7.4315e-05 0.001305747 0 0 0 0
724000000 0.844475626 -0.251125872 0.000285807 0.001377895 0 0 0 0
732000000 0.697184801 -0.505344569 0.000498703 0.001485389 0 0 0 0
740000000 0.458281993 -0.702788591 0.000935618 0.00148472 0 0 0 0
748000000 0.148858666 -0.802395284 0.001124752 0.00136523 0 0 0 0
756000000 -0.192610397 -0.760074019 0.001248988 0.000907233 0 0 0 0
764000000 -0.494668066 -0.555838465 0.001130168 0.000610231 0 0 0 0
772000000 -0.66186434 -0.198637425 0.001097883 0.000276715 0 0 0 0
780000000 -0.597805738 0.229038774 0.00102137 -0.000232484 0 0 0 0
788000000 -0.246703669 0.536253094 0.000166026 -0.000859813 0 0 0 0
796000000 0.244146183 0.526381373 -0.001252693 -0.00077353 0 0 0 0
804000000 0.574636042 0.176607653 -0.002638977 0.000767919 0 0 0 0
812000000 0.559158027 -0.284100174 -0.001505622 0.002872073 0 0 0 0
820000000 0.274410128 -0.5804798 0.000945529 0.00372297 0 0 0 0
828000000 -0.1059568 -0.648236811 0.002315206 0.002637739 0 0 0 0
836000000 -0.423190444 -0.517396867 0.003560097 0.001458696 0 0 0 0
844000000 -0.632404148 -0.278220564 0.00469271 0.000253285 0 0 0 0
852000000 -0.711475849 0.000451916 0.005701305 -0.001435121 0 0 0 0
860000000 -0.676398992 0.268979012 0.006458926 -0.003878872 0 0 0 0
868000000 -0.536536514 0.479897916 0.006500378 -0.007381613 0 0 0 0
876000000 -0.317751377 0.594308972 0.004840175 -0.012081683 0 0 0 0
884000000 -0.081641055 0.588716387 -0.001369173 -0.017410308 0 0 0 0
892000000 0.10582178 0.451649814 -0.014267336 -0.018154989 0 0 0 0
900000000 0.341927349 0.21787095 -0.03051244 -0.004148584 0 0 0 0
908000000 0.258586734 0.082828305 -0.031115477 0.023843092 0 0 0 0
916000000 0.14419189 0.062401376 -0.00301179 0.044905938 0 0 0 0
924000000 0.081879086 0.083821699 0.03370453 0.033043634 0 0 0 0
932000000 0.043236434 0.167307868 0.04557472 -0.006082913 0 0 0 0
940000000 0.087682761 0.305380314 0.021149167 -0.032017204 0 0 0 0
948000000 0.314966797 0.357813924 -0.005221579 -0.028260387 0 0 0 0
956000000 0.499416619 0.225374728 -0.013418602 -0.014571066 0 0 0 0
964000000 0.588676989 -0.024197861 -0.012975458 -0.003552867 0 0 0 0
972000000 0.510634541 -0.285250425 -0.01014909 0.002194149 0 0 0 0
980000000 0.313283026 -0.486235111 -0.006262716 0.004219127 0 0 0 0
988000000 0.04391526 -0.573872983 -0.004200967 0.004544424 0 0 0 0
996000000 -0.248391956 -0.521615743 -0.002696715 0.004003537 0 0 0 0
1004000000 -0.486006021 -0.394778788 -0.002391917 0.003463574 0 0 0 0
