# Hz S RI R 50
700000000 0.758495271 0.554242253 4.0778e-05 0.000514943 0 0 0 0
708000000 0.868286669 0.30517444 -9.018e-05 0.000986963 0 0 0 0
716000000 0.898135721 0.035835415 0.000127635 0.001364169 0 0 0 0
724000000 0.843750059 -0.249947935 0.000398895 0.001415228 0 0 0 0
732000000 0.695409953 -0.504918396 0.00069945 0.001433047 0 0 0 0
740000000 0.457245439 -0.700727283 0.000972683 0.001363611 0 0 0 0
748000000 0.146624252 -0.800025641 0.001203901 0.001056077 0 0 0 0
756000000 -0.192857339 -0.757915675 0.001284328 0.000867456 0 0 0 0
764000000 -0.494092404 -0.55200237 0.001415327 0.000327022 0 0 0 0
772000000 -0.664861261 -0.196247905 0.001417242 -2.9332e-05 0 0 0 0
780000000 -0.594049572 0.229732111 0.000941101 -0.000800115 0 0 0 0
788000000 -0.246303379 0.536238789 -0.000381966 -0.001328334 0 0 0 0
796000000 0.241983309 0.520959794 -0.002298529 -0.00049048 0 0 0 0
804000000 0.571902036 0.168858498 -0.003184873 0.001889594 0 0 0 0
812000000 0.551284551 -0.286556541 -0.001483122 0.004259475 0 0 0 0
820000000 0.264457404 -0.578468441 0.001583244 0.005060438 0 0 0 0
828000000 -0.111347064 -0.637096941 0.004006996 0.00342884 0 0 0 0
836000000 -0.424023181 -0.508324921 0.005373935 0.001637797 0 0 0 0
844000000 -0.626367092 -0.268115788 0.006340851 -0.000953559 0 0 0 0
852000000 -0.697389423 0.008142586 0.007031309 -0.003464856 0 0 0 0
860000000 -0.658450722 0.269821137 0.006987893 -0.006868348 0 0 0 0
868000000 -0.519979834 0.471211612 0.005203157 -0.011183072 0 0 0 0
876000000 -0.309218674 0.576346576 0.000484908 -0.0157315 0 0 0 0
884000000 -0.083562202 0.560936033 -0.008887271 -0.017825068 0 0 0 0
892000000 0.084564261 0.434239864 -0.022667825 -0.012028985 0 0 0 0
900000000 0.309524446 0.211790591 -0.031395711 0.009623932 0 0 0 0
908000000 0.235277578 0.097010843 -0.017777182 0.03638615 0 0 0 0
916000000 0.148953095 0.083038948 0.01794504 0.040833655 0 0 0 0
924000000 0.099162101 0.092625819 0.04286031 0.012057848 0 0 0 0
932000000 0.052333295 0.175332769 0.032388456 -0.024427518 0 0 0 0
940000000 0.104651093 0.314574956 0.003600876 -0.030453305 0 0 0 0
948000000 0.334873169 0.346974164 -0.011118472 -0.017586963 0 0 0 0
956000000 0.515840351 0.199025586 -0.011997671 -0.006286827 0 0 0 0
964000000 0.579141497 -0.032922636 -0.009696422 -0.000257132 0 0 0 0
972000000 0.500884711 -0.288017809 -0.007163631 0.003152124 0 0 0 0
980000000 0.299274593 -0.490657061 -0.003416832 0.004242423 0 0 0 0
988000000 0.034378867 -0.559466361 -0.002482556 0.003585516 0 0 0 0
996000000 -0.245968461 -0.525756418 -0.00116317 0.002352486 0 0 0 0
1004000000 -0.484874933 -0.383021503 -0.00163803 0.002630025 0 0 0 0
