# Hz S RI R 50
700000000 0.758949637 0.555550754 -0.000115288 0.000524971 0 0 0 0
708000000 0.866470932 0.308621823 -3.4662e-05 0.000915676 0 0 0 0
716000000 0.898823618 0.030255869 -3.9854e-05 0.001149079 0 0 0 0
724000000 0.843106687 -0.250021219 0.000126212 0.001434634 0 0 0 0
732000000 0.696422815 -0.504865109 0.000292244 0.001513169 0 0 0 0
740000000 0.457534611 -0.700652718 0.000757886 0.001667527 0 0 0 0
748000000 0.146102979 -0.798077881 0.000956817 0.001348006 0 0 0 0
756000000 -0.195702612 -0.755785346 0.001302539 0.001185219 0 0 0 0
764000000 -0.495847463 -0.553037822 0.001255998 0.000891276 0 0 0 0
772000000 -0.665576457 -0.193158239 0.001653701 0.000577977 0 0 0 0
780000000 -0.591521739 0.235727056 0.001906145 -0.000279564 0 0 0 0
788000000 -0.235893175 0.54122281 0.001229396 -0.001538365 0 0 0 0
796000000 0.256262063 0.519812345 -0.000930522 -0.002206699 0 0 0 0
804000000 0.578774154 0.162683814 -0.00345827 -0.000850292 0 0 0 0
812000000 0.553504049 -0.293012917 -0.003644571 0.002766016 0 0 0 0
820000000 0.2636002 -0.586120724 -0.000846854 0.004779067 0 0 0 0
828000000 -0.115439414 -0.641438901 0.001885935 0.004676219 0 0 0 0
836000000 -0.431873828 -0.509497404 0.004186937 0.003515779 0 0 0 0
844000000 -0.637776076 -0.267322361 0.00642155 0.001470614 0 0 0 0
852000000 -0.70772767 0.011994642 0.007873306 -0.00106978 0 0 0 0
860000000 -0.668868362 0.279129773 0.008857632 -0.00459873 0 0 0 0
868000000 -0.522512912 0.477614402 0.008482877 -0.009821647 0 0 0 0
876000000 -0.304407328 0.587346196 0.005075521 -0.016104156 0 0 0 0
884000000 -0.077601924 0.577513873 -0.00428939 -0.02140263 0 0 0 0
892000000 0.104305133 0.441413402 -0.020474536 -0.019111683 0 0 0 0
900000000 0.328709393 0.210208013 -0.036204632 0.000684023 0 0 0 0
908000000 0.25868076 0.06785091 -0.029247848 0.031914982 0 0 0 0
916000000 0.139304116 0.033838752 0.00365889 0.047082081 0 0 0 0
924000000 0.04378492 0.076554425 0.037866551 0.030338451 0 0 0 0
932000000 0.020871229 0.207414299 0.045299757 -0.008247831 0 0 0 0
940000000 0.124008029 0.346407979 0.021818771 -0.033641021 0 0 0 0
948000000 0.350677669 0.364682078 -0.004964427 -0.02950216 0 0 0 0
956000000 0.529399514 0.204863443 -0.014603367 -0.015555705 0 0 0 0
964000000 0.588615536 -0.052909217 -0.014827051 -0.004332712 0 0 0 0
972000000 0.505067288 -0.292809844 -0.011520247 0.002778706 0 0 0 0
980000000 0.295785069 -0.488847494 -0.006710286 0.004979142 0 0 0 0
988000000 0.030982539 -0.563706099 -0.003900843 0.005251086 0 0 0 0
996000000 -0.256050348 -0.514031469 -0.001932322 0.004747317 0 0 0 0
1004000000 -0.488176435 -0.381614595 -0.001510466 0.00423658 0 0 0 0
