# Hz S RI R 50
700000000 0.760608971 0.553397655 4.4123e-05 0.000714556 0 0 0 0
708000000 0.871085524 0.305865705 1.357e-05 0.000980426 0 0 0 0
716000000 0.901953995 0.03034765 0.000189758 0.001157466 0 0 0 0
724000000 0.842297136 -0.245599329 0.000236455 0.00128367 0 0 0 0
732000000 0.695277333 -0.507826924 0.00046784 0.001487482 0 0 0 0
740000000 0.458117276 -0.706038713 0.000862201 0.001386024 0 0 0 0
748000000 0.145046517 -0.803962945 0.001097884 0.001202307 0 0 0 0
756000000 -0.197273209 -0.756441831 0.001015732 0.000931966 0 0 0 0
764000000 -0.498190641 -0.55051589 0.001089297 0.000820103 0 0 0 0
772000000 -0.667356729 -0.191180616 0.001273748 0.000634719 0 0 0 0
780000000 -0.58914721 0.23510164 0.001505798 0.000156506 0 0 0 0
788000000 -0.232016175 0.538154184 0.00082784 -0.000789096 0 0 0 0
796000000 0.257301598 0.51760739 -0.000310649 -0.001130929 0 0 0 0
804000000 0.578580915 0.156470969 -0.001986969 -0.000280856 0 0 0 0
812000000 0.54966855 -0.301835924 -0.002015281 0.001841106 0 0 0 0
820000000 0.254858344 -0.587079226 -7.3181e-05 0.00295878 0 0 0 0
828000000 -0.124610744 -0.641056716 0.001505636 0.002558743 0 0 0 0
836000000 -0.436798334 -0.504329204 0.002611373 0.001836309 0 0 0 0
844000000 -0.635421395 -0.262867897 0.003844512 0.000634689 0 0 0 0
852000000 -0.707852244 0.017153374 0.004908005 -0.0006065 0 0 0 0
860000000 -0.666541874 0.280460298 0.005916478 -0.002339129 0 0 0 0
868000000 -0.518264114 0.484696596 0.006688042 -0.005551262 0 0 0 0
876000000 -0.297678351 0.587047576 0.006125517 -0.009851499 0 0 0 0
884000000 -0.067226022 0.568562328 0.001620031 -0.015567499 0 0 0 0
892000000 0.105220802 0.429147958 -0.009468947 -0.018553577 0 0 0 0
900000000 0.3150765 0.203345313 -0.025440173 -0.009490687 0 0 0 0
908000000 0.242253124 0.079075939 -0.031603362 0.014238267 0 0 0 0
916000000 0.142837598 0.046208471 -0.012861462 0.03696179 0 0 0 0
924000000 0.051438882 0.075797282 0.020271865 0.035817593 0 0 0 0
932000000 0.015119685 0.202480822 0.038786765 0.007092907 0 0 0 0
940000000 0.12321566 0.342571556 0.027559578 -0.019718775 0 0 0 0
948000000 0.362069547 0.368281722 0.00617393 -0.025976447 0 0 0 0
956000000 0.52034074 0.192632481 -0.00645601 -0.019074426 0 0 0 0
964000000 0.59018743 -0.038720473 -0.012075159 -0.009343977 0 0 0 0
972000000 0.508913934 -0.306486368 -0.011930448 -0.001829075 0 0 0 0
980000000 0.299930006 -0.504559099 -0.008378505 0.001737314 0 0 0 0
988000000 0.033660776 -0.57319349 -0.006195287 0.004013561 0 0 0 0
996000000 -0.254673361 -0.523491263 -0.004528702 0.004507405 0 0 0 0
1004000000 -0.484535634 -0.38370487 -0.003462688 0.005105085 0 0 0 0
