# Hz S RI R 50
700000000 0.761516451 0.548536121 3.8327e-05 0.000674192 0 0 0 0
708000000 0.867238879 0.306938081 -0.000106246 0.000942319 0 0 0 0
716000000 0.900160253 0.036025252 -8.6646e-05 0.001211124 0 0 0 0
724000000 0.841948091 -0.248627364 0.000314013 0.001338874 0 0 0 0
732000000 0.700462818 -0.50487405 0.000685193 0.001612505 0 0 0 0
740000000 0.46077314 -0.701227962 0.000692731 0.001421844 0 0 0 0
748000000 0.149506047 -0.802206993 0.001237767 0.001281324 0 0 0 0
756000000 -0.188477203 -0.763124942 0.001120087 0.000802314 0 0 0 0
764000000 -0.495045572 -0.559611022 0.00149673 0.000707895 0 0 0 0
772000000 -0.670141935 -0.205884188 0.001250748 0.00020613 0 0 0 0
780000000 -0.605152547 0.22297056 0.001102599 -0.000150125 0 0 0 0
788000000 -0.258201122 0.541594147 0.000522581 -0.000989303 0 0 0 0
796000000 0.235161766 0.538126409 -0.000854714 -0.001269901 0 0 0 0
804000000 0.581433951 0.189470708 -0.002851416 -4.1301e-05 0 0 0 0
812000000 0.575390636 -0.276173084 -0.002370297 0.002645702 0 0 0 0
820000000 0.289443731 -0.583513438 -3.7968e-05 0.003955625 0 0 0 0
828000000 -0.095355615 -0.654926359 0.002069982 0.003454643 0 0 0 0
836000000 -0.419215738 -0.530235469 0.003498053 0.002139016 0 0 0 0
844000000 -0.630125343 -0.287142813 0.004750988 0.000595142 0 0 0 0
852000000 -0.712894499 -0.010632175 0.005445537 -0.000955359 0 0 0 0
860000000 -0.686586916 0.259610295 0.00633494 -0.003138211 0 0 0 0
868000000 -0.549755692 0.46958059 0.006742212 -0.006425374 0 0 0 0
876000000 -0.337563276 0.592684507 0.005589833 -0.010901912 0 0 0 0
884000000 -0.106909424 0.592774271 0.000634789 -0.015810701 0 0 0 0
892000000 0.087025322 0.473289281 -0.009832035 -0.018085686 0 0 0 0
900000000 0.339074373 0.252768635 -0.026744602 -0.009161011 0 0 0 0
908000000 0.294103711 0.120906971 -0.032337088 0.013685098 0 0 0 0
916000000 0.204168424 0.05545121 -0.014356186 0.037803497 0 0 0 0
924000000 0.129140049 0.055627435 0.019439566 0.038857121 0 0 0 0
932000000 0.048311203 0.119780398 0.043145783 0.01039121 0 0 0 0
940000000 0.067982733 0.265765666 0.032303165 -0.022443113 0 0 0 0
948000000 0.267474919 0.352716356 0.005585053 -0.030916547 0 0 0 0
956000000 0.470222651 0.237493574 -0.010630349 -0.020603133 0 0 0 0
964000000 0.564486742 -0.002147705 -0.013788077 -0.007752909 0 0 0 0
972000000 0.506669163 -0.261184036 -0.012028665 4.692e-05 0 0 0 0
980000000 0.323251217 -0.471062779 -0.007787381 0.003476349 0 0 0 0
988000000 0.057696364 -0.558002889 -0.004840012 0.004567178 0 0 0 0
996000000 -0.232098132 -0.531084537 -0.003440693 0.004283342 0 0 0 0
1004000000 -0.484707236 -0.398150771 -0.002638801 0.00430353 0 0 0 0
