# Hz S RI R 50
700000000 0.759034037 0.5553447 -1.438e-05 0.000681511 0 0 0 0
708000000 0.86737734 0.307898193 -1.2181e-05 0.001085152 0 0 0 0
716000000 0.898704707 0.037296902 -9.724e-06 0.001161417 0 0 0 0
724000000 0.843843162 -0.245478183 0.000314539 0.001282455 0 0 0 0
732000000 0.69586122 -0.503898084 0.000571282 0.001389259 0 0 0 0
740000000 0.457595556 -0.701880037 0.000740523 0.001276279 0 0 0 0
748000000 0.146277561 -0.800718247 0.001054516 0.001116596 0 0 0 0
756000000 -0.191675513 -0.757273018 0.001255912 0.001014163 0 0 0 0
764000000 -0.496375262 -0.552365005 0.001176689 0.000673262 0 0 0 0
772000000 -0.661854684 -0.194883316 0.001248933 0.000209838 0 0 0 0
780000000 -0.595778286 0.225227966 0.001075469 -0.000202621 0 0 0 0
788000000 -0.245306774 0.536603093 0.000373545 -0.001046771 0 0 0 0
796000000 0.244996905 0.522122919 -0.001138982 -0.001204737 0 0 0 0
804000000 0.571123659 0.171136081 -0.002852299 0.000587756 0 0 0 0
812000000 0.551297664 -0.28904888 -0.0021032 0.002942333 0 0 0 0
820000000 0.263546168 -0.578487694 0.000470071 0.004269445 0 0 0 0
828000000 -0.111769892 -0.637710452 0.002576344 0.003140799 0 0 0 0
836000000 -0.422162771 -0.505467474 0.003960158 0.0015074 0 0 0 0
844000000 -0.62582153 -0.265193521 0.004845436 5.106e-06 0 0 0 0
852000000 -0.696752548 0.013955082 0.005281195 -0.001682043 0 0 0 0
860000000 -0.656150102 0.271569311 0.005893504 -0.003585356 0 0 0 0
868000000 -0.512705981 0.471203535 0.006000129 -0.006796539 0 0 0 0
876000000 -0.299732983 0.568318903 0.004775889 -0.010797202 0 0 0 0
884000000 -0.084885932 0.549571752 5.3674e-05 -0.015400115 0 0 0 0
892000000 0.077527292 0.415648311 -0.010624933 -0.017398109 0 0 0 0
900000000 0.286364763 0.213283836 -0.026050362 -0.007070283 0 0 0 0
908000000 0.220671236 0.113137058 -0.030141737 0.015927817 0 0 0 0
916000000 0.150180578 0.091320045 -0.009399731 0.037346214 0 0 0 0
924000000 0.104708969 0.118983983 0.022248402 0.033806137 0 0 0 0
932000000 0.067438744 0.174878671 0.038812611 0.004481406 0 0 0 0
940000000 0.126594319 0.298930525 0.025855131 -0.021331479 0 0 0 0
948000000 0.336687147 0.333518683 0.003388312 -0.025773035 0 0 0 0
956000000 0.498217254 0.197243869 -0.007866422 -0.017091128 0 0 0 0
964000000 0.573104262 -0.035531409 -0.010936946 -0.007494634 0 0 0 0
972000000 0.500094115 -0.290322244 -0.010671868 -0.000900525 0 0 0 0
980000000 0.299733459 -0.490543961 -0.007181318 0.002463527 0 0 0 0
988000000 0.02641905 -0.565928459 -0.004822328 0.004281638 0 0 0 0
996000000 -0.245783954 -0.519911348 -0.004029111 0.003651124 0 0 0 0
1004000000 -0.484306335 -0.385479688 -0.003220343 0.003843869 0 0 0 0
