# Hz S RI R 50
700000000 0.761253058 0.552118062 -5.4111e-05 0.000524664 0 0 0 0
708000000 0.866822123 0.304445594 -0.000226751 0.000867734 0 0 0 0
716000000 0.899948298 0.029489187 -2.1342e-05 0.001113893 0 0 0 0
724000000 0.842177808 -0.246504411 7.5053e-05 0.001597565 0 0 0 0
732000000 0.692109405 -0.505631327 0.00027914 0.00161831 0 0 0 0
740000000 0.454616993 -0.70392692 0.000513632 0.001599334 0 0 0 0
748000000 0.148009866 -0.800156414 0.000964267 0.00142756 0 0 0 0
756000000 -0.196432396 -0.757853686 0.001136592 0.001321519 0 0 0 0
764000000 -0.4981305 -0.552071332 0.00133861 0.001087483 0 0 0 0
772000000 -0.661351203 -0.194898441 0.001822199 0.00076144 0 0 0 0
780000000 -0.593229591 0.229383081 0.002156557 -0.000406652 0 0 0 0
788000000 -0.245066896 0.539417028 0.00112638 -0.001780144 0 0 0 0
796000000 0.245797172 0.527603566 -0.001120838 -0.002747983 0 0 0 0
804000000 0.573819875 0.17306298 -0.003916519 -0.000882314 0 0 0 0
812000000 0.557841539 -0.284671306 -0.004002269 0.002912129 0 0 0 0
820000000 0.274392575 -0.579050958 -0.000910556 0.005223366 0 0 0 0
828000000 -0.104664757 -0.644014894 0.001990363 0.005019227 0 0 0 0
836000000 -0.421989113 -0.51766473 0.004637537 0.003423923 0 0 0 0
844000000 -0.630554676 -0.277636915 0.006392611 0.00130724 0 0 0 0
852000000 -0.710110366 -0.001370471 0.007656617 -0.001031617 0 0 0 0
860000000 -0.67690891 0.269172161 0.008914237 -0.004619459 0 0 0 0
868000000 -0.533013641 0.478870779 0.008456941 -0.009686443 0 0 0 0
876000000 -0.317885577 0.590420663 0.005329386 -0.015693005 0 0 0 0
884000000 -0.088242515 0.580950558 -0.003492249 -0.021336937 0 0 0 0
892000000 0.096535116 0.453786641 -0.019483847 -0.019919531 0 0 0 0
900000000 0.335809916 0.226810321 -0.036432404 -0.000956172 0 0 0 0
908000000 0.269400626 0.092517741 -0.031318273 0.03046487 0 0 0 0
916000000 0.175807714 0.042990643 0.000395954 0.048075586 0 0 0 0
924000000 0.078721247 0.063324026 0.036577686 0.033682875 0 0 0 0
932000000 0.026773691 0.166837751 0.048432353 -0.005649507 0 0 0 0
940000000 0.10146258 0.312403798 0.024512801 -0.035091567 0 0 0 0
948000000 0.325589418 0.358926892 -0.005333113 -0.031949337 0 0 0 0
956000000 0.510353267 0.203711837 -0.015920208 -0.016730129 0 0 0 0
964000000 0.581184864 -0.029065903 -0.015666564 -0.00448942 0 0 0 0
972000000 0.50486797 -0.281412601 -0.012624496 0.003254684 0 0 0 0
980000000 0.305060446 -0.484104841 -0.00742133 0.005898013 0 0 0 0
988000000 0.034696821 -0.561428606 -0.003547568 0.006042264 0 0 0 0
996000000 -0.253941506 -0.522048771 -0.001894452 0.004979745 0 0 0 0
1004000000 -0.494687855 -0.38607186 -0.000578166 0.004496204 0 0 0 0
