# Hz S RI R 50
700000000 0.756944894 0.555511236 -8.8731e-05 0.000744421 0 0 0 0
708000000 0.868523299 0.308124512 8.9652e-05 0.00101776 0 0 0 0
716000000 0.897995948 0.034149121 -7.2915e-05 0.001271042 0 0 0 0
724000000 0.846997201 -0.243593558 0.000157087 0.001341464 0 0 0 0
732000000 0.696687042 -0.506428003 0.000542124 0.00156813 0 0 0 0
740000000 0.458872646 -0.702387273 0.000892966 0.001481104 0 0 0 0
748000000 0.149208784 -0.798064589 0.001049531 0.001227573 0 0 0 0
756000000 -0.191435784 -0.756842017 0.001261023 0.000883792 0 0 0 0
764000000 -0.491621017 -0.553909122 0.001341801 0.000530145 0 0 0 0
772000000 -0.660555183 -0.196004778 0.001448236 0.000172262 0 0 0 0
780000000 -0.591187953 0.219306975 0.00118837 -0.000543452 0 0 0 0
788000000 -0.248030439 0.52716273 0.000281656 -0.001330624 0 0 0 0
796000000 0.235177055 0.518252253 -0.001562738 -0.001450992 0 0 0 0
804000000 0.560868263 0.177369207 -0.003211134 0.000644672 0 0 0 0
812000000 0.548163235 -0.273690521 -0.002482546 0.003297429 0 0 0 0
820000000 0.270583957 -0.567660391 0.000236855 0.004510158 0 0 0 0
828000000 -0.104034386 -0.63320738 0.002868357 0.003907215 0 0 0 0
836000000 -0.414667278 -0.507328093 0.004465158 0.002328033 0 0 0 0
844000000 -0.615006327 -0.26838085 0.0056712 0.00011855 0 0 0 0
852000000 -0.694872915 0.002989593 0.006482896 -0.001821453 0 0 0 0
860000000 -0.659661591 0.265262097 0.007348039 -0.004370302 0 0 0 0
868000000 -0.519707322 0.464373886 0.006753632 -0.008771951 0 0 0 0
876000000 -0.310595661 0.56620717 0.004132662 -0.013531518 0 0 0 0
884000000 -0.091637305 0.551557242 -0.003000496 -0.018237628 0 0 0 0
892000000 0.073339968 0.424950629 -0.016287431 -0.017496038 0 0 0 0
900000000 0.294815897 0.220721036 -0.032141763 -0.001006991 0 0 0 0
908000000 0.224601119 0.126257434 -0.028910357 0.025858646 0 0 0 0
916000000 0.150086119 0.10171847 -0.000667422 0.043744139 0 0 0 0
924000000 0.115864157 0.122125104 0.033211503 0.030553789 0 0 0 0
932000000 0.081673599 0.176606073 0.04289655 -0.006293412 0 0 0 0
940000000 0.121008932 0.28121379 0.020285004 -0.030689824 0 0 0 0
948000000 0.320703446 0.322789579 -0.004910143 -0.026490304 0 0 0 0
956000000 0.496254444 0.197469368 -0.013180712 -0.013164259 0 0 0 0
964000000 0.571376085 -0.042686037 -0.012162727 -0.003860208 0 0 0 0
972000000 0.494726806 -0.288294076 -0.009763156 0.001606066 0 0 0 0
980000000 0.298832356 -0.482326567 -0.00564286 0.003483609 0 0 0 0
988000000 0.033850811 -0.56043744 -0.003739419 0.004509632 0 0 0 0
996000000 -0.257108747 -0.514270722 -0.002576919 0.003359611 0 0 0 0
1004000000 -0.487585872 -0.373564332 -0.002348761 0.003581053 0 0 0 0
