# Hz S RI R 50
700000000 0.762185513 0.558205842 -1.0765e-05 0.000813362 0 0 0 0
708000000 0.867476463 0.307242423 -3.6776e-05 0.00094838 0 0 0 0
716000000 0.901116967 0.03516668 8.9322e-05 0.001319487 0 0 0 0
724000000 0.841756105 -0.249609872 0.000378242 0.001349962 0 0 0 0
732000000 0.694044768 -0.504708766 0.000608028 0.001411214 0 0 0 0
740000000 0.458489507 -0.699723958 0.000790005 0.00130366 0 0 0 0
748000000 0.150345936 -0.799220442 0.001190266 0.001103986 0 0 0 0
756000000 -0.19171299 -0.760028839 0.001402598 0.000749319 0 0 0 0
764000000 -0.494277507 -0.55443257 0.001248811 0.000570767 0 0 0 0
772000000 -0.661775231 -0.199274212 0.001297308 -4.099e-06 0 0 0 0
780000000 -0.594577431 0.227130994 0.000996459 -0.000536117 0 0 0 0
788000000 -0.24924153 0.536154866 3.3974e-05 -0.000927069 0 0 0 0
796000000 0.239616572 0.526207864 -0.001347742 -0.000768124 0 0 0 0
804000000 0.573026537 0.177689209 -0.002660644 0.000726499 0 0 0 0
812000000 0.559048771 -0.27897951 -0.001964715 0.002731339 0 0 0 0
820000000 0.271561264 -0.577860713 0.000355481 0.003900923 0 0 0 0
828000000 -0.104196287 -0.64130485 0.002559944 0.003261824 0 0 0 0
836000000 -0.420418471 -0.514363586 0.003853623 0.001692971 0 0 0 0
844000000 -0.627592802 -0.273791015 0.004780319 0.000248344 0 0 0 0
852000000 -0.704704523 0.001925635 0.005898331 -0.001222416 0 0 0 0
860000000 -0.668776512 0.269336849 0.006836486 -0.003709312 0 0 0 0
868000000 -0.52581191 0.47186473 0.006864797 -0.007710069 0 0 0 0
876000000 -0.311089903 0.581353604 0.004971004 -0.012244945 0 0 0 0
884000000 -0.090067438 0.566651046 -0.001059778 -0.017461884 0 0 0 0
892000000 0.09003821 0.435629725 -0.013770254 -0.018373744 0 0 0 0
900000000 0.309539616 0.224872916 -0.029936354 -0.005408465 0 0 0 0
908000000 0.24509868 0.108673483 -0.03083427 0.021787088 0 0 0 0
916000000 0.159181907 0.088155828 -0.005373768 0.04246382 0 0 0 0
924000000 0.110845908 0.088693216 0.030081851 0.033328551 0 0 0 0
932000000 0.056736882 0.151487648 0.042949475 -0.002665797 0 0 0 0
940000000 0.094954013 0.288238167 0.02100721 -0.028431275 0 0 0 0
948000000 0.314334541 0.364015519 -0.00214782 -0.026108892 0 0 0 0
956000000 0.495765388 0.219365179 -0.010617487 -0.013550195 0 0 0 0
964000000 0.579739153 -0.026667153 -0.011028845 -0.004882542 0 0 0 0
972000000 0.502432584 -0.285176694 -0.008956289 0.000533239 0 0 0 0
980000000 0.312237203 -0.484034061 -0.006027188 0.002740769 0 0 0 0
988000000 0.034805707 -0.561191499 -0.003984974 0.003496394 0 0 0 0
996000000 -0.248042583 -0.532185435 -0.003475308 0.002659112 0 0 0 0
1004000000 -0.488927781 -0.385456293 -0.002838282 0.00390085 0 0 0 0
