# Hz S RI R 50
700000000 0.758531332 0.557110905 -8.4811e-05 0.000698349 0 0 0 0
708000000 0.865606248 0.309234559 -6.6906e-05 0.000939282 0 0 0 0
716000000 0.898490667 0.034345895 3.7445e-05 0.001243878 0 0 0 0
724000000 0.848950743 -0.245590358 0.000354661 0.001320492 0 0 0 0
732000000 0.69742763 -0.503446757 0.000477158 0.001441478 0 0 0 0
740000000 0.458498716 -0.702736735 0.000604928 0.00142046 0 0 0 0
748000000 0.153398051 -0.800170361 0.000893557 0.001207869 0 0 0 0
756000000 -0.189343243 -0.75941199 0.001100733 0.000914932 0 0 0 0
764000000 -0.493062734 -0.559380412 0.001098761 0.00078827 0 0 0 0
772000000 -0.66293329 -0.202872157 0.001207331 0.000776791 0 0 0 0
780000000 -0.5979864 0.223178938 0.00152291 0.000157128 0 0 0 0
788000000 -0.252313673 0.533579766 0.001045715 -0.00098177 0 0 0 0
796000000 0.23355402 0.527725338 -0.000669309 -0.001438549 0 0 0 0
804000000 0.5707134 0.181534469 -0.002509923 -0.000250707 0 0 0 0
812000000 0.562368988 -0.275925904 -0.002201052 0.002111313 0 0 0 0
820000000 0.280210345 -0.575100243 -0.000164979 0.003457354 0 0 0 0
828000000 -0.096999891 -0.644383788 0.001705624 0.003080677 0 0 0 0
836000000 -0.415680468 -0.517814397 0.00289334 0.002170191 0 0 0 0
844000000 -0.624069631 -0.281719446 0.004164671 0.000901524 0 0 0 0
852000000 -0.706867873 -0.002905369 0.005267126 -0.00052875 0 0 0 0
860000000 -0.674404561 0.259795606 0.006430654 -0.002465314 0 0 0 0
868000000 -0.538958907 0.462819486 0.007322693 -0.006127679 0 0 0 0
876000000 -0.323990941 0.577367246 0.006458601 -0.01126782 0 0 0 0
884000000 -0.099731117 0.575323164 0.001122666 -0.01704804 0 0 0 0
892000000 0.078303612 0.449742317 -0.010848687 -0.019514806 0 0 0 0
900000000 0.306389093 0.239088907 -0.029429791 -0.009948835 0 0 0 0
908000000 0.259518563 0.124681465 -0.033434871 0.016935769 0 0 0 0
916000000 0.174617797 0.077536173 -0.011720188 0.040930699 0 0 0 0
924000000 0.113727234 0.0815683 0.024007845 0.038204278 0 0 0 0
932000000 0.055574189 0.150528594 0.043936103 0.005924214 0 0 0 0
940000000 0.096413277 0.283329933 0.029199488 -0.024983899 0 0 0 0
948000000 0.302022039 0.348934382 0.00333162 -0.02924416 0 0 0 0
956000000 0.498100578 0.225240781 -0.010374951 -0.01881333 0 0 0 0
964000000 0.582190454 -0.026445558 -0.013443482 -0.007849978 0 0 0 0
972000000 0.508126318 -0.279608517 -0.011648188 -0.000483179 0 0 0 0
980000000 0.313275158 -0.487754374 -0.008292308 0.00299481 0 0 0 0
988000000 0.03522972 -0.567821383 -0.005657388 0.004234875 0 0 0 0
996000000 -0.246748089 -0.537602066 -0.00429566 0.004421801 0 0 0 0
1004000000 -0.491216182 -0.38989818 -0.002822049 0.004464932 0 0 0 0
