# Hz S RI R 50
700000000 0.763005018 0.55258733 6.435e-05 0.000715277 0 0 0 0
708000000 0.868753075 0.306793004 -6.6084e-05 0.001003432 0 0 0 0
716000000 0.897990822 0.030824478 0.000148756 0.001190438 0 0 0 0
724000000 0.8451038 -0.249966293 0.000198079 0.001389816 0 0 0 0
732000000 0.694879412 -0.503501892 0.000626236 0.001482264 0 0 0 0
740000000 0.457155436 -0.70305401 0.000760221 0.001559822 0 0 0 0
748000000 0.146932423 -0.800329923 0.001128012 0.001299206 0 0 0 0
756000000 -0.19297485 -0.757551908 0.0013314 0.000864728 0 0 0 0
764000000 -0.494507879 -0.555493772 0.001233243 0.000388179 0 0 0 0
772000000 -0.662825703 -0.198781862 0.001398456 -0.00010442 0 0 0 0
780000000 -0.594346463 0.224253371 0.00107314 -0.0005031 0 0 0 0
788000000 -0.247168764 0.531230211 -7.5311e-05 -0.000983861 0 0 0 0
796000000 0.239030152 0.521005034 -0.001651369 -0.000772748 0 0 0 0
804000000 0.569085299 0.173868983 -0.00271349 0.001060183 0 0 0 0
812000000 0.551121413 -0.283671617 -0.001853744 0.003221811 0 0 0 0
820000000 0.267421901 -0.574263513 0.000846836 0.004068267 0 0 0 0
828000000 -0.107465535 -0.634266674 0.002695482 0.003232148 0 0 0 0
836000000 -0.42179656 -0.506023526 0.004103915 0.001763704 0 0 0 0
844000000 -0.619482338 -0.263826072 0.005126614 0.000301599 0 0 0 0
852000000 -0.699683547 0.009634515 0.0059408 -0.001597716 0 0 0 0
860000000 -0.655514478 0.273570805 0.006997098 -0.004170715 0 0 0 0
868000000 -0.513362407 0.469360411 0.006744108 -0.008190461 0 0 0 0
876000000 -0.304472178 0.568456053 0.004621707 -0.013235187 0 0 0 0
884000000 -0.085792966 0.550068199 -0.002727452 -0.018094545 0 0 0 0
892000000 0.079078249 0.418902426 -0.016256224 -0.017486404 0 0 0 0
900000000 0.283866852 0.217606738 -0.030951675 -0.001388421 0 0 0 0
908000000 0.216979235 0.126147598 -0.027920922 0.025568434 0 0 0 0
916000000 0.146213307 0.109553337 0.000222916 0.0424508 0 0 0 0
924000000 0.10780625 0.122923314 0.032826993 0.028175231 0 0 0 0
932000000 0.074969775 0.18109101 0.039785984 -0.006756899 0 0 0 0
940000000 0.132555067 0.297693312 0.0182681 -0.027531217 0 0 0 0
948000000 0.342145532 0.331020593 -0.002791525 -0.024306759 0 0 0 0
956000000 0.509444653 0.194020628 -0.010590949 -0.014033381 0 0 0 0
964000000 0.571870326 -0.046424292 -0.011630256 -0.004587504 0 0 0 0
972000000 0.501700043 -0.288604438 -0.01004429 0.000763838 0 0 0 0
980000000 0.29049319 -0.496842026 -0.005782265 0.003279645 0 0 0 0
988000000 0.027038943 -0.560899615 -0.004433986 0.003436366 0 0 0 0
996000000 -0.252346098 -0.518795549 -0.00290326 0.003834925 0 0 0 0
1004000000 -0.492049187 -0.38334161 -0.002360836 0.00432042 0 0 0 0
