# Hz S RI R 50
700000000 0.761960566 0.550590991 -2.5401e-05 0.000692999 0 0 0 0
708000000 0.867460191 0.307563811 -7.188e-05 0.000936003 0 0 0 0
716000000 0.900582075 0.030319582 0.000137378 0.001108433 0 0 0 0
724000000 0.840966284 -0.245710685 9.9736e-05 0.00148048 0 0 0 0
732000000 0.695251226 -0.505302727 0.000281725 0.001602649 0 0 0 0
740000000 0.457999676 -0.702289998 0.000641614 0.001450748 0 0 0 0
748000000 0.145866617 -0.797637879 0.001058507 0.001296096 0 0 0 0
756000000 -0.19530265 -0.757003247 0.00109045 0.001128912 0 0 0 0
764000000 -0.498585194 -0.551903784 0.001386205 0.000869768 0 0 0 0
772000000 -0.661175191 -0.194060757 0.001601691 0.000438977 0 0 0 0
780000000 -0.587066471 0.232895761 0.001641274 -0.000336185 0 0 0 0
788000000 -0.233197018 0.537592887 0.00087654 -0.001276353 0 0 0 0
796000000 0.257626146 0.515030264 -0.001037923 -0.001778685 0 0 0 0
804000000 0.577189743 0.157226398 -0.003072086 -9.645e-05 0 0 0 0
812000000 0.549120783 -0.298746079 -0.002578267 0.002879635 0 0 0 0
820000000 0.256655216 -0.587281882 -0.000120824 0.004203315 0 0 0 0
828000000 -0.119468592 -0.642668247 0.002250957 0.003761649 0 0 0 0
836000000 -0.43171814 -0.506284356 0.003691886 0.002436799 0 0 0 0
844000000 -0.632228553 -0.26205787 0.00505915 0.000775493 0 0 0 0
852000000 -0.711634814 0.014974979 0.006176246 -0.00106127 0 0 0 0
860000000 -0.666425406 0.281193792 0.00729429 -0.003761774 0 0 0 0
868000000 -0.520087182 0.484334588 0.007539111 -0.007641582 0 0 0 0
876000000 -0.298477351 0.595483541 0.005729591 -0.013198508 0 0 0 0
884000000 -0.06581068 0.576082706 -0.001289397 -0.019401434 0 0 0 0
892000000 0.113537795 0.428996354 -0.015943795 -0.019815798 0 0 0 0
900000000 0.332029581 0.187311097 -0.033420499 -0.003900898 0 0 0 0
908000000 0.235928386 0.060313358 -0.032118763 0.02681598 0 0 0 0
916000000 0.119395546 0.040560215 -0.002025407 0.046560019 0 0 0 0
924000000 0.031389437 0.099679261 0.034435681 0.033245086 0 0 0 0
932000000 0.01592341 0.226682052 0.046506404 -0.005247985 0 0 0 0
940000000 0.132133781 0.356930762 0.022442093 -0.033050898 0 0 0 0
948000000 0.357122242 0.355913192 -0.005040511 -0.029021086 0 0 0 0
956000000 0.527766704 0.203003302 -0.014229219 -0.01483032 0 0 0 0
964000000 0.59210807 -0.060862604 -0.013863718 -0.003152987 0 0 0 0
972000000 0.50529927 -0.303772509 -0.010622587 0.001940986 0 0 0 0
980000000 0.308886647 -0.508984804 -0.006162346 0.00414416 0 0 0 0
988000000 0.034377805 -0.579690635 -0.003741852 0.004833743 0 0 0 0
996000000 -0.256018072 -0.521305322 -0.002271112 0.004259773 0 0 0 0
1004000000 -0.48191002 -0.380167305 -0.002068971 0.003532608 0 0 0 0
