# Hz S RI R 50
700000000 0.760672509 0.556444346 -0.000102151 0.000665611 0 0 0 0
708000000 0.865527749 0.306362926 0.000134277 0.001063125 0 0 0 0
716000000 0.897827565 0.033543504 3.9322e-05 0.00138896 0 0 0 0
724000000 0.843027114 -0.252843767 0.00021275 0.001492008 0 0 0 0
732000000 0.694038271 -0.503131687 0.000420724 0.001491826 0 0 0 0
740000000 0.455471456 -0.705024242 0.000899032 0.001355846 0 0 0 0
748000000 0.144718348 -0.798935532 0.00098354 0.001139382 0 0 0 0
756000000 -0.196506828 -0.757503807 0.001347652 0.000747944 0 0 0 0
764000000 -0.499743998 -0.54727143 0.00152453 0.000467407 0 0 0 0
772000000 -0.659622073 -0.187292903 0.001292607 -0.000147976 0 0 0 0
780000000 -0.583813011 0.238642916 0.001001969 -0.000864889 0 0 0 0
788000000 -0.223687201 0.539206862 -0.00052996 -0.001290864 0 0 0 0
796000000 0.264005631 0.505772829 -0.002332462 -0.00030088 0 0 0 0
804000000 0.576190471 0.143065974 -0.00316081 0.001824023 0 0 0 0
812000000 0.535783529 -0.310507178 -0.001202485 0.004345006 0 0 0 0
820000000 0.241579234 -0.586787581 0.002098076 0.004760808 0 0 0 0
828000000 -0.134524583 -0.63331294 0.00435974 0.003246275 0 0 0 0
836000000 -0.440127044 -0.492160081 0.005362002 0.001184919 0 0 0 0
844000000 -0.630886375 -0.242477163 0.006519243 -0.001168064 0 0 0 0
852000000 -0.696017563 0.031148202 0.007122123 -0.003892481 0 0 0 0
860000000 -0.644084811 0.29250434 0.006876014 -0.00746603 0 0 0 0
868000000 -0.495538055 0.478669077 0.004556241 -0.012120278 0 0 0 0
876000000 -0.281621426 0.573618829 -0.000711175 -0.016286732 0 0 0 0
884000000 -0.061145074 0.543788433 -0.011352466 -0.017535557 0 0 0 0
892000000 0.102519817 0.404312074 -0.025283804 -0.00906473 0 0 0 0
900000000 0.304348349 0.186521217 -0.030397076 0.015898561 0 0 0 0
908000000 0.209291994 0.072168171 -0.011286979 0.040068116 0 0 0 0
916000000 0.106735102 0.060828052 0.025774862 0.037978559 0 0 0 0
924000000 0.030397782 0.122342541 0.045536961 0.002368865 0 0 0 0
932000000 0.018826952 0.247003287 0.025852298 -0.031000187 0 0 0 0
940000000 0.151917159 0.376203387 -0.00437472 -0.028984894 0 0 0 0
948000000 0.393173247 0.35618022 -0.01400088 -0.012592418 0 0 0 0
956000000 0.558297812 0.170501872 -0.010592426 -0.003152197 0 0 0 0
964000000 0.586723983 -0.077986925 -0.007970751 0.000714698 0 0 0 0
972000000 0.493828177 -0.321986258 -0.005282322 0.002959793 0 0 0 0
980000000 0.291364848 -0.503026783 -0.002864566 0.003192295 0 0 0 0
988000000 0.024653365 -0.564023792 -0.001511404 0.003599204 0 0 0 0
996000000 -0.261003136 -0.509691655 -0.000894189 0.002454706 0 0 0 0
1004000000 -0.490504741 -0.383228003 -0.001505795 0.002207222 0 0 0 0
