# Hz S RI R 50
700000000 0.756276071 0.555183112 -9.4146e-05 0.000528111 0 0 0 0
708000000 0.865377962 0.307512521 -7.9779e-05 0.000867915 0 0 0 0
716000000 0.897299885 0.032736476 -0.000112663 0.00118592 0 0 0 0
724000000 0.846840798 -0.243153199 0.000217378 0.001464908 0 0 0 0
732000000 0.697003304 -0.50524801 0.000312488 0.001483997 0 0 0 0
740000000 0.458410173 -0.702023983 0.000498678 0.001590607 0 0 0 0
748000000 0.15174213 -0.799871087 0.000900843 0.001379819 0 0 0 0
756000000 -0.189542844 -0.757430374 0.0011064 0.00106025 0 0 0 0
764000000 -0.49402365 -0.554697334 0.001226625 0.000961698 0 0 0 0
772000000 -0.663479924 -0.203123867 0.00144373 0.000325155 0 0 0 0
780000000 -0.597642421 0.224093377 0.001623783 9.046e-06 0 0 0 0
788000000 -0.252317368 0.538038372 0.001038429 -0.0012133 0 0 0 0
796000000 0.236040443 0.528497815 -0.000915126 -0.001821098 0 0 0 0
804000000 0.573272228 0.184974342 -0.002864909 -0.000438722 0 0 0 0
812000000 0.564096391 -0.275301218 -0.002818759 0.00256088 0 0 0 0
820000000 0.279079943 -0.574628055 -0.000311092 0.004328791 0 0 0 0
828000000 -0.098094135 -0.64572817 0.002297948 0.003735251 0 0 0 0
836000000 -0.416376143 -0.517287135 0.003819513 0.002308089 0 0 0 0
844000000 -0.626508116 -0.283118724 0.005102103 0.000544338 0 0 0 0
852000000 -0.706010282 -0.003203419 0.005969548 -0.001341997 0 0 0 0
860000000 -0.671697139 0.264039546 0.006742032 -0.003807063 0 0 0 0
868000000 -0.535514414 0.469915807 0.006443981 -0.007421785 0 0 0 0
876000000 -0.320802003 0.583309292 0.004811157 -0.011572395 0 0 0 0
884000000 -0.091402024 0.574503123 -0.000561768 -0.016559787 0 0 0 0
892000000 0.088192924 0.443704336 -0.012246472 -0.017664706 0 0 0 0
900000000 0.313641667 0.231809496 -0.02711375 -0.005962804 0 0 0 0
908000000 0.247825428 0.114429578 -0.029826268 0.018180502 0 0 0 0
916000000 0.173707991 0.075580254 -0.009324868 0.038409892 0 0 0 0
924000000 0.111743859 0.082853645 0.022821011 0.035706732 0 0 0 0
932000000 0.053989421 0.140945017 0.043824169 0.007156059 0 0 0 0
940000000 0.089750602 0.281786173 0.031085625 -0.026270058 0 0 0 0
948000000 0.298752248 0.355442196 0.003098508 -0.032451786 0 0 0 0
956000000 0.497130274 0.216157376 -0.012238199 -0.020407233 0 0 0 0
964000000 0.575921058 -0.028383187 -0.015278141 -0.007339018 0 0 0 0
972000000 0.504294455 -0.274324923 -0.013416524 0.000733994 0 0 0 0
980000000 0.310762971 -0.481723487 -0.008370985 0.004769497 0 0 0 0
988000000 0.03827374 -0.563287019 -0.00486723 0.005704839 0 0 0 0
996000000 -0.242601171 -0.518342316 -0.002983226 0.005266873 0 0 0 0
1004000000 -0.48562324 -0.377338945 -0.001932617 0.005176749 0 0 0 0
