# Hz S RI R 50
700000000 0.7585572 0.5506379 -9.9101e-05 0.000679321 0 0 0 0
708000000 0.867432177 0.308779001 0.00012834 0.000965392 0 0 0 0
716000000 0.900314867 0.033615961 3.8089e-05 0.001372261 0 0 0 0
724000000 0.84348303 -0.248381018 0.000421207 0.001164632 0 0 0 0
732000000 0.699419438 -0.50440979 0.000553812 0.001230104 0 0 0 0
740000000 0.459145933 -0.702294707 0.000748509 0.001460194 0 0 0 0
748000000 0.150034815 -0.800598919 0.00096666 0.00100964 0 0 0 0
756000000 -0.191059947 -0.762263596 0.001020325 0.000874442 0 0 0 0
764000000 -0.496949702 -0.557296454 0.001012046 0.000677828 0 0 0 0
772000000 -0.667914927 -0.199601531 0.001238913 0.000650173 0 0 0 0
780000000 -0.60275191 0.227676242 0.001157685 0.000289338 0 0 0 0
788000000 -0.250973641 0.544499397 0.001066984 -0.000376998 0 0 0 0
796000000 0.249037876 0.536281585 1.9693e-05 -0.001432192 0 0 0 0
804000000 0.585386931 0.17763473 -0.001677601 -0.001001872 0 0 0 0
812000000 0.572681009 -0.285198032 -0.002608938 0.001077001 0 0 0 0
820000000 0.278605312 -0.58777666 -0.000924474 0.003056289 0 0 0 0
828000000 -0.107581332 -0.655282616 0.001057386 0.003169437 0 0 0 0
836000000 -0.425055056 -0.523710906 0.002761572 0.00215167 0 0 0 0
844000000 -0.635646283 -0.281033813 0.004183455 0.000712503 0 0 0 0
852000000 -0.719035744 -0.000513428 0.004901809 -0.000732947 0 0 0 0
860000000 -0.681615889 0.271320849 0.005516913 -0.002521235 0 0 0 0
868000000 -0.539766192 0.477877587 0.005928719 -0.005418825 0 0 0 0
876000000 -0.320554643 0.593858242 0.005281099 -0.00872376 0 0 0 0
884000000 -0.086643189 0.584747076 0.001820086 -0.013069215 0 0 0 0
892000000 0.094296671 0.454805642 -0.006151093 -0.015570564 0 0 0 0
900000000 0.32407689 0.226615563 -0.020622266 -0.01125189 0 0 0 0
908000000 0.269783675 0.106491863 -0.027053007 0.00623684 0 0 0 0
916000000 0.193038597 0.064744286 -0.017347462 0.026850154 0 0 0 0
924000000 0.10036391 0.057730138 0.007440249 0.032754998 0 0 0 0
932000000 0.026006482 0.148404255 0.029348382 0.016334965 0 0 0 0
940000000 0.081591047 0.305360049 0.028980817 -0.008852033 0 0 0 0
948000000 0.301870435 0.365224689 0.012841118 -0.020650438 0 0 0 0
956000000 0.484995663 0.217946812 -0.000363466 -0.019029101 0 0 0 0
964000000 0.575764834 -0.018462499 -0.007759051 -0.012254802 0 0 0 0
972000000 0.512947499 -0.281379252 -0.009993731 -0.005585443 0 0 0 0
980000000 0.324935555 -0.474406599 -0.009121163 -0.000790303 0 0 0 0
988000000 0.045181997 -0.559937775 -0.007803942 0.00215689 0 0 0 0
996000000 -0.249605864 -0.520563662 -0.006573667 0.003784348 0 0 0 0
1004000000 -0.481485664 -0.392657727 -0.00501821 0.005367827 0 0 0 0
