# Hz S RI R 50
700000000 0.758694112 0.550935447 4.1229e-05 0.000666774 0 0 0 0
708000000 0.867961287 0.303944349 0.000105236 0.000898984 0 0 0 0
716000000 0.901603579 0.028059819 0.000161315 0.00117155 0 0 0 0
724000000 0.847691416 -0.251558601 0.000371741 0.001387946 0 0 0 0
732000000 0.694216787 -0.505529046 0.000594425 0.001431195 0 0 0 0
740000000 0.45427981 -0.703863143 0.000761733 0.001485635 0 0 0 0
748000000 0.142999723 -0.800384223 0.001043429 0.001129224 0 0 0 0
756000000 -0.198761254 -0.755768656 0.001037483 0.000931863 0 0 0 0
764000000 -0.499699234 -0.542360901 0.001271953 0.000684635 0 0 0 0
772000000 -0.663932204 -0.18281956 0.001273737 0.000419276 0 0 0 0
780000000 -0.579366803 0.242644742 0.00107195 -0.000109357 0 0 0 0
788000000 -0.214097082 0.540598571 0.000576863 -0.000816006 0 0 0 0
796000000 0.273650944 0.498320132 -0.001162113 -0.000863948 0 0 0 0
804000000 0.58215636 0.126954048 -0.00253347 0.000375663 0 0 0 0
812000000 0.530184149 -0.321519345 -0.001753419 0.002796176 0 0 0 0
820000000 0.227738946 -0.59195584 0.000640661 0.003407763 0 0 0 0
828000000 -0.14846763 -0.630457401 0.00244091 0.00287529 0 0 0 0
836000000 -0.451901078 -0.486961036 0.003557161 0.001714787 0 0 0 0
844000000 -0.636085093 -0.233864054 0.004868214 4.5498e-05 0 0 0 0
852000000 -0.699445486 0.040785513 0.005431029 -0.00145172 0 0 0 0
860000000 -0.641750574 0.300281494 0.006256383 -0.003741623 0 0 0 0
868000000 -0.487837731 0.495156198 0.006286434 -0.007388773 0 0 0 0
876000000 -0.262838959 0.580382347 0.004502615 -0.01220808 0 0 0 0
884000000 -0.036583084 0.537029922 -0.002065039 -0.016942126 0 0 0 0
892000000 0.117187708 0.377319276 -0.014875314 -0.01646026 0 0 0 0
900000000 0.296522915 0.150838181 -0.029896389 -0.001762266 0 0 0 0
908000000 0.188820555 0.057425457 -0.026104776 0.023581128 0 0 0 0
916000000 0.067480921 0.068485565 0.000298082 0.039424549 0 0 0 0
924000000 0.006017774 0.143311306 0.030207788 0.025603469 0 0 0 0
932000000 0.024628082 0.285293996 0.035316567 -0.006146958 0 0 0 0
940000000 0.181275203 0.38848105 0.016842531 -0.024137919 0 0 0 0
948000000 0.40186423 0.364440441 -0.001435419 -0.022083323 0 0 0 0
956000000 0.549067258 0.180547907 -0.008766255 -0.013212952 0 0 0 0
964000000 0.60063678 -0.085420034 -0.009810315 -0.004982105 0 0 0 0
972000000 0.488945752 -0.324444144 -0.00850862 -9.3232e-05 0 0 0 0
980000000 0.292037993 -0.512910246 -0.006005965 0.002447369 0 0 0 0
988000000 0.009086203 -0.577335715 -0.004760462 0.002855856 0 0 0 0
996000000 -0.271475404 -0.517259418 -0.003698954 0.003195364 0 0 0 0
1004000000 -0.490813106 -0.380913138 -0.002957109 0.003208704 0 0 0 0
