# Hz S RI R 50
700000000 0.756397366 0.555352509 -5.1305e-05 0.000769909 0 0 0 0
708000000 0.869697093 0.308142423 -5.9945e-05 0.000924736 0 0 0 0
716000000 0.900023341 0.034831847 6.7776e-05 0.001192908 0 0 0 0
724000000 0.842778146 -0.247951716 0.000315701 0.001463945 0 0 0 0
732000000 0.697695314 -0.502924561 0.000452321 0.001512054 0 0 0 0
740000000 0.458671689 -0.70250082 0.000738433 0.001401646 0 0 0 0
748000000 0.150382339 -0.800612449 0.001061368 0.001195069 0 0 0 0
756000000 -0.192992568 -0.760325729 0.0010898 0.000927129 0 0 0 0
764000000 -0.498188883 -0.556853294 0.001331646 0.000667777 0 0 0 0
772000000 -0.668931722 -0.199473679 0.001150602 0.000311744 0 0 0 0
780000000 -0.599322974 0.228014558 0.001113589 -0.00034378 0 0 0 0
788000000 -0.253136873 0.539834856 0.000322621 -0.000999768 0 0 0 0
796000000 0.242412179 0.533440113 -0.001227926 -0.001159046 0 0 0 0
804000000 0.57912147 0.183905124 -0.002569211 0.000217176 0 0 0 0
812000000 0.56874305 -0.278045088 -0.002035467 0.002387751 0 0 0 0
820000000 0.284434735 -0.578547775 -4.851e-05 0.003819554 0 0 0 0
828000000 -0.09323626 -0.651506185 0.002054736 0.003504131 0 0 0 0
836000000 -0.418005168 -0.525934696 0.003705492 0.002267366 0 0 0 0
844000000 -0.627647459 -0.289508134 0.004968849 0.000697702 0 0 0 0
852000000 -0.715776681 -0.013571162 0.006282908 -0.001012439 0 0 0 0
860000000 -0.690553963 0.256034493 0.007228842 -0.003509108 0 0 0 0
868000000 -0.55438131 0.466627627 0.007374692 -0.007723596 0 0 0 0
876000000 -0.343836128 0.593491852 0.005424485 -0.01277929 0 0 0 0
884000000 -0.112186692 0.603491306 -0.001092713 -0.018238319 0 0 0 0
892000000 0.090726651 0.491833209 -0.014453321 -0.019314387 0 0 0 0
900000000 0.356739491 0.264990508 -0.031099321 -0.004822991 0 0 0 0
908000000 0.318992584 0.10935048 -0.031631261 0.022264383 0 0 0 0
916000000 0.219688281 0.026399798 -0.005452337 0.043967068 0 0 0 0
924000000 0.110062763 0.023433135 0.030113672 0.034770768 0 0 0 0
932000000 0.024721646 0.106151513 0.043944761 -0.001903103 0 0 0 0
940000000 0.047769118 0.270999431 0.023907762 -0.028326349 0 0 0 0
948000000 0.263481289 0.364507079 -0.000705002 -0.028318399 0 0 0 0
956000000 0.473519891 0.231184467 -0.011213183 -0.016170501 0 0 0 0
964000000 0.570155203 0.00781787 -0.013582495 -0.006001467 0 0 0 0
972000000 0.510839998 -0.264419823 -0.011426839 0.001373353 0 0 0 0
980000000 0.321829527 -0.465484648 -0.006830817 0.004393433 0 0 0 0
988000000 0.056724186 -0.554302811 -0.004057403 0.005005426 0 0 0 0
996000000 -0.230562642 -0.522039771 -0.002696265 0.004291461 0 0 0 0
1004000000 -0.470426738 -0.389176547 -0.002652571 0.003989379 0 0 0 0
