# Hz S RI R 50
700000000 0.763939797 0.552664339 -6.041e-06 0.000721333 0 0 0 0
708000000 0.866889894 0.306407362 -0.000144366 0.000921796 0 0 0 0
716000000 0.902295231 0.033613715 5.884e-06 0.001088208 0 0 0 0
724000000 0.843865811 -0.25222665 0.000296266 0.001256344 0 0 0 0
732000000 0.696814537 -0.504952907 0.00044444 0.001406134 0 0 0 0
740000000 0.459933221 -0.705537796 0.000777406 0.001435258 0 0 0 0
748000000 0.15046662 -0.802073359 0.000954126 0.001265458 0 0 0 0
756000000 -0.190263658 -0.761270642 0.001306197 0.001001972 0 0 0 0
764000000 -0.493960291 -0.558186709 0.00115684 0.00052663 0 0 0 0
772000000 -0.668782532 -0.206006139 0.00117369 0.000371815 0 0 0 0
780000000 -0.600606977 0.224169045 0.001290441 0.000133225 0 0 0 0
788000000 -0.250421524 0.539192736 0.000721269 -0.000896735 0 0 0 0
796000000 0.237232968 0.53077495 -0.000826816 -0.001124474 0 0 0 0
804000000 0.577198922 0.182799533 -0.00239948 -0.000144575 0 0 0 0
812000000 0.565690159 -0.27752611 -0.002055529 0.002358961 0 0 0 0
820000000 0.279999345 -0.579632043 0.00025423 0.003538184 0 0 0 0
828000000 -0.099179863 -0.646554589 0.001973518 0.003146092 0 0 0 0
836000000 -0.418455749 -0.521817743 0.003401089 0.001985225 0 0 0 0
844000000 -0.626229882 -0.281773239 0.004771525 0.000576177 0 0 0 0
852000000 -0.712129294 -0.00586696 0.005602014 -0.001154097 0 0 0 0
860000000 -0.680439472 0.258920192 0.006450982 -0.003599232 0 0 0 0
868000000 -0.542813897 0.47078979 0.0067057 -0.007179104 0 0 0 0
876000000 -0.324676692 0.593101859 0.004951752 -0.011976511 0 0 0 0
884000000 -0.091331809 0.592172563 -0.001100542 -0.017068058 0 0 0 0
892000000 0.098252676 0.462352037 -0.013527219 -0.018085826 0 0 0 0
900000000 0.337505578 0.235414266 -0.029585568 -0.005902327 0 0 0 0
908000000 0.268154114 0.095300175 -0.030787132 0.021860597 0 0 0 0
916000000 0.174651354 0.057086329 -0.006322353 0.042703174 0 0 0 0
924000000 0.113738872 0.076111085 0.029716175 0.035088378 0 0 0 0
932000000 0.044274259 0.136006399 0.045604679 -0.000472174 0 0 0 0
940000000 0.071341693 0.279997676 0.025760501 -0.03071 0 0 0 0
948000000 0.288092434 0.350741535 -0.002511323 -0.030536029 0 0 0 0
956000000 0.482863306 0.235434785 -0.013841588 -0.016747497 0 0 0 0
964000000 0.580549359 -0.007471047 -0.014845909 -0.00446609 0 0 0 0
972000000 0.525249123 -0.266367346 -0.011218013 0.002453546 0 0 0 0
980000000 0.31693235 -0.483482688 -0.006985231 0.004664406 0 0 0 0
988000000 0.052333995 -0.564045011 -0.004005205 0.005031834 0 0 0 0
996000000 -0.244395956 -0.535293459 -0.002658089 0.004611552 0 0 0 0
1004000000 -0.487006872 -0.403294354 -0.002091247 0.003714758 0 0 0 0
