# Hz S RI R 50
700000000 0.766059041 0.552956759 -0.000154566 0.000551721 0 0 0 0
708000000 0.868028938 0.306494563 -0.000208792 0.000919729 0 0 0 0
716000000 0.901596546 0.032516628 2.6633e-05 0.001295659 0 0 0 0
724000000 0.844173789 -0.24464263 0.000180301 0.001572002 0 0 0 0
732000000 0.696420431 -0.504000008 0.000422375 0.001694654 0 0 0 0
740000000 0.458203345 -0.704924583 0.000723392 0.001547666 0 0 0 0
748000000 0.150072455 -0.801844418 0.001055061 0.001280649 0 0 0 0
756000000 -0.192365869 -0.760454177 0.001157013 0.001007388 0 0 0 0
764000000 -0.495924711 -0.556883633 0.001527879 0.000702082 0 0 0 0
772000000 -0.667244434 -0.20099096 0.001433752 0.000369648 0 0 0 0
780000000 -0.597017765 0.226147606 0.001615819 -0.000407015 0 0 0 0
788000000 -0.248161107 0.537448525 0.00065178 -0.001621636 0 0 0 0
796000000 0.244610637 0.526622295 -0.001519784 -0.001876223 0 0 0 0
804000000 0.578195691 0.172181442 -0.003722326 6.2729e-05 0 0 0 0
812000000 0.560631692 -0.286533504 -0.002918053 0.003391534 0 0 0 0
820000000 0.269884556 -0.583842396 -0.000221834 0.004951576 0 0 0 0
828000000 -0.111117094 -0.648077428 0.002490699 0.004206185 0 0 0 0
836000000 -0.428135037 -0.514661252 0.004744947 0.002691903 0 0 0 0
844000000 -0.63017863 -0.27353847 0.006321035 0.00079874 0 0 0 0
852000000 -0.711516439 0.007965044 0.007606215 -0.001686297 0 0 0 0
860000000 -0.671339511 0.277356982 0.008392945 -0.005077564 0 0 0 0
868000000 -0.52486968 0.479678928 0.007976617 -0.010054838 0 0 0 0
876000000 -0.306197971 0.594287335 0.004458556 -0.016497824 0 0 0 0
884000000 -0.071992322 0.575826585 -0.005386373 -0.021453753 0 0 0 0
892000000 0.104113116 0.434004932 -0.021927149 -0.018316952 0 0 0 0
900000000 0.31552273 0.198565706 -0.037247613 0.002760334 0 0 0 0
908000000 0.231131851 0.077197961 -0.028518196 0.035062871 0 0 0 0
916000000 0.141726344 0.075739428 0.007298436 0.048761382 0 0 0 0
924000000 0.07735186 0.110929846 0.042217761 0.02804338 0 0 0 0
932000000 0.045509453 0.181538179 0.046825099 -0.014319198 0 0 0 0
940000000 0.116352744 0.305766642 0.017334101 -0.037141293 0 0 0 0
948000000 0.334454864 0.341626077 -0.009244043 -0.028186289 0 0 0 0
956000000 0.512677907 0.198785707 -0.016023198 -0.013054882 0 0 0 0
964000000 0.57230705 -0.04453035 -0.014143383 -0.002245829 0 0 0 0
972000000 0.498327195 -0.296656996 -0.010792733 0.003168383 0 0 0 0
980000000 0.29738149 -0.494604349 -0.006398463 0.005490939 0 0 0 0
988000000 0.02586865 -0.562708437 -0.003727182 0.006064846 0 0 0 0
996000000 -0.255383819 -0.514059007 -0.001605963 0.004630048 0 0 0 0
1004000000 -0.488603472 -0.384324878 -0.001194444 0.004705168 0 0 0 0
