# Hz S RI R 50
700000000 0.761412799 0.552838027 5.4165e-05 0.000604148 0 0 0 0
708000000 0.870601177 0.305382966 -3.1497e-05 0.000941854 0 0 0 0
716000000 0.901238501 0.031026903 0.000122907 0.001217475 0 0 0 0
724000000 0.84883666 -0.247114658 0.000287256 0.001490761 0 0 0 0
732000000 0.695453226 -0.506580948 0.000530536 0.001326402 0 0 0 0
740000000 0.456681311 -0.705441892 0.000636705 0.001461907 0 0 0 0
748000000 0.14584434 -0.802427828 0.00106734 0.001280192 0 0 0 0
756000000 -0.195758834 -0.759356796 0.00110615 0.000930725 0 0 0 0
764000000 -0.498729735 -0.554454743 0.001304594 0.000917684 0 0 0 0
772000000 -0.66636306 -0.190384507 0.001351959 0.00053839 0 0 0 0
780000000 -0.595017135 0.234277755 0.001444159 7.3183e-05 0 0 0 0
788000000 -0.238856941 0.546565353 0.001007818 -0.000874364 0 0 0 0
796000000 0.256522923 0.523862302 -0.00087141 -0.00149305 0 0 0 0
804000000 0.583589792 0.160457283 -0.002758173 -8.7643e-05 0 0 0 0
812000000 0.561522662 -0.300476253 -0.002215648 0.002646954 0 0 0 0
820000000 0.261470347 -0.592712998 0.000510842 0.003696504 0 0 0 0
828000000 -0.119435898 -0.648265123 0.002580059 0.002901587 0 0 0 0
836000000 -0.435731142 -0.515148758 0.003444623 0.00121124 0 0 0 0
844000000 -0.641884446 -0.26783207 0.004108591 -0.00027812 0 0 0 0
852000000 -0.714694082 0.011483854 0.004450347 -0.001907305 0 0 0 0
860000000 -0.674330055 0.284128129 0.004747664 -0.003182584 0 0 0 0
868000000 -0.532996952 0.490093618 0.004961729 -0.00551512 0 0 0 0
876000000 -0.30339545 0.599431455 0.004417455 -0.00858936 0 0 0 0
884000000 -0.066142782 0.585095524 0.001147165 -0.012967116 0 0 0 0
892000000 0.11676158 0.442541688 -0.007207373 -0.015684837 0 0 0 0
900000000 0.350033581 0.202738493 -0.022465605 -0.009633688 0 0 0 0
908000000 0.2542544 0.057810213 -0.029060186 0.010012104 0 0 0 0
916000000 0.133245363 0.031697228 -0.014037906 0.033380594 0 0 0 0
924000000 0.038005258 0.084779344 0.017500683 0.034629743 0 0 0 0
932000000 0.014034029 0.204612642 0.037357196 0.007605467 0 0 0 0
940000000 0.109513632 0.336792111 0.026299539 -0.019081983 0 0 0 0
948000000 0.343111038 0.364073157 0.005858081 -0.024980254 0 0 0 0
956000000 0.515879631 0.210136458 -0.006618143 -0.017319867 0 0 0 0
964000000 0.585141181 -0.028946641 -0.010954728 -0.008029746 0 0 0 0
972000000 0.512660443 -0.289416223 -0.010400539 -0.001406517 0 0 0 0
980000000 0.312120348 -0.499573528 -0.00706836 0.001756902 0 0 0 0
988000000 0.036902721 -0.577562212 -0.005423993 0.003164925 0 0 0 0
996000000 -0.248629763 -0.536112964 -0.003607887 0.003488633 0 0 0 0
1004000000 -0.491933315 -0.390485703 -0.003122602 0.003864495 0 0 0 0
