# Hz S RI R 50
700000000 0.757849037 0.555937767 1.6959e-05 0.000619211 0 0 0 0
708000000 0.867213368 0.305481642 -5.0245e-05 0.00096633 0 0 0 0
716000000 0.900846242 0.033353369 9.2408e-05 0.001189103 0 0 0 0
724000000 0.846045136 -0.245866447 0.000186405 0.001541775 0 0 0 0
732000000 0.698184311 -0.502508342 0.000381723 0.001580511 0 0 0 0
740000000 0.458407431 -0.703036248 0.000680028 0.001407398 0 0 0 0
748000000 0.15105538 -0.798775434 0.001168706 0.001407222 0 0 0 0
756000000 -0.190199658 -0.763912796 0.001088292 0.001084611 0 0 0 0
764000000 -0.494927525 -0.557411789 0.001389203 0.000707269 0 0 0 0
772000000 -0.669814169 -0.201638981 0.001381852 0.000411903 0 0 0 0
780000000 -0.601345837 0.223627761 0.001348101 -0.000414041 0 0 0 0
788000000 -0.252647966 0.538990139 0.000595144 -0.001386054 0 0 0 0
796000000 0.238964274 0.532260715 -0.001279094 -0.001594771 0 0 0 0
804000000 0.579199373 0.18415071 -0.002957938 8.5051e-05 0 0 0 0
812000000 0.568105638 -0.282934635 -0.002646809 0.003014339 0 0 0 0
820000000 0.279551416 -0.584952533 -0.000121191 0.004431332 0 0 0 0
828000000 -0.101895555 -0.651708126 0.002524781 0.003718865 0 0 0 0
836000000 -0.422976762 -0.524044811 0.004098033 0.00233418 0 0 0 0
844000000 -0.636298954 -0.280530124 0.005735051 0.000452448 0 0 0 0
852000000 -0.717533588 -0.003962367 0.006605328 -0.001675118 0 0 0 0
860000000 -0.683534741 0.269695907 0.007397113 -0.004502988 0 0 0 0
868000000 -0.542186439 0.479308784 0.007150034 -0.008699884 0 0 0 0
876000000 -0.326463162 0.599821507 0.004508183 -0.014087454 0 0 0 0
884000000 -0.086132921 0.598311364 -0.003091892 -0.019002903 0 0 0 0
892000000 0.106125794 0.466968178 -0.017468044 -0.018185243 0 0 0 0
900000000 0.356277883 0.227659434 -0.033478312 -0.001860675 0 0 0 0
908000000 0.281167358 0.07601834 -0.030444214 0.028398625 0 0 0 0
916000000 0.162055507 0.033437103 0.000434525 0.046536516 0 0 0 0
924000000 0.072005592 0.06124667 0.036808017 0.032530099 0 0 0 0
932000000 0.023701015 0.162835806 0.04815036 -0.007995489 0 0 0 0
940000000 0.089579999 0.308310836 0.021804064 -0.036451481 0 0 0 0
948000000 0.301072716 0.359103679 -0.007024108 -0.030623788 0 0 0 0
956000000 0.497014909 0.237876132 -0.016949575 -0.014481127 0 0 0 0
964000000 0.584547936 -0.019615706 -0.014988287 -0.001791551 0 0 0 0
972000000 0.511505961 -0.273860961 -0.010896135 0.003639302 0 0 0 0
980000000 0.313671022 -0.482436537 -0.005690087 0.005779844 0 0 0 0
988000000 0.051245078 -0.564594924 -0.003184662 0.005620311 0 0 0 0
996000000 -0.244327113 -0.521422028 -0.001260685 0.00463996 0 0 0 0
1004000000 -0.486265718 -0.386103183 -0.001375566 0.003803795 0 0 0 0
