# Hz S RI R 50
700000000 0.756747603 0.555178344 -9.7711e-05 0.000628879 0 0 0 0
708000000 0.866575717 0.309147447 -0.000121513 0.00103968 0 0 0 0
716000000 0.898945927 0.034406527 -6.4701e-05 0.001220549 0 0 0 0
724000000 0.842703223 -0.244361877 0.00015699 0.001362627 0 0 0 0
732000000 0.695708513 -0.504503905 0.000424599 0.001390497 0 0 0 0
740000000 0.456434428 -0.702186644 0.000730638 0.001377939 0 0 0 0
748000000 0.146020114 -0.799790143 0.001190499 0.001386124 0 0 0 0
756000000 -0.192988261 -0.758719205 0.001145019 0.000922186 0 0 0 0
764000000 -0.49409461 -0.552213132 0.001156224 0.00075867 0 0 0 0
772000000 -0.663115084 -0.196957156 0.001488549 0.000492365 0 0 0 0
780000000 -0.593188285 0.227976039 0.001150117 -0.000316047 0 0 0 0
788000000 -0.243847176 0.538517057 0.000544038 -0.001125161 0 0 0 0
796000000 0.246368825 0.523290455 -0.001236355 -0.001265166 0 0 0 0
804000000 0.574060082 0.170916542 -0.002681287 0.000612064 0 0 0 0
812000000 0.554862916 -0.287292301 -0.001988638 0.002704337 0 0 0 0
820000000 0.267342627 -0.580556452 0.000204074 0.004004932 0 0 0 0
828000000 -0.105751946 -0.64325869 0.002259287 0.003410157 0 0 0 0
836000000 -0.420797884 -0.515940845 0.003917962 0.002098341 0 0 0 0
844000000 -0.627369821 -0.272653222 0.00506253 0.000597394 0 0 0 0
852000000 -0.704263091 0.002146874 0.006351708 -0.001164133 0 0 0 0
860000000 -0.672269403 0.266501188 0.007337517 -0.003933909 0 0 0 0
868000000 -0.535625994 0.470845401 0.007254728 -0.008277496 0 0 0 0
876000000 -0.318484425 0.584320604 0.00493674 -0.013603445 0 0 0 0
884000000 -0.090045072 0.579343259 -0.002243366 -0.018691504 0 0 0 0
892000000 0.098221972 0.450378656 -0.016497367 -0.018696827 0 0 0 0
900000000 0.336366146 0.222964391 -0.03268468 -0.002001231 0 0 0 0
908000000 0.261369913 0.081308171 -0.030014416 0.027103329 0 0 0 0
916000000 0.1455134 0.056649327 -0.000160717 0.04624366 0 0 0 0
924000000 0.079395711 0.094827085 0.036169961 0.03097607 0 0 0 0
932000000 0.053947135 0.177604064 0.044267676 -0.008252608 0 0 0 0
940000000 0.108615979 0.305025041 0.01988315 -0.032422438 0 0 0 0
948000000 0.316110074 0.353166401 -0.005301199 -0.027330519 0 0 0 0
956000000 0.503993928 0.202738389 -0.013950831 -0.013499253 0 0 0 0
964000000 0.579067349 -0.030785746 -0.013505229 -0.003437395 0 0 0 0
972000000 0.504049897 -0.279375404 -0.010222802 0.002457336 0 0 0 0
980000000 0.307561367 -0.4800722 -0.005699007 0.004962175 0 0 0 0
988000000 0.039693411 -0.570248365 -0.003196844 0.004767791 0 0 0 0
996000000 -0.252654135 -0.524893403 -0.002200724 0.004299694 0 0 0 0
1004000000 -0.479096233 -0.383898466 -0.001667808 0.004038995 0 0 0 0
