# Hz S RI R 50
700000000 0.763815164 0.553753435 1.9584e-05 0.000658243 0 0 0 0
708000000 0.868571996 0.308088898 -2.5853e-05 0.000917949 0 0 0 0
716000000 0.898734748 0.03357464 4.4957e-05 0.00123814 0 0 0 0
724000000 0.849969148 -0.250057667 0.00029614 0.001380643 0 0 0 0
732000000 0.69682908 -0.505151808 0.000557424 0.001538914 0 0 0 0
740000000 0.457529842 -0.703812539 0.000768646 0.001420107 0 0 0 0
748000000 0.147970378 -0.803864598 0.001113803 0.001268033 0 0 0 0
756000000 -0.194347813 -0.761233448 0.001349009 0.001094307 0 0 0 0
764000000 -0.498008668 -0.555510938 0.001458006 0.000887756 0 0 0 0
772000000 -0.664625942 -0.194607719 0.001703459 0.000426789 0 0 0 0
780000000 -0.597071707 0.230535015 0.001550359 -0.000276534 0 0 0 0
788000000 -0.24485515 0.541321337 0.000814692 -0.001625709 0 0 0 0
796000000 0.2488119 0.527106344 -0.001277888 -0.00196366 0 0 0 0
804000000 0.579593062 0.173197224 -0.003247335 0.000248897 0 0 0 0
812000000 0.559590339 -0.288952201 -0.002547755 0.00311235 0 0 0 0
820000000 0.26920256 -0.584315419 0.000545836 0.00406391 0 0 0 0
828000000 -0.107071585 -0.647276341 0.002577026 0.00298593 0 0 0 0
836000000 -0.421729385 -0.51732552 0.003442369 0.001704281 0 0 0 0
844000000 -0.62920016 -0.277056932 0.00438137 0.000157384 0 0 0 0
852000000 -0.711020588 -0.001339307 0.005283662 -0.00121133 0 0 0 0
860000000 -0.677472651 0.264143675 0.005933299 -0.003077631 0 0 0 0
868000000 -0.541455864 0.473639309 0.006497374 -0.006385348 0 0 0 0
876000000 -0.327820628 0.591831505 0.005620815 -0.010892091 0 0 0 0
884000000 -0.095487765 0.591133773 0.000465675 -0.01643918 0 0 0 0
892000000 0.096394978 0.469969868 -0.011009605 -0.018477417 0 0 0 0
900000000 0.33992964 0.241638883 -0.027932463 -0.00738375 0 0 0 0
908000000 0.286023586 0.093605369 -0.031716559 0.017365459 0 0 0 0
916000000 0.183260738 0.033469088 -0.010024277 0.040569979 0 0 0 0
924000000 0.090786404 0.048045702 0.025035511 0.03667631 0 0 0 0
932000000 0.023324366 0.150019541 0.04349479 0.003347545 0 0 0 0
940000000 0.08602789 0.297161787 0.027062639 -0.026334462 0 0 0 0
948000000 0.301872044 0.351908564 0.001112519 -0.029212383 0 0 0 0
956000000 0.482877403 0.226550668 -0.011418481 -0.017404727 0 0 0 0
964000000 0.578015923 -0.015008936 -0.013062321 -0.005442499 0 0 0 0
972000000 0.515640914 -0.274377554 -0.010576364 0.00089858 0 0 0 0
980000000 0.319769769 -0.474880576 -0.006632406 0.003274904 0 0 0 0
988000000 0.042177315 -0.573625802 -0.003936369 0.004125689 0 0 0 0
996000000 -0.240782499 -0.531206905 -0.003011412 0.003645457 0 0 0 0
1004000000 -0.476681113 -0.389795243 -0.001825817 0.00362211 0 0 0 0
