# Hz S RI R 50
700000000 0.760879158 0.553500533 -9.8488e-05 0.000639285 0 0 0 0
708000000 0.865690648 0.307596474 -6.0505e-05 0.001044081 0 0 0 0
716000000 0.89631617 0.034652266 1.5336e-05 0.001330587 0 0 0 0
724000000 0.847717344 -0.244319722 0.000171488 0.001320965 0 0 0 0
732000000 0.697699964 -0.504990279 0.000518528 0.001613765 0 0 0 0
740000000 0.456972122 -0.703171372 0.00081359 0.001467941 0 0 0 0
748000000 0.145712763 -0.801226437 0.001178292 0.001435111 0 0 0 0
756000000 -0.192827701 -0.759884059 0.001333318 0.001141374 0 0 0 0
764000000 -0.499068081 -0.554100513 0.001434575 0.000684165 0 0 0 0
772000000 -0.664131283 -0.194598659 0.001735181 0.000311898 0 0 0 0
780000000 -0.597855269 0.231757774 0.001611799 -0.000301832 0 0 0 0
788000000 -0.242390781 0.544683992 0.000615376 -0.001426302 0 0 0 0
796000000 0.250002175 0.52739799 -0.00153292 -0.001950445 0 0 0 0
804000000 0.58192557 0.171301156 -0.003610902 -0.000162349 0 0 0 0
812000000 0.563339889 -0.290173768 -0.002998847 0.003093143 0 0 0 0
820000000 0.273123115 -0.58488065 -0.000123601 0.004840698 0 0 0 0
828000000 -0.106807701 -0.647954642 0.00258313 0.004482286 0 0 0 0
836000000 -0.427265763 -0.516449868 0.004698371 0.002827419 0 0 0 0
844000000 -0.634531557 -0.277032792 0.00619494 0.00057375 0 0 0 0
852000000 -0.713335454 0.000840953 0.007120827 -0.001762042 0 0 0 0
860000000 -0.678471863 0.274236232 0.007908157 -0.004897281 0 0 0 0
868000000 -0.535527288 0.480365961 0.007170797 -0.009615895 0 0 0 0
876000000 -0.317016065 0.596915841 0.004200516 -0.014603822 0 0 0 0
884000000 -0.083989188 0.590371251 -0.003960124 -0.019345438 0 0 0 0
892000000 0.106501467 0.457189232 -0.018084554 -0.01778461 0 0 0 0
900000000 0.348764061 0.219011977 -0.033795539 -0.000788583 0 0 0 0
908000000 0.269098758 0.07742653 -0.028989294 0.027880225 0 0 0 0
916000000 0.160549551 0.036916173 0.000465679 0.045463878 0 0 0 0
924000000 0.069307014 0.071125477 0.035400435 0.031713478 0 0 0 0
932000000 0.016829842 0.172778323 0.046294867 -0.007166342 0 0 0 0
940000000 0.097324356 0.309450775 0.021490747 -0.03435998 0 0 0 0
948000000 0.315871447 0.358356744 -0.007299159 -0.028919218 0 0 0 0
956000000 0.514208316 0.219841897 -0.014910829 -0.013293163 0 0 0 0
964000000 0.582157552 -0.029185822 -0.013671986 -0.00288101 0 0 0 0
972000000 0.508210301 -0.279525905 -0.009692791 0.002475903 0 0 0 0
980000000 0.310513675 -0.480258822 -0.00570729 0.004654375 0 0 0 0
988000000 0.049640059 -0.556413769 -0.003453106 0.00514887 0 0 0 0
996000000 -0.248401373 -0.527598917 -0.002015291 0.003683762 0 0 0 0
1004000000 -0.481561332 -0.393662393 -0.002011241 0.0029429 0 0 0 0
