# Hz S RI R 50
700000000 0.763614118 0.551805734 -7.1499e-05 0.000592228 0 0 0 0
708000000 0.867124617 0.306247293 -0.000251027 0.000931145 0 0 0 0
716000000 0.903025388 0.033475313 -9.3048e-05 0.001113806 0 0 0 0
724000000 0.843467712 -0.251110196 5.692e-05 0.001485171 0 0 0 0
732000000 0.697359561 -0.505818188 0.000477896 0.001475524 0 0 0 0
740000000 0.460411161 -0.699960768 0.000639929 0.001482009 0 0 0 0
748000000 0.148563027 -0.800663352 0.001095429 0.001395025 0 0 0 0
756000000 -0.190900623 -0.759738504 0.001317788 0.000956167 0 0 0 0
764000000 -0.494389861 -0.558645188 0.001235828 0.000679991 0 0 0 0
772000000 -0.666863858 -0.199279934 0.001396134 0.000305302 0 0 0 0
780000000 -0.597404897 0.227391347 0.001492132 -0.000644435 0 0 0 0
788000000 -0.250256687 0.53997302 0.000194312 -0.001523031 0 0 0 0
796000000 0.245322868 0.530597269 -0.001835702 -0.001334334 0 0 0 0
804000000 0.578152418 0.178040146 -0.00337518 0.001042364 0 0 0 0
812000000 0.562768042 -0.28281176 -0.002113588 0.003893447 0 0 0 0
820000000 0.275556713 -0.583810627 0.001010124 0.004922632 0 0 0 0
828000000 -0.106704004 -0.650050997 0.003133367 0.003865712 0 0 0 0
836000000 -0.424980252 -0.524494409 0.005179508 0.002121179 0 0 0 0
844000000 -0.635129094 -0.282102793 0.006539745 -0.000296747 0 0 0 0
852000000 -0.717818915 -0.000210763 0.007247833 -0.002898255 0 0 0 0
860000000 -0.683693289 0.269407063 0.007526083 -0.006356341 0 0 0 0
868000000 -0.544203281 0.480354547 0.006013769 -0.011146575 0 0 0 0
876000000 -0.325645357 0.599027335 0.001107809 -0.01638573 0 0 0 0
884000000 -0.087823025 0.596950829 -0.009137365 -0.01864114 0 0 0 0
892000000 0.112474836 0.46735683 -0.023394785 -0.012372641 0 0 0 0
900000000 0.353811949 0.220729842 -0.03342187 0.010144744 0 0 0 0
908000000 0.281238973 0.082177318 -0.017907012 0.03758911 0 0 0 0
916000000 0.163377001 0.029138095 0.018181694 0.041645932 0 0 0 0
924000000 0.087955899 0.054674033 0.043864902 0.013692599 0 0 0 0
932000000 0.021929727 0.144924819 0.035477615 -0.023996179 0 0 0 0
940000000 0.076314061 0.301484435 0.005490576 -0.03373593 0 0 0 0
948000000 0.306939512 0.367849975 -0.013011888 -0.020733451 0 0 0 0
956000000 0.503682017 0.233916774 -0.015014104 -0.007289793 0 0 0 0
964000000 0.58375436 -0.022913239 -0.011382745 0.000808971 0 0 0 0
972000000 0.518264472 -0.275801092 -0.007860363 0.004275718 0 0 0 0
980000000 0.317649155 -0.482309609 -0.003607855 0.004652792 0 0 0 0
988000000 0.047184459 -0.566809475 -0.002036019 0.004872375 0 0 0 0
996000000 -0.24968484 -0.528033792 -0.000280038 0.00332 0 0 0 0
1004000000 -0.478232592 -0.381075561 -0.000386084 0.003120931 0 0 0 0
