# Hz S RI R 50
700000000 0.759875535 0.559341907 -4.7692e-05 0.000693525 0 0 0 0
708000000 0.865629494 0.307825803 -4.9825e-05 0.000944813 0 0 0 0
716000000 0.896802484 0.034949634 -1.7984e-05 0.001323829 0 0 0 0
724000000 0.843823194 -0.249640181 0.000337677 0.001380305 0 0 0 0
732000000 0.696189761 -0.503772974 0.000378119 0.001435792 0 0 0 0
740000000 0.458104312 -0.699782013 0.000731999 0.001596336 0 0 0 0
748000000 0.148179963 -0.79881829 0.001045974 0.001281562 0 0 0 0
756000000 -0.190748125 -0.756917297 0.001119367 0.00105969 0 0 0 0
764000000 -0.492860317 -0.554736375 0.001209469 0.000868245 0 0 0 0
772000000 -0.664908587 -0.204878389 0.001382674 0.000327947 0 0 0 0
780000000 -0.597220838 0.224451512 0.001495194 -0.000329518 0 0 0 0
788000000 -0.254558324 0.533523499 0.000601625 -0.0011666 0 0 0 0
796000000 0.232063025 0.52719736 -0.001153779 -0.001512009 0 0 0 0
804000000 0.568682134 0.185886174 -0.002782113 0.000110749 0 0 0 0
812000000 0.562121868 -0.270269006 -0.002621249 0.002493269 0 0 0 0
820000000 0.281783878 -0.572659969 -0.00043957 0.004246375 0 0 0 0
828000000 -0.094246342 -0.641747117 0.001968157 0.003829025 0 0 0 0
836000000 -0.413581907 -0.518585801 0.00392273 0.002797745 0 0 0 0
844000000 -0.624145984 -0.280948102 0.005694924 0.001122722 0 0 0 0
852000000 -0.705636024 -0.009700105 0.007018558 -0.000818237 0 0 0 0
860000000 -0.674925982 0.258317857 0.008354684 -0.003941932 0 0 0 0
868000000 -0.535136759 0.465054899 0.008225833 -0.008988674 0 0 0 0
876000000 -0.329982668 0.58523792 0.005488072 -0.015137248 0 0 0 0
884000000 -0.103178188 0.583714604 -0.002852886 -0.020952938 0 0 0 0
892000000 0.087686285 0.465584129 -0.018664006 -0.020247327 0 0 0 0
900000000 0.340802758 0.241145178 -0.036452606 -0.000813913 0 0 0 0
908000000 0.277441918 0.108554348 -0.031997084 0.030080653 0 0 0 0
916000000 0.175620019 0.059446159 0.001196542 0.049453396 0 0 0 0
924000000 0.108640603 0.080403305 0.038776177 0.032848227 0 0 0 0
932000000 0.045525733 0.135626703 0.047869488 -0.008946729 0 0 0 0
940000000 0.091459438 0.274367779 0.020931778 -0.035340487 0 0 0 0
948000000 0.284465134 0.343636304 -0.005734999 -0.029444199 0 0 0 0
956000000 0.480769813 0.213829547 -0.014154088 -0.015133762 0 0 0 0
964000000 0.562705934 -0.022819073 -0.014375761 -0.004194573 0 0 0 0
972000000 0.501122474 -0.272617131 -0.011952993 0.002209399 0 0 0 0
980000000 0.315474897 -0.480481803 -0.007075208 0.005243875 0 0 0 0
988000000 0.043621141 -0.552997827 -0.004114594 0.006023824 0 0 0 0
996000000 -0.246230885 -0.531846582 -0.001674517 0.005025268 0 0 0 0
1004000000 -0.47257179 -0.3918612 -0.001268272 0.004597201 0 0 0 0
