# Hz S RI R 50
700000000 0.766023278 0.550813913 7.0191e-05 0.000674548 0 0 0 0
708000000 0.867651581 0.303957223 -0.000153461 0.000878176 0 0 0 0
716000000 0.898230075 0.028804162 -6.7854e-05 0.001114611 0 0 0 0
724000000 0.84446752 -0.25417751 7.9034e-05 0.001433839 0 0 0 0
732000000 0.694527924 -0.506553113 0.000427646 0.001631337 0 0 0 0
740000000 0.454918384 -0.704457402 0.000741386 0.001491906 0 0 0 0
748000000 0.141651242 -0.799648165 0.000975219 0.001567645 0 0 0 0
756000000 -0.196875333 -0.757364213 0.001213749 0.001280186 0 0 0 0
764000000 -0.497637242 -0.546988725 0.001517179 0.00089631 0 0 0 0
772000000 -0.663772284 -0.186803489 0.001637317 0.000507022 0 0 0 0
780000000 -0.585519194 0.23658882 0.001677772 -0.000401996 0 0 0 0
788000000 -0.228162303 0.538358747 0.000940286 -0.001600902 0 0 0 0
796000000 0.262962341 0.508916616 -0.001347943 -0.002102145 0 0 0 0
804000000 0.575806379 0.147405773 -0.003537326 -0.00037744 0 0 0 0
812000000 0.543061494 -0.304166316 -0.00351135 0.003045904 0 0 0 0
820000000 0.248985975 -0.584111332 -0.000728402 0.005001429 0 0 0 0
828000000 -0.124863602 -0.635773956 0.002285155 0.004686375 0 0 0 0
836000000 -0.436776667 -0.500345349 0.00426827 0.003323523 0 0 0 0
844000000 -0.633248925 -0.260507404 0.006452152 0.001478454 0 0 0 0
852000000 -0.705806195 0.016431408 0.007952216 -0.001276293 0 0 0 0
860000000 -0.660510778 0.281104028 0.009063092 -0.004833781 0 0 0 0
868000000 -0.514532864 0.480381518 0.008683146 -0.009946121 0 0 0 0
876000000 -0.303641825 0.584303855 0.005279394 -0.016573116 0 0 0 0
884000000 -0.078048631 0.570930361 -0.004661404 -0.022356921 0 0 0 0
892000000 0.100300632 0.438933372 -0.021358698 -0.019719064 0 0 0 0
900000000 0.339084088 0.209315374 -0.03790114 0.001202585 0 0 0 0
908000000 0.255904257 0.067023083 -0.03102136 0.033210303 0 0 0 0
916000000 0.126889288 0.034973982 0.005227733 0.049933299 0 0 0 0
924000000 0.034052871 0.088983602 0.042013403 0.029780335 0 0 0 0
932000000 0.031748887 0.217482015 0.046685997 -0.012604006 0 0 0 0
940000000 0.129803225 0.344555944 0.018484907 -0.035908341 0 0 0 0
948000000 0.363522171 0.359767287 -0.007217249 -0.028116364 0 0 0 0
956000000 0.528421759 0.180741176 -0.01399345 -0.01395538 0 0 0 0
964000000 0.580668151 -0.050605796 -0.013988004 -0.003250549 0 0 0 0
972000000 0.497322738 -0.299571782 -0.011356806 0.002603296 0 0 0 0
980000000 0.288273483 -0.48966214 -0.006659494 0.00552281 0 0 0 0
988000000 0.028084622 -0.564233541 -0.003818347 0.005253882 0 0 0 0
996000000 -0.251726061 -0.522217154 -0.001353223 0.004523612 0 0 0 0
1004000000 -0.484847098 -0.388904005 -0.00130341 0.003349889 0 0 0 0
