# Hz S RI R 50
700000000 0.758940815 0.55414474 1.365e-05 0.000575491 0 0 0 0
708000000 0.869716227 0.307101547 -3.5023e-05 0.000868412 0 0 0 0
716000000 0.900703549 0.035221457 -2.8386e-05 0.001130182 0 0 0 0
724000000 0.84539467 -0.248007297 0.000277271 0.001270382 0 0 0 0
732000000 0.697866618 -0.504637479 0.000460141 0.001465216 0 0 0 0
740000000 0.460059791 -0.702287912 0.000823768 0.001488829 0 0 0 0
748000000 0.151030719 -0.801524817 0.00107773 0.00127723 0 0 0 0
756000000 -0.190073266 -0.760914921 0.001073145 0.001062598 0 0 0 0
764000000 -0.491854846 -0.560247957 0.001189572 0.000951905 0 0 0 0
772000000 -0.661753892 -0.207671016 0.001392431 0.000457131 0 0 0 0
780000000 -0.59891957 0.220564246 0.001547854 2.4439e-05 0 0 0 0
788000000 -0.254172414 0.534681737 0.001145258 -0.001092505 0 0 0 0
796000000 0.232876926 0.528090894 -0.000626713 -0.001741232 0 0 0 0
804000000 0.570634841 0.181662872 -0.002620025 -0.000649335 0 0 0 0
812000000 0.561588287 -0.277008712 -0.00262143 0.002063936 0 0 0 0
820000000 0.275878787 -0.575901567 -0.000441805 0.0036776 0 0 0 0
828000000 -0.099311724 -0.645171046 0.00172913 0.00338989 0 0 0 0
836000000 -0.418099582 -0.517837703 0.003263211 0.00230277 0 0 0 0
844000000 -0.620637774 -0.281191825 0.004358454 0.001092687 0 0 0 0
852000000 -0.707741856 -0.003089932 0.005661548 -0.000454725 0 0 0 0
860000000 -0.673014521 0.2651892 0.00674865 -0.002660698 0 0 0 0
868000000 -0.535747408 0.467899978 0.007429107 -0.006184983 0 0 0 0
876000000 -0.32148534 0.576783776 0.00671414 -0.011238563 0 0 0 0
884000000 -0.09485998 0.57019937 0.001420679 -0.017230337 0 0 0 0
892000000 0.082897469 0.443729758 -0.010837025 -0.020263997 0 0 0 0
900000000 0.312110751 0.227060973 -0.028944944 -0.009018763 0 0 0 0
908000000 0.256381362 0.121707901 -0.034110445 0.016929775 0 0 0 0
916000000 0.169492468 0.085806086 -0.012362788 0.040768198 0 0 0 0
924000000 0.109453387 0.093700319 0.023127641 0.038595691 0 0 0 0
932000000 0.05632523 0.159305527 0.042929261 0.007133582 0 0 0 0
940000000 0.109213076 0.289866685 0.029859868 -0.023172097 0 0 0 0
948000000 0.317238837 0.337465435 0.00551365 -0.028638331 0 0 0 0
956000000 0.480981767 0.20780684 -0.008489397 -0.019801275 0 0 0 0
964000000 0.575458705 -0.030087532 -0.012955669 -0.009378257 0 0 0 0
972000000 0.507362306 -0.281705975 -0.012467073 -0.001510538 0 0 0 0
980000000 0.307236403 -0.481089919 -0.008994692 0.002860181 0 0 0 0
988000000 0.04184845 -0.562299072 -0.006396078 0.004688878 0 0 0 0
996000000 -0.24865888 -0.520692288 -0.004452961 0.005184694 0 0 0 0
1004000000 -0.480483919 -0.382846087 -0.002799272 0.005202263 0 0 0 0
