# Hz S RI R 50
700000000 0.759371876 0.552425324 -4.4871e-05 0.000599902 0 0 0 0
708000000 0.86809504 0.311002492 7.9203e-05 0.000913971 0 0 0 0
716000000 0.900024116 0.03290699 -1.5226e-05 0.001168963 0 0 0 0
724000000 0.847634732 -0.245228856 0.000277716 0.001471633 0 0 0 0
732000000 0.697750449 -0.504168748 0.000606981 0.001436614 0 0 0 0
740000000 0.462382376 -0.7025007 0.00088171 0.001542327 0 0 0 0
748000000 0.149569407 -0.801741361 0.001066989 0.001146575 0 0 0 0
756000000 -0.190938413 -0.761593699 0.001140517 0.001084967 0 0 0 0
764000000 -0.494277596 -0.556423902 0.001112028 0.000824256 0 0 0 0
772000000 -0.668034851 -0.204661592 0.001432502 0.000561159 0 0 0 0
780000000 -0.598787963 0.222928777 0.001377681 -0.000236217 0 0 0 0
788000000 -0.250881165 0.536623656 0.000688196 -0.001222058 0 0 0 0
796000000 0.240718871 0.530755698 -0.000899009 -0.001487741 0 0 0 0
804000000 0.576781332 0.183837473 -0.003055205 5.1326e-05 0 0 0 0
812000000 0.568639516 -0.277685672 -0.00251539 0.002887727 0 0 0 0
820000000 0.280128091 -0.583778321 0.00021243 0.004189564 0 0 0 0
828000000 -0.097406595 -0.652233958 0.00244716 0.003457336 0 0 0 0
836000000 -0.418696045 -0.524988055 0.004025693 0.002108404 0 0 0 0
844000000 -0.632133901 -0.287808597 0.00535382 0.000287356 0 0 0 0
852000000 -0.71487528 -0.009222269 0.006389387 -0.00178191 0 0 0 0
860000000 -0.68557322 0.257364869 0.006881282 -0.004366873 0 0 0 0
868000000 -0.551266729 0.473844975 0.00654461 -0.008391656 0 0 0 0
876000000 -0.337907552 0.595300912 0.004157563 -0.013328432 0 0 0 0
884000000 -0.105301126 0.605948269 -0.003185353 -0.017903128 0 0 0 0
892000000 0.097593016 0.485704243 -0.016243539 -0.016849948 0 0 0 0
900000000 0.357985973 0.253119111 -0.031610544 -0.001638253 0 0 0 0
908000000 0.313525676 0.083253644 -0.02809111 0.02619208 0 0 0 0
916000000 0.188026949 0.026191286 0.000632746 0.042201075 0 0 0 0
924000000 0.084453672 0.040023457 0.033337287 0.028940638 0 0 0 0
932000000 0.010001357 0.132854148 0.042082242 -0.007092533 0 0 0 0
940000000 0.064936943 0.298889368 0.018902692 -0.030761595 0 0 0 0
948000000 0.291626244 0.375521987 -0.004241195 -0.026639876 0 0 0 0
956000000 0.487687617 0.227593898 -0.012503017 -0.013624358 0 0 0 0
964000000 0.583640217 -0.009433383 -0.012496314 -0.00380007 0 0 0 0
972000000 0.507458508 -0.263748615 -0.009640075 0.001721514 0 0 0 0
980000000 0.324229806 -0.4804129 -0.005495591 0.004083262 0 0 0 0
988000000 0.047117222 -0.564209997 -0.003151387 0.003965043 0 0 0 0
996000000 -0.239370733 -0.531213939 -0.002259256 0.00314366 0 0 0 0
1004000000 -0.472964942 -0.397168189 -0.001966374 0.003335646 0 0 0 0
