# Hz S RI R 50
700000000 0.761181414 0.551343202 -3.7153e-05 0.000739549 0 0 0 0
708000000 0.873677194 0.305017024 -8.1752e-05 0.000875381 0 0 0 0
716000000 0.899672925 0.032969724 -8.85e-06 0.00131677 0 0 0 0
724000000 0.847206115 -0.248351663 0.000227812 0.001435098 0 0 0 0
732000000 0.696576952 -0.507429182 0.000468331 0.001556117 0 0 0 0
740000000 0.45629999 -0.703732907 0.000882826 0.001459783 0 0 0 0
748000000 0.146662175 -0.800493597 0.001096306 0.001104997 0 0 0 0
756000000 -0.192710444 -0.759214103 0.00136886 0.000921631 0 0 0 0
764000000 -0.497831881 -0.554854094 0.001232057 0.000609429 0 0 0 0
772000000 -0.664971828 -0.193118378 0.001384645 0.000328453 0 0 0 0
780000000 -0.593827128 0.229280307 0.001346069 -0.000399886 0 0 0 0
788000000 -0.244797289 0.537783741 0.00038638 -0.001194985 0 0 0 0
796000000 0.24642603 0.523819506 -0.001114335 -0.001192875 0 0 0 0
804000000 0.571570634 0.170854657 -0.002908831 0.000451905 0 0 0 0
812000000 0.5551759 -0.283838152 -0.002305267 0.002969986 0 0 0 0
820000000 0.27214235 -0.579292058 0.00017661 0.004282502 0 0 0 0
828000000 -0.107674472 -0.641771912 0.002469124 0.003382226 0 0 0 0
836000000 -0.422318309 -0.511749267 0.004040236 0.002327194 0 0 0 0
844000000 -0.624842405 -0.274411499 0.005256544 0.000682333 0 0 0 0
852000000 -0.706349611 0.005505338 0.006543347 -0.001372294 0 0 0 0
860000000 -0.670184493 0.26902908 0.007612083 -0.004291104 0 0 0 0
868000000 -0.528220653 0.473373502 0.007488509 -0.00882424 0 0 0 0
876000000 -0.315140843 0.585340201 0.004866268 -0.014325903 0 0 0 0
884000000 -0.087707526 0.579196393 -0.003196616 -0.019648315 0 0 0 0
892000000 0.093160346 0.445658802 -0.01823222 -0.01854998 0 0 0 0
900000000 0.325646698 0.218728393 -0.034633696 0.000546227 0 0 0 0
908000000 0.243887171 0.091860964 -0.029793584 0.029638495 0 0 0 0
916000000 0.154341474 0.072452314 0.003246875 0.046710301 0 0 0 0
924000000 0.093828916 0.103301137 0.038315266 0.028554178 0 0 0 0
932000000 0.06107619 0.156536176 0.04381876 -0.01161137 0 0 0 0
940000000 0.096612736 0.290735602 0.016801681 -0.033482536 0 0 0 0
948000000 0.307466447 0.352793097 -0.007393646 -0.026408853 0 0 0 0
956000000 0.49078077 0.213273853 -0.013859767 -0.012184213 0 0 0 0
964000000 0.572346627 -0.030686326 -0.012431824 -0.002528884 0 0 0 0
972000000 0.515312552 -0.282749712 -0.009347279 0.002967366 0 0 0 0
980000000 0.304338037 -0.489681094 -0.004992505 0.003681038 0 0 0 0
988000000 0.032126825 -0.566947519 -0.003443039 0.003993174 0 0 0 0
996000000 -0.251948624 -0.522354483 -0.002283296 0.003302521 0 0 0 0
1004000000 -0.477408915 -0.386397957 -0.001886095 0.003914026 0 0 0 0
