# Hz S RI R 50
700000000 0.760699987 0.556533157 -4.4103e-05 0.000720894 0 0 0 0
708000000 0.867770731 0.305909246 4.1908e-05 0.001058532 0 0 0 0
716000000 0.903699815 0.03095356 -0.000114657 0.001107662 0 0 0 0
724000000 0.842742025 -0.247896119 0.000210187 0.001495353 0 0 0 0
732000000 0.696311056 -0.506313204 0.000472456 0.001335639 0 0 0 0
740000000 0.458119213 -0.702647984 0.000604934 0.001441091 0 0 0 0
748000000 0.148252055 -0.803698956 0.001095884 0.001312769 0 0 0 0
756000000 -0.195477023 -0.757437467 0.001114132 0.001135885 0 0 0 0
764000000 -0.499256998 -0.552691578 0.001342671 0.000665894 0 0 0 0
772000000 -0.667394042 -0.193343415 0.001510471 0.000504596 0 0 0 0
780000000 -0.592409551 0.231276601 0.001437272 -0.000242212 0 0 0 0
788000000 -0.238531395 0.540246963 0.000896427 -0.001203355 0 0 0 0
796000000 0.251550972 0.520069122 -0.001104659 -0.001496797 0 0 0 0
804000000 0.578252792 0.163404092 -0.00291723 3.845e-05 0 0 0 0
812000000 0.553520381 -0.296025454 -0.002154385 0.002619803 0 0 0 0
820000000 0.261548161 -0.583767235 0.000367866 0.003482224 0 0 0 0
828000000 -0.11538849 -0.644018828 0.002097798 0.002656393 0 0 0 0
836000000 -0.428472042 -0.507334828 0.003158326 0.001579353 0 0 0 0
844000000 -0.629903316 -0.266595751 0.004159334 6.633e-06 0 0 0 0
852000000 -0.70882678 0.012344712 0.0047411 -0.000947167 0 0 0 0
860000000 -0.664583981 0.27707833 0.005713864 -0.002840334 0 0 0 0
868000000 -0.52257651 0.474888622 0.006287596 -0.005689037 0 0 0 0
876000000 -0.302768528 0.583393752 0.005759741 -0.009823499 0 0 0 0
884000000 -0.076533198 0.567165732 0.001408923 -0.015331843 0 0 0 0
892000000 0.096208989 0.426944851 -0.009047356 -0.01818419 0 0 0 0
900000000 0.314849197 0.213311344 -0.026583777 -0.009867621 0 0 0 0
908000000 0.239569231 0.09898594 -0.03205483 0.01403322 0 0 0 0
916000000 0.147771418 0.065158821 -0.012903564 0.038519345 0 0 0 0
924000000 0.069575458 0.096250034 0.021909911 0.036469217 0 0 0 0
932000000 0.042577143 0.194793432 0.041214141 0.006064147 0 0 0 0
940000000 0.119247972 0.321858644 0.027864614 -0.022758224 0 0 0 0
948000000 0.329884707 0.354280441 0.003743013 -0.028173048 0 0 0 0
956000000 0.518360733 0.200786292 -0.009962916 -0.017927249 0 0 0 0
964000000 0.581506609 -0.036965042 -0.012647546 -0.007076453 0 0 0 0
972000000 0.508990883 -0.296672821 -0.011159368 -8.1332e-05 0 0 0 0
980000000 0.302914828 -0.49604538 -0.007120828 0.003396003 0 0 0 0
988000000 0.033921618 -0.573684871 -0.004724891 0.004591922 0 0 0 0
996000000 -0.250285476 -0.527203619 -0.002983329 0.003778269 0 0 0 0
1004000000 -0.495765417 -0.380259096 -0.00268671 0.0043652 0 0 0 0
