# Hz S RI R 50
700000000 0.761697947 0.551313757 4.2269e-05 0.000680133 0 0 0 0
708000000 0.867287635 0.307743161 1.5266e-05 0.001032375 0 0 0 0
716000000 0.900822758 0.031259093 0.000163973 0.001165753 0 0 0 0
724000000 0.845069408 -0.246353 0.000176941 0.001318449 0 0 0 0
732000000 0.69592601 -0.504843056 0.000467436 0.001516025 0 0 0 0
740000000 0.457905083 -0.701063215 0.000845228 0.001505185 0 0 0 0
748000000 0.147454217 -0.800736188 0.001102183 0.001085113 0 0 0 0
756000000 -0.192685991 -0.758347451 0.001101912 0.000910723 0 0 0 0
764000000 -0.493611454 -0.554727792 0.001365224 0.000612902 0 0 0 0
772000000 -0.665951371 -0.198669627 0.001285291 0.000452942 0 0 0 0
780000000 -0.594365119 0.226870343 0.00101674 -0.00030826 0 0 0 0
788000000 -0.247537851 0.53678292 0.000481594 -0.000929001 0 0 0 0
796000000 0.240157499 0.526890099 -0.000987392 -0.000938042 0 0 0 0
804000000 0.573099076 0.17853628 -0.002375232 0.000341895 0 0 0 0
812000000 0.55585289 -0.27626276 -0.00198241 0.002447642 0 0 0 0
820000000 0.27990967 -0.574818611 0.000180185 0.003870577 0 0 0 0
828000000 -0.100261524 -0.64310193 0.002147373 0.00313832 0 0 0 0
836000000 -0.41681528 -0.518121182 0.003374903 0.002279375 0 0 0 0
844000000 -0.626065015 -0.280283629 0.00474792 0.000577617 0 0 0 0
852000000 -0.708139359 -0.003841025 0.006126765 -0.001070627 0 0 0 0
860000000 -0.674510717 0.260964781 0.007079603 -0.003467205 0 0 0 0
868000000 -0.537541449 0.470113068 0.007483418 -0.007604106 0 0 0 0
876000000 -0.322255373 0.585278332 0.005648375 -0.013091153 0 0 0 0
884000000 -0.094459272 0.58191365 -0.000987422 -0.018914166 0 0 0 0
892000000 0.093498811 0.454853475 -0.015244464 -0.020104782 0 0 0 0
900000000 0.327419608 0.227496296 -0.033357456 -0.004497187 0 0 0 0
908000000 0.261409819 0.103127472 -0.034033179 0.025605 0 0 0 0
916000000 0.173193618 0.069074772 -0.003582135 0.048204023 0 0 0 0
924000000 0.110009349 0.082100898 0.036087233 0.03555838 0 0 0 0
932000000 0.057197939 0.140799358 0.048536919 -0.006640461 0 0 0 0
940000000 0.078117854 0.270195245 0.021448045 -0.034601587 0 0 0 0
948000000 0.291869014 0.357767909 -0.006431277 -0.028559997 0 0 0 0
956000000 0.487030774 0.228981122 -0.01418752 -0.013640531 0 0 0 0
964000000 0.580976128 -0.016462989 -0.01263719 -0.002842337 0 0 0 0
972000000 0.517185032 -0.274975895 -0.009445464 0.002164098 0 0 0 0
980000000 0.319460123 -0.485495656 -0.005563213 0.003535049 0 0 0 0
988000000 0.0418749 -0.566010057 -0.004096017 0.00413277 0 0 0 0
996000000 -0.24144791 -0.529622137 -0.002964819 0.003315122 0 0 0 0
1004000000 -0.489116519 -0.395922392 -0.002298392 0.00443752 0 0 0 0
