# Hz S RI R 50
700000000 0.750746786 0.558690905 4.585e-06 0.000612839 0 0 0 0
708000000 0.860946178 0.31450954 5.0711e-05 0.000801229 0 0 0 0
716000000 0.894563496 0.041521374 0.000135469 0.001104016 0 0 0 0
724000000 0.843515813 -0.23479031 0.000175084 0.001223679 0 0 0 0
732000000 0.694430887 -0.492859244 0.000503668 0.001328386 0 0 0 0
740000000 0.461279541 -0.69206345 0.000572537 0.001210893 0 0 0 0
748000000 0.153546407 -0.790721952 0.000666531 0.001238988 0 0 0 0
756000000 -0.185450762 -0.753059267 0.000725885 0.001262337 0 0 0 0
764000000 -0.488890141 -0.552661955 0.000741766 0.001241008 0 0 0 0
772000000 -0.660489082 -0.200157091 0.001189789 0.001310308 0 0 0 0
780000000 -0.590794086 0.229059368 0.001808356 0.000880851 0 0 0 0
788000000 -0.239610821 0.539475977 0.002176847 -0.000247875 0 0 0 0
796000000 0.248964071 0.524401724 0.000959594 -0.001869919 0 0 0 0
804000000 0.580774843 0.170900195 -0.001889094 -0.001985705 0 0 0 0
812000000 0.563655197 -0.2830832 -0.003285079 0.000936727 0 0 0 0
820000000 0.275929987 -0.584422409 -0.001782938 0.003481361 0 0 0 0
828000000 -0.103722073 -0.64958924 0.000913284 0.004344256 0 0 0 0
836000000 -0.425620615 -0.518349051 0.00380511 0.003416929 0 0 0 0
844000000 -0.631079375 -0.276354223 0.005960622 0.001479898 0 0 0 0
852000000 -0.712773561 0.003137033 0.007511547 -0.001167264 0 0 0 0
860000000 -0.676022887 0.271194249 0.008313266 -0.004840024 0 0 0 0
868000000 -0.530047595 0.485291808 0.007536503 -0.010205428 0 0 0 0
876000000 -0.310361325 0.600928962 0.00332249 -0.016192978 0 0 0 0
884000000 -0.067967839 0.591043949 -0.006944798 -0.019793089 0 0 0 0
892000000 0.120393127 0.441919177 -0.021957851 -0.014198195 0 0 0 0
900000000 0.346144288 0.192780032 -0.031562194 0.008045469 0 0 0 0
908000000 0.247213169 0.059747278 -0.017356004 0.030655339 0 0 0 0
916000000 0.130897089 0.026509189 0.009819008 0.033967349 0 0 0 0
924000000 0.028313633 0.064271949 0.029197094 0.016206741 0 0 0 0
932000000 -0.018913555 0.210521966 0.029222603 -0.008162833 0 0 0 0
940000000 0.112825073 0.377289742 0.014289177 -0.020168129 0 0 0 0
948000000 0.37367767 0.370297253 8.1381e-05 -0.019994398 0 0 0 0
956000000 0.533499777 0.198384404 -0.007411351 -0.014281977 0 0 0 0
964000000 0.594574391 -0.048513084 -0.010599966 -0.006305418 0 0 0 0
972000000 0.514232099 -0.306047111 -0.009935064 -0.000123124 0 0 0 0
980000000 0.305475682 -0.499328672 -0.006827608 0.003495477 0 0 0 0
988000000 0.037835568 -0.57270348 -0.003702609 0.004561891 0 0 0 0
996000000 -0.256998717 -0.527762889 -0.002126227 0.003537405 0 0 0 0
1004000000 -0.487336099 -0.379290938 -0.001643233 0.003731716 0 0 0 0
