# Hz S RI R 50
700000000 0.750186443 0.559596061 0.000176283 0.00074235 0 0 0 0
708000000 0.855894386 0.315944135 0.000163058 0.000992587 0 0 0 0
716000000 0.892428159 0.043428801 2.6982e-05 0.001203249 0 0 0 0
724000000 0.839889287 -0.237788528 0.000233792 0.00133876 0 0 0 0
732000000 0.695786774 -0.490345835 0.000668753 0.001312378 0 0 0 0
740000000 0.461472481 -0.690792858 0.000715235 0.001361538 0 0 0 0
748000000 0.153681591 -0.789221227 0.000827976 0.001245149 0 0 0 0
756000000 -0.182956397 -0.752700209 0.001106937 0.000835502 0 0 0 0
764000000 -0.486599862 -0.551290512 0.001000429 0.000803538 0 0 0 0
772000000 -0.654686629 -0.199795961 0.001200917 0.000770035 0 0 0 0
780000000 -0.585594534 0.224574074 0.001302333 0.000188361 0 0 0 0
788000000 -0.244931861 0.528369605 0.000941729 -0.000390981 0 0 0 0
796000000 0.237935259 0.514522552 -0.000306176 -0.000862654 0 0 0 0
804000000 0.565619111 0.174671664 -0.00178502 -0.000214624 0 0 0 0
812000000 0.552134096 -0.275086551 -0.001849263 0.001754478 0 0 0 0
820000000 0.273976504 -0.568876087 -8.137e-06 0.003109041 0 0 0 0
828000000 -0.097708925 -0.632592201 0.0016102 0.002804026 0 0 0 0
836000000 -0.410534799 -0.507176697 0.003285046 0.001814745 0 0 0 0
844000000 -0.615615963 -0.275821506 0.00443765 0.000255409 0 0 0 0
852000000 -0.695570349 -0.000214167 0.005423551 -0.001391786 0 0 0 0
860000000 -0.662787973 0.262046158 0.006095456 -0.003532597 0 0 0 0
868000000 -0.522643327 0.458409488 0.00603857 -0.006848333 0 0 0 0
876000000 -0.3150976 0.571299433 0.004424131 -0.010988777 0 0 0 0
884000000 -0.096365593 0.558040082 -0.000744724 -0.015467298 0 0 0 0
892000000 0.072635173 0.432478636 -0.012058241 -0.01641767 0 0 0 0
900000000 0.298057198 0.225089967 -0.026430439 -0.004544632 0 0 0 0
908000000 0.240800634 0.129910141 -0.027293484 0.017745407 0 0 0 0
916000000 0.183463498 0.086328461 -0.005950192 0.035485431 0 0 0 0
924000000 0.115364216 0.075536869 0.022515965 0.029374981 0 0 0 0
932000000 0.043341316 0.145055696 0.03473011 0.001828219 0 0 0 0
940000000 0.096058897 0.30034399 0.021307568 -0.018781563 0 0 0 0
948000000 0.313550025 0.365899324 0.004180065 -0.021391021 0 0 0 0
956000000 0.504537999 0.211205661 -0.005026411 -0.015423637 0 0 0 0
964000000 0.587343394 -0.021242057 -0.009196557 -0.008803112 0 0 0 0
972000000 0.515958249 -0.277985304 -0.009952248 -0.002629657 0 0 0 0
980000000 0.320494234 -0.488710641 -0.007643599 0.00063693 0 0 0 0
988000000 0.046952094 -0.563281238 -0.006178931 0.003076697 0 0 0 0
996000000 -0.238807111 -0.529438257 -0.004238492 0.003129924 0 0 0 0
1004000000 -0.48618564 -0.385062366 -0.003918909 0.003657967 0 0 0 0
