# Hz S RI R 50
700000000 0.752972006 0.55879569 1.5235e-05 0.000483534 0 0 0 0
708000000 0.858108997 0.313949465 -3.132e-05 0.000828639 0 0 0 0
716000000 0.893033504 0.04239713 -8.6959e-05 0.001139567 0 0 0 0
724000000 0.839126169 -0.234948694 -1.7122e-05 0.001275972 0 0 0 0
732000000 0.695069372 -0.491081565 0.000207927 0.001693954 0 0 0 0
740000000 0.462327539 -0.689125955 0.000619535 0.001509281 0 0 0 0
748000000 0.156498894 -0.790436744 0.000870851 0.001402698 0 0 0 0
756000000 -0.178914427 -0.752554535 0.000854071 0.001473045 0 0 0 0
764000000 -0.479669183 -0.555878996 0.001497118 0.001448408 0 0 0 0
772000000 -0.652309715 -0.204847201 0.001945396 0.001034967 0 0 0 0
780000000 -0.589989244 0.212002709 0.002570993 0.000230351 0 0 0 0
788000000 -0.25347656 0.520765781 0.002277986 -0.001354317 0 0 0 0
796000000 0.221938133 0.51576811 0.000126887 -0.003128268 0 0 0 0
804000000 0.551191687 0.183234199 -0.003794166 -0.002440814 0 0 0 0
812000000 0.549174964 -0.261164844 -0.005094899 0.001875464 0 0 0 0
820000000 0.277130484 -0.553695559 -0.002563219 0.005850639 0 0 0 0
828000000 -0.085706233 -0.626042723 0.001764103 0.006626292 0 0 0 0
836000000 -0.398685574 -0.506806671 0.005372809 0.004884003 0 0 0 0
844000000 -0.604131102 -0.278646022 0.008185741 0.001710138 0 0 0 0
852000000 -0.687745034 -0.006406194 0.009981906 -0.002282956 0 0 0 0
860000000 -0.655184447 0.250495672 0.010351435 -0.007234704 0 0 0 0
868000000 -0.52525562 0.451194941 0.008258468 -0.013816242 0 0 0 0
876000000 -0.318760693 0.556264519 0.001742362 -0.020315814 0 0 0 0
884000000 -0.104203507 0.554614365 -0.01118435 -0.022914536 0 0 0 0
892000000 0.072099104 0.420945942 -0.028847632 -0.014363981 0 0 0 0
900000000 0.27861759 0.209085077 -0.037764925 0.014260999 0 0 0 0
908000000 0.195342287 0.119666688 -0.018096411 0.04328797 0 0 0 0
916000000 0.136296957 0.143601968 0.020176863 0.043446585 0 0 0 0
924000000 0.130442723 0.159688621 0.04269785 0.015740852 0 0 0 0
932000000 0.121618874 0.18350999 0.038309011 -0.018025053 0 0 0 0
940000000 0.155380815 0.259690761 0.014447836 -0.032828107 0 0 0 0
948000000 0.340119779 0.301078617 -0.007026612 -0.028233615 0 0 0 0
956000000 0.48455125 0.173428446 -0.017031714 -0.016091519 0 0 0 0
964000000 0.551552593 -0.049443308 -0.017873018 -0.002971925 0 0 0 0
972000000 0.485447257 -0.27611193 -0.013974829 0.005459889 0 0 0 0
980000000 0.304726809 -0.470404624 -0.007034304 0.009286074 0 0 0 0
988000000 0.03859397 -0.551744401 -0.00237892 0.008452053 0 0 0 0
996000000 -0.239685624 -0.502695083 0.000504829 0.006446612 0 0 0 0
1004000000 -0.475069463 -0.387199729 0.002178492 0.004070529 0 0 0 0
