# Hz S RI R 50
700000000 0.751109123 0.555473387 5.5503e-05 0.00073632 0 0 0 0
708000000 0.858999311 0.316732823 0.00012835 0.000906983 0 0 0 0
716000000 0.890086412 0.042635064 6.4361e-05 0.001357918 0 0 0 0
724000000 0.841642737 -0.229590162 0.000501483 0.001414359 0 0 0 0
732000000 0.697483122 -0.494259417 0.000834058 0.001312389 0 0 0 0
740000000 0.463560879 -0.691270768 0.000763274 0.001322074 0 0 0 0
748000000 0.157259836 -0.791815638 0.000957412 0.000996651 0 0 0 0
756000000 -0.180092841 -0.758904933 0.001034298 0.000754812 0 0 0 0
764000000 -0.486839175 -0.558833181 0.000966101 0.000372566 0 0 0 0
772000000 -0.661447048 -0.20849967 0.000553055 -2.6754e-05 0 0 0 0
780000000 -0.598232686 0.22081159 0.000249355 -9.2122e-05 0 0 0 0
788000000 -0.255038052 0.537823081 -0.000421166 -0.000109364 0 0 0 0
796000000 0.234954655 0.535010635 -0.001025748 0.000689746 0 0 0 0
804000000 0.57584095 0.190743416 -0.001049703 0.002123485 0 0 0 0
812000000 0.568085372 -0.269128441 0.000375357 0.003144614 0 0 0 0
820000000 0.287936598 -0.576731681 0.002280944 0.002730004 0 0 0 0
828000000 -0.087487265 -0.650007247 0.003148102 0.001283673 0 0 0 0
836000000 -0.410266935 -0.527863621 0.004030736 -5.1873e-05 0 0 0 0
844000000 -0.623795747 -0.290557593 0.004330311 -0.001591268 0 0 0 0
852000000 -0.715919077 -0.014843273 0.004668695 -0.003353665 0 0 0 0
860000000 -0.690253555 0.257185131 0.004619789 -0.005201744 0 0 0 0
868000000 -0.55578649 0.471481621 0.003594638 -0.0083374 0 0 0 0
876000000 -0.342768877 0.599071562 0.000903749 -0.011560293 0 0 0 0
884000000 -0.105560787 0.611527681 -0.005588236 -0.013808803 0 0 0 0
892000000 0.104770079 0.497497767 -0.015877848 -0.010969062 0 0 0 0
900000000 0.376297384 0.260751992 -0.024712748 0.00404378 0 0 0 0
908000000 0.332962453 0.0832915 -0.018869349 0.02588067 0 0 0 0
916000000 0.212559089 -0.022960515 0.008101747 0.035508677 0 0 0 0
924000000 0.061896294 -0.015190776 0.032856456 0.016155339 0 0 0 0
932000000 -0.04695893 0.126684457 0.030512623 -0.013741206 0 0 0 0
940000000 0.0341289 0.338447302 0.009638841 -0.02476591 0 0 0 0
948000000 0.302160888 0.401211172 -0.005854886 -0.019442787 0 0 0 0
956000000 0.502110958 0.259147286 -0.011413155 -0.010217213 0 0 0 0
964000000 0.600028634 -0.003743361 -0.011050907 -0.001841421 0 0 0 0
972000000 0.534660518 -0.267745226 -0.007938083 0.002776383 0 0 0 0
980000000 0.334658294 -0.484099805 -0.003981691 0.00421328 0 0 0 0
988000000 0.054607599 -0.568887054 -0.002252406 0.004169504 0 0 0 0
996000000 -0.230191037 -0.535417079 -0.001263613 0.002830101 0 0 0 0
1004000000 -0.471785366 -0.394044131 -0.000948891 0.002233753 0 0 0 0
