# Hz S RI R 50
700000000 0.751242637 0.551877975 6.4535e-05 0.000757109 0 0 0 0
708000000 0.860264539 0.313625216 0.000131158 0.001079959 0 0 0 0
716000000 0.892040014 0.039869584 0.000185382 0.001250656 0 0 0 0
724000000 0.835405826 -0.235763385 0.000458854 0.001365168 0 0 0 0
732000000 0.692642867 -0.494045227 0.000666686 0.001364602 0 0 0 0
740000000 0.457956403 -0.693447232 0.000780522 0.001254577 0 0 0 0
748000000 0.150039032 -0.790883481 0.001006402 0.000831229 0 0 0 0
756000000 -0.19125612 -0.752453029 0.000927351 0.000721111 0 0 0 0
764000000 -0.490902155 -0.546653926 0.000713607 0.000421376 0 0 0 0
772000000 -0.655406594 -0.188601717 0.00077747 0.000229851 0 0 0 0
780000000 -0.582090735 0.237483367 0.000424155 9.9145e-05 0 0 0 0
788000000 -0.221550554 0.539281308 0.000158699 8.0406e-05 0 0 0 0
796000000 0.262619495 0.506382584 -0.000449412 0.000174377 0 0 0 0
804000000 0.577032864 0.147529125 -0.001009591 0.001129886 0 0 0 0
812000000 0.540747702 -0.300668567 -0.000183865 0.002116562 0 0 0 0
820000000 0.249198004 -0.582304656 0.001381256 0.00228631 0 0 0 0
828000000 -0.123911887 -0.633647859 0.002161986 0.001882145 0 0 0 0
836000000 -0.433425247 -0.495351761 0.003123908 0.000870227 0 0 0 0
844000000 -0.630826652 -0.251813888 0.004060305 -0.000612859 0 0 0 0
852000000 -0.698784112 0.018744677 0.004863709 -0.002039147 0 0 0 0
860000000 -0.655244648 0.282578229 0.005463081 -0.003936295 0 0 0 0
868000000 -0.51311177 0.477351576 0.00527338 -0.007280319 0 0 0 0
876000000 -0.297104805 0.581146121 0.00314371 -0.011582736 0 0 0 0
884000000 -0.070308424 0.569046318 -0.003201637 -0.015200356 0 0 0 0
892000000 0.103331454 0.434962034 -0.014336385 -0.014054263 0 0 0 0
900000000 0.339877128 0.208865463 -0.026158601 -0.000373406 0 0 0 0
908000000 0.271024495 0.064227044 -0.022704331 0.022999322 0 0 0 0
916000000 0.141294449 0.014742732 0.002326918 0.036178275 0 0 0 0
924000000 0.013517043 0.055732503 0.029651006 0.021787919 0 0 0 0
932000000 -0.018712705 0.21923694 0.0327573 -0.00760328 0 0 0 0
940000000 0.113507904 0.380722135 0.015430422 -0.02254812 0 0 0 0
948000000 0.357110142 0.37904787 -0.001412161 -0.021117504 0 0 0 0
956000000 0.528098702 0.200817391 -0.008610324 -0.012462776 0 0 0 0
964000000 0.591993749 -0.04253181 -0.010278873 -0.00459105 0 0 0 0
972000000 0.514054059 -0.304462045 -0.008913163 0.000706322 0 0 0 0
980000000 0.305063337 -0.492834895 -0.00555468 0.003191899 0 0 0 0
988000000 0.034848254 -0.567048728 -0.003272282 0.003577016 0 0 0 0
996000000 -0.252584546 -0.522959291 -0.002773756 0.002930076 0 0 0 0
1004000000 -0.486273616 -0.391400545 -0.001974873 0.002607611 0 0 0 0
