# Hz S RI R 50
700000000 0.745429694 0.559115171 -4.6353e-05 0.000598736 0 0 0 0
708000000 0.855936408 0.316482543 -9.8703e-05 0.000991917 0 0 0 0
716000000 0.891284704 0.043756172 1.7211e-05 0.00113808 0 0 0 0
724000000 0.843811333 -0.233651235 6.243e-05 0.00141669 0 0 0 0
732000000 0.697813034 -0.490858316 0.000486959 0.001592184 0 0 0 0
740000000 0.462226092 -0.688798248 0.000772123 0.001498463 0 0 0 0
748000000 0.158541709 -0.790029823 0.001077948 0.001419011 0 0 0 0
756000000 -0.178070455 -0.753562271 0.001218309 0.001012998 0 0 0 0
764000000 -0.480697274 -0.555821478 0.001476403 0.000899844 0 0 0 0
772000000 -0.65420854 -0.20794478 0.001751751 0.000505979 0 0 0 0
780000000 -0.590035736 0.212836638 0.001854205 -0.000490527 0 0 0 0
788000000 -0.252448439 0.526555061 0.001089767 -0.001775232 0 0 0 0
796000000 0.227789998 0.521757483 -0.001220906 -0.002555663 0 0 0 0
804000000 0.559524059 0.189713925 -0.003905676 -0.000903581 0 0 0 0
812000000 0.561236023 -0.260009944 -0.003689649 0.003014613 0 0 0 0
820000000 0.287561416 -0.560373067 -0.000864258 0.005355746 0 0 0 0
828000000 -0.08257921 -0.636116266 0.002110988 0.005230116 0 0 0 0
836000000 -0.398951411 -0.518631875 0.004785812 0.003785047 0 0 0 0
844000000 -0.608296453 -0.287610888 0.006834757 0.00146555 0 0 0 0
852000000 -0.698233187 -0.016904775 0.008588406 -0.001279139 0 0 0 0
860000000 -0.669098079 0.248370453 0.009231019 -0.005400305 0 0 0 0
868000000 -0.5424937 0.45238015 0.008486888 -0.010924287 0 0 0 0
876000000 -0.335492908 0.572154104 0.004426212 -0.017238477 0 0 0 0
884000000 -0.107919551 0.57572633 -0.005574123 -0.021707668 0 0 0 0
892000000 0.072928622 0.458147972 -0.021777069 -0.018895404 0 0 0 0
900000000 0.315576165 0.242538496 -0.036024909 0.002717628 0 0 0 0
908000000 0.258202254 0.120223052 -0.02873943 0.032729379 0 0 0 0
916000000 0.177317053 0.089050941 0.004093373 0.047025743 0 0 0 0
924000000 0.117154464 0.081634424 0.037537887 0.029993154 0 0 0 0
932000000 0.066825509 0.145398974 0.045838281 -0.007409688 0 0 0 0
940000000 0.097369745 0.282023102 0.02173851 -0.032501649 0 0 0 0
948000000 0.3008385 0.342581301 -0.003580694 -0.028920019 0 0 0 0
956000000 0.488420248 0.210977137 -0.01287776 -0.017007401 0 0 0 0
964000000 0.57379198 -0.015253175 -0.01526591 -0.006114946 0 0 0 0
972000000 0.509340882 -0.270657092 -0.013171643 0.001688283 0 0 0 0
980000000 0.317535519 -0.479444831 -0.007700581 0.005779758 0 0 0 0
988000000 0.056453682 -0.553917288 -0.004370603 0.006187448 0 0 0 0
996000000 -0.22955431 -0.520837366 -0.001902 0.005766496 0 0 0 0
1004000000 -0.478967487 -0.38176316 -0.000466814 0.005070988 0 0 0 0
