# Hz S RI R 50
700000000 0.748374223 0.552039861 0.000129468 0.000687212 0 0 0 0
708000000 0.857898175 0.314709514 0.000192257 0.000996156 0 0 0 0
716000000 0.893909871 0.040883343 0.000354857 0.001243448 0 0 0 0
724000000 0.8428936 -0.234782934 0.000486992 0.001360822 0 0 0 0
732000000 0.696179866 -0.493098676 0.000671051 0.001276669 0 0 0 0
740000000 0.459561288 -0.691036343 0.000731789 0.001145054 0 0 0 0
748000000 0.153612166 -0.793278455 0.001118446 0.001205013 0 0 0 0
756000000 -0.184714689 -0.751578271 0.000899287 0.00077418 0 0 0 0
764000000 -0.490706443 -0.551473677 0.000971247 0.000798694 0 0 0 0
772000000 -0.655626654 -0.192607924 0.001136181 0.000361174 0 0 0 0
780000000 -0.58672738 0.229650884 0.000930765 5.1238e-05 0 0 0 0
788000000 -0.233534097 0.537431359 0.000539265 -0.00041154 0 0 0 0
796000000 0.250879228 0.516939103 -0.000824232 -0.00053593 0 0 0 0
804000000 0.579635798 0.165345564 -0.00175855 0.000659354 0 0 0 0
812000000 0.55768615 -0.289269149 -0.000926538 0.002426435 0 0 0 0
820000000 0.269300282 -0.58131802 0.001084973 0.002881991 0 0 0 0
828000000 -0.1062432 -0.645012676 0.002425775 0.001833187 0 0 0 0
836000000 -0.42277646 -0.516742289 0.003301833 0.000502923 0 0 0 0
844000000 -0.628134012 -0.277080297 0.003811723 -0.000782561 0 0 0 0
852000000 -0.713112235 0.000255023 0.004252874 -0.001964718 0 0 0 0
860000000 -0.674260199 0.268397152 0.004708037 -0.003425097 0 0 0 0
868000000 -0.540064632 0.475934863 0.004848526 -0.00617562 0 0 0 0
876000000 -0.326075226 0.598401844 0.003687301 -0.009756932 0 0 0 0
884000000 -0.084597416 0.600325524 -0.000709631 -0.013911374 0 0 0 0
892000000 0.111378252 0.475728482 -0.010904091 -0.014979436 0 0 0 0
900000000 0.370696395 0.236279517 -0.024093676 -0.004279931 0 0 0 0
908000000 0.311886161 0.068430274 -0.024732843 0.018380224 0 0 0 0
916000000 0.185076177 -0.022385142 -0.003140974 0.034176912 0 0 0 0
924000000 0.026512924 0.003879453 0.023859687 0.023768387 0 0 0 0
932000000 -0.055832486 0.171586498 0.030146362 -0.001711238 0 0 0 0
940000000 0.057019475 0.367806762 0.016950761 -0.017091784 0 0 0 0
948000000 0.33643794 0.400042027 0.00275315 -0.019031288 0 0 0 0
956000000 0.517555594 0.233524486 -0.005145884 -0.014183999 0 0 0 0
964000000 0.601104617 -0.022458862 -0.008782294 -0.007478269 0 0 0 0
972000000 0.531561553 -0.276287227 -0.008766065 -0.001976604 0 0 0 0
980000000 0.327260434 -0.488200306 -0.006538622 0.001180096 0 0 0 0
988000000 0.046292319 -0.57436186 -0.005093614 0.002716343 0 0 0 0
996000000 -0.236500889 -0.53331089 -0.003749267 0.003060026 0 0 0 0
1004000000 -0.487752705 -0.406920343 -0.002951557 0.003824364 0 0 0 0
