# Hz S RI R 50
700000000 0.749857127 0.554149925 8.1709e-05 0.000611293 0 0 0 0
708000000 0.856128692 0.310021102 -6.4386e-05 0.000918105 0 0 0 0
716000000 0.890920937 0.038484372 -8.159e-06 0.001202373 0 0 0 0
724000000 0.837529957 -0.236943215 0.000151033 0.001481765 0 0 0 0
732000000 0.692775607 -0.492110252 0.000556314 0.001407773 0 0 0 0
740000000 0.459708392 -0.69119805 0.000592246 0.001436632 0 0 0 0
748000000 0.154451116 -0.786913394 0.000976649 0.001242706 0 0 0 0
756000000 -0.184350103 -0.750029623 0.001245349 0.001175231 0 0 0 0
764000000 -0.48172003 -0.546927273 0.001299113 0.000920732 0 0 0 0
772000000 -0.647814869 -0.195079609 0.001644902 0.000394901 0 0 0 0
780000000 -0.577640712 0.219302192 0.001912111 -0.000365553 0 0 0 0
788000000 -0.237042278 0.518552184 0.001214458 -0.001593856 0 0 0 0
796000000 0.233446896 0.502225816 -0.000924246 -0.002307013 0 0 0 0
804000000 0.548187553 0.164768442 -0.003825456 -0.001038859 0 0 0 0
812000000 0.527773141 -0.274948179 -0.004195393 0.003138112 0 0 0 0
820000000 0.255506575 -0.55307269 -0.00108104 0.005730724 0 0 0 0
828000000 -0.105599761 -0.611858725 0.002405871 0.005675685 0 0 0 0
836000000 -0.405607134 -0.483727067 0.005441272 0.003930907 0 0 0 0
844000000 -0.599531173 -0.254697382 0.007728576 0.000996914 0 0 0 0
852000000 -0.669337511 0.015116913 0.009277334 -0.002370025 0 0 0 0
860000000 -0.629344403 0.262655168 0.009439998 -0.006801592 0 0 0 0
868000000 -0.488058805 0.444668859 0.007963892 -0.012570902 0 0 0 0
876000000 -0.290533363 0.535750269 0.002429412 -0.01879264 0 0 0 0
884000000 -0.094621486 0.504495859 -0.009099873 -0.02217398 0 0 0 0
892000000 0.037877824 0.381614893 -0.025570765 -0.015351826 0 0 0 0
900000000 0.227467253 0.209820494 -0.037076391 0.008968887 0 0 0 0
908000000 0.161244705 0.162198871 -0.022279964 0.036745127 0 0 0 0
916000000 0.132313653 0.167223483 0.01112449 0.044995564 0 0 0 0
924000000 0.126691177 0.177858844 0.041094746 0.023172387 0 0 0 0
932000000 0.122644133 0.215666115 0.043306451 -0.015333732 0 0 0 0
940000000 0.186115875 0.29243806 0.01477795 -0.034923993 0 0 0 0
948000000 0.373533308 0.296984255 -0.008233197 -0.025389801 0 0 0 0
956000000 0.517376959 0.150348573 -0.014132509 -0.012944981 0 0 0 0
964000000 0.563422083 -0.076302602 -0.014218104 -0.00308566 0 0 0 0
972000000 0.484459489 -0.309936463 -0.010884743 0.002886941 0 0 0 0
980000000 0.27369076 -0.497272431 -0.006130208 0.00567871 0 0 0 0
988000000 0.022465594 -0.560956776 -0.00354988 0.005739718 0 0 0 0
996000000 -0.257099181 -0.512468218 -0.00192177 0.004865158 0 0 0 0
1004000000 -0.482809871 -0.363162964 -0.001310553 0.004170401 0 0 0 0
