# Hz S RI R 50
700000000 0.748079359 0.5588364 5.2885e-05 0.000465821 0 0 0 0
708000000 0.858733713 0.313642054 -0.000146054 0.000761443 0 0 0 0
716000000 0.890430331 0.041275616 4.4197e-05 0.001091644 0 0 0 0
724000000 0.837442874 -0.235722482 0.000185147 0.001332323 0 0 0 0
732000000 0.69495809 -0.492895036 0.000514887 0.001679478 0 0 0 0
740000000 0.463065743 -0.690510034 0.000878945 0.001687816 0 0 0 0
748000000 0.15884909 -0.790699541 0.001038174 0.001395632 0 0 0 0
756000000 -0.179450079 -0.752537131 0.001218175 0.001240201 0 0 0 0
764000000 -0.478781878 -0.554639518 0.001564943 0.000887808 0 0 0 0
772000000 -0.653084456 -0.208424791 0.001726237 0.000200907 0 0 0 0
780000000 -0.590012967 0.212203457 0.001702885 -0.000556391 0 0 0 0
788000000 -0.251018583 0.520580232 0.00077637 -0.001892367 0 0 0 0
796000000 0.223993048 0.516487479 -0.00143058 -0.002392667 0 0 0 0
804000000 0.555888354 0.183529227 -0.004081543 -0.000374108 0 0 0 0
812000000 0.549943685 -0.262918949 -0.003856152 0.003342378 0 0 0 0
820000000 0.279164165 -0.556249856 -0.000678699 0.005526095 0 0 0 0
828000000 -0.087667219 -0.629429936 0.002509933 0.005358894 0 0 0 0
836000000 -0.402435302 -0.506557703 0.005048073 0.003776054 0 0 0 0
844000000 -0.610477745 -0.277976006 0.007014265 0.001299775 0 0 0 0
852000000 -0.689733564 -0.0055422 0.008699596 -0.001656536 0 0 0 0
860000000 -0.658016979 0.255975008 0.009468223 -0.005583222 0 0 0 0
868000000 -0.522862792 0.453563153 0.008635552 -0.011343904 0 0 0 0
876000000 -0.31631121 0.565689742 0.004320901 -0.017937732 0 0 0 0
884000000 -0.100027412 0.550627887 -0.006400793 -0.022624205 0 0 0 0
892000000 0.06625685 0.422497332 -0.023675996 -0.018965631 0 0 0 0
900000000 0.280092477 0.219827085 -0.038325369 0.004411258 0 0 0 0
908000000 0.205577656 0.126652762 -0.028628122 0.036305755 0 0 0 0
916000000 0.149748608 0.126550361 0.006503625 0.049809299 0 0 0 0
924000000 0.125215917 0.135998487 0.042437151 0.030153293 0 0 0 0
932000000 0.098099417 0.164516046 0.048498656 -0.012817217 0 0 0 0
940000000 0.125408664 0.273218989 0.018512234 -0.037441808 0 0 0 0
948000000 0.317710489 0.32148227 -0.007602842 -0.028796808 0 0 0 0
956000000 0.498303234 0.194689661 -0.014658533 -0.014782617 0 0 0 0
964000000 0.564165472 -0.049779225 -0.014947361 -0.00369684 0 0 0 0
972000000 0.494608432 -0.287306517 -0.011769412 0.00272153 0 0 0 0
980000000 0.297474861 -0.486797243 -0.006697808 0.005578335 0 0 0 0
988000000 0.031306222 -0.564547359 -0.003818032 0.006161049 0 0 0 0
996000000 -0.23668158 -0.520600616 -0.00179258 0.004847296 0 0 0 0
1004000000 -0.477996587 -0.384582757 -0.000476121 0.003744245 0 0 0 0
