# Hz S RI R 50
700000000 0.74968779 0.557667016 5.4935e-05 0.000742915 0 0 0 0
708000000 0.857505917 0.314550846 9.7492e-05 0.001108476 0 0 0 0
716000000 0.891373932 0.046436876 0.000283521 0.001231313 0 0 0 0
724000000 0.841211915 -0.232496932 0.000400692 0.001147638 0 0 0 0
732000000 0.696314156 -0.491230398 0.000679419 0.001431684 0 0 0 0
740000000 0.459940075 -0.690439641 0.000674295 0.001336988 0 0 0 0
748000000 0.153994828 -0.792893767 0.000935836 0.000958655 0 0 0 0
756000000 -0.186295807 -0.755008459 0.000946627 0.000641467 0 0 0 0
764000000 -0.490381151 -0.54830724 0.000928658 0.000541531 0 0 0 0
772000000 -0.659606456 -0.19678834 0.000646208 0.000395727 0 0 0 0
780000000 -0.588811099 0.232749819 0.000582662 0.000323805 0 0 0 0
788000000 -0.232560276 0.537298619 0.000509679 3.595e-05 0 0 0 0
796000000 0.25334993 0.518608331 -0.000146973 0.000204786 0 0 0 0
804000000 0.580132603 0.161490663 -0.000711944 0.00071311 0 0 0 0
812000000 0.556357383 -0.291173815 -0.000323515 0.001633301 0 0 0 0
820000000 0.266831666 -0.583544433 0.000797407 0.001854361 0 0 0 0
828000000 -0.110615171 -0.643647849 0.001750488 0.001661945 0 0 0 0
836000000 -0.425343066 -0.513285815 0.002686784 0.000421409 0 0 0 0
844000000 -0.62862426 -0.272764682 0.003323722 -0.000786441 0 0 0 0
852000000 -0.711239814 0.003379722 0.003794942 -0.001658503 0 0 0 0
860000000 -0.677358269 0.270417481 0.004315039 -0.003209683 0 0 0 0
868000000 -0.537607669 0.485544532 0.00439989 -0.006024386 0 0 0 0
876000000 -0.3203848 0.598524808 0.002997411 -0.008900868 0 0 0 0
884000000 -0.078604854 0.595947742 -0.000853158 -0.012149929 0 0 0 0
892000000 0.115804672 0.464762896 -0.009335485 -0.012793581 0 0 0 0
900000000 0.378170818 0.220082297 -0.020641159 -0.003702291 0 0 0 0
908000000 0.304197311 0.053123086 -0.022242546 0.01375935 0 0 0 0
916000000 0.171447679 -0.019471103 -0.005096879 0.028709335 0 0 0 0
924000000 0.015566349 0.01263417 0.018719775 0.023225747 0 0 0 0
932000000 -0.050843976 0.196116417 0.027412492 0.001351226 0 0 0 0
940000000 0.073546051 0.371311783 0.017317993 -0.014437156 0 0 0 0
948000000 0.346451282 0.405418127 0.004282448 -0.017912613 0 0 0 0
956000000 0.536845684 0.233343034 -0.003680918 -0.013705545 0 0 0 0
964000000 0.602859318 -0.027463879 -0.007664796 -0.007855195 0 0 0 0
972000000 0.534364581 -0.288543552 -0.008857088 -0.002291194 0 0 0 0
980000000 0.324911981 -0.494280934 -0.006205746 0.000395794 0 0 0 0
988000000 0.04899013 -0.577288568 -0.005371123 0.002251683 0 0 0 0
996000000 -0.237546116 -0.528494358 -0.003902957 0.002668729 0 0 0 0
1004000000 -0.487470537 -0.394174486 -0.003846864 0.003217494 0 0 0 0
