# Hz S RI R 50
700000000 0.747599542 0.556062459 0.000123799 0.00069727 0 0 0 0
708000000 0.858178436 0.316899478 9.5998e-05 0.000956083 0 0 0 0
716000000 0.889984428 0.041668605 0.00025311 0.001125917 0 0 0 0
724000000 0.840192079 -0.238136827 0.000286698 0.001367772 0 0 0 0
732000000 0.69940865 -0.491394221 0.000751546 0.001376413 0 0 0 0
740000000 0.462323516 -0.692761003 0.000985253 0.001356164 0 0 0 0
748000000 0.156098425 -0.791482865 0.001067767 0.001138991 0 0 0 0
756000000 -0.181876987 -0.756141424 0.001198263 0.000651353 0 0 0 0
764000000 -0.486548811 -0.558356404 0.001093407 0.000287087 0 0 0 0
772000000 -0.65627259 -0.201785564 0.001089696 6.2262e-05 0 0 0 0
780000000 -0.597389042 0.221122086 0.000782727 -0.000230787 0 0 0 0
788000000 -0.254441678 0.535308122 -0.000112689 -0.000434152 0 0 0 0
796000000 0.235580921 0.532592773 -0.001262732 -0.000141019 0 0 0 0
804000000 0.576798081 0.185122713 -0.001918978 0.001385831 0 0 0 0
812000000 0.569271743 -0.27159056 -0.000595766 0.002723677 0 0 0 0
820000000 0.288001269 -0.576307356 0.001404525 0.002997656 0 0 0 0
828000000 -0.088855929 -0.650084197 0.002658542 0.002001021 0 0 0 0
836000000 -0.412381917 -0.528980851 0.003629825 0.000904507 0 0 0 0
844000000 -0.623999178 -0.292734533 0.004315466 -0.000461255 0 0 0 0
852000000 -0.712703168 -0.015715748 0.005401744 -0.001776687 0 0 0 0
860000000 -0.688005387 0.255194932 0.00594367 -0.004225933 0 0 0 0
868000000 -0.556420385 0.468806117 0.005670917 -0.00797832 0 0 0 0
876000000 -0.347795665 0.598416388 0.0035236 -0.012177133 0 0 0 0
884000000 -0.10950385 0.611109912 -0.002919259 -0.015961179 0 0 0 0
892000000 0.093869477 0.498118996 -0.014550387 -0.01536199 0 0 0 0
900000000 0.361784309 0.261076867 -0.028843818 -0.002210961 0 0 0 0
908000000 0.328757792 0.101008057 -0.025860697 0.02365243 0 0 0 0
916000000 0.225539848 0.004119689 3.6713e-05 0.039488527 0 0 0 0
924000000 0.095449917 -0.014207253 0.03053265 0.025258392 0 0 0 0
932000000 -0.018498383 0.108985841 0.03549179 -0.00717529 0 0 0 0
940000000 0.031742852 0.317998707 0.017167445 -0.023633437 0 0 0 0
948000000 0.282769769 0.393837034 -0.001581756 -0.022179767 0 0 0 0
956000000 0.494780182 0.250840544 -0.00907414 -0.013590343 0 0 0 0
964000000 0.598425626 0.013227668 -0.010798941 -0.005246523 0 0 0 0
972000000 0.538139522 -0.25725454 -0.009378616 0.001038086 0 0 0 0
980000000 0.339009523 -0.471693098 -0.005717495 0.003419397 0 0 0 0
988000000 0.067828871 -0.571554481 -0.003598993 0.003488198 0 0 0 0
996000000 -0.22780615 -0.540301561 -0.002295239 0.003102803 0 0 0 0
1004000000 -0.465382099 -0.406430125 -0.002114564 0.003214948 0 0 0 0
