# Hz S RI R 50
700000000 0.747607409 0.554726779 8.9809e-05 0.000722028 0 0 0 0
708000000 0.860979855 0.314102768 6.8273e-05 0.001062994 0 0 0 0
716000000 0.892633795 0.04233025 0.000351976 0.001232501 0 0 0 0
724000000 0.836422264 -0.236399024 0.000407159 0.001362173 0 0 0 0
732000000 0.695641934 -0.494146794 0.000562741 0.001376055 0 0 0 0
740000000 0.459134042 -0.693199753 0.000793799 0.001245266 0 0 0 0
748000000 0.150830686 -0.789765894 0.001027234 0.001028435 0 0 0 0
756000000 -0.187163695 -0.7546193 0.000890125 0.000562482 0 0 0 0
764000000 -0.490541815 -0.550160765 0.000865595 0.000493382 0 0 0 0
772000000 -0.664513587 -0.189761385 0.000427021 0.000324658 0 0 0 0
780000000 -0.588584542 0.234948307 0.000146658 0.000344667 0 0 0 0
788000000 -0.232743218 0.544764459 0.000133936 0.000741596 0 0 0 0
796000000 0.262847423 0.522165656 -5.7691e-05 0.000986183 0 0 0 0
804000000 0.593565225 0.157820016 -1.1571e-05 0.001080077 0 0 0 0
812000000 0.562990128 -0.302060335 0.000785477 0.001424807 0 0 0 0
820000000 0.265902221 -0.597023785 0.001343569 0.001068638 0 0 0 0
828000000 -0.11692778 -0.653376758 0.001986625 0.000567494 0 0 0 0
836000000 -0.437563925 -0.52109301 0.002297521 -0.000103994 0 0 0 0
844000000 -0.645139813 -0.274631261 0.002665734 -0.000958736 0 0 0 0
852000000 -0.726104259 0.011546474 0.003097721 -0.001605473 0 0 0 0
860000000 -0.687900245 0.288213044 0.003683598 -0.002959725 0 0 0 0
868000000 -0.542152583 0.505452096 0.003692238 -0.005146298 0 0 0 0
876000000 -0.311271607 0.630083858 0.002945166 -0.007733646 0 0 0 0
884000000 -0.053088892 0.625376939 -0.000584748 -0.010876097 0 0 0 0
892000000 0.169547125 0.470142364 -0.008107819 -0.01201089 0 0 0 0
900000000 0.420426577 0.172869145 -0.01819005 -0.004453493 0 0 0 0
908000000 0.297185808 -0.038306161 -0.020848903 0.01315624 0 0 0 0
916000000 0.090291127 -0.066760048 -0.003829188 0.027409607 0 0 0 0
924000000 -0.071377813 0.046841736 0.018641274 0.019951662 0 0 0 0
932000000 -0.076588094 0.263866424 0.02460435 -0.000331243 0 0 0 0
940000000 0.102024175 0.424148738 0.015623546 -0.013798842 0 0 0 0
948000000 0.37726593 0.416864454 0.003143377 -0.016598537 0 0 0 0
956000000 0.559893369 0.230894267 -0.004827931 -0.012028244 0 0 0 0
964000000 0.62470144 -0.047924421 -0.007570987 -0.005483923 0 0 0 0
972000000 0.536044716 -0.301830083 -0.00765311 -0.000822888 0 0 0 0
980000000 0.322309821 -0.506098985 -0.005350984 0.001839043 0 0 0 0
988000000 0.042608816 -0.589660108 -0.003900246 0.00233864 0 0 0 0
996000000 -0.25932157 -0.540996909 -0.002774532 0.002135228 0 0 0 0
1004000000 -0.490939259 -0.389766752 -0.003042697 0.002532236 0 0 0 0
