# Hz S RI R 50
700000000 0.748055636 0.560061037 9.5859e-05 0.000788673 0 0 0 0
708000000 0.856599748 0.315068662 1.8303e-05 0.00108685 0 0 0 0
716000000 0.891202628 0.041751626 0.00022638 0.001086821 0 0 0 0
724000000 0.840392231 -0.236711233 0.000369887 0.001227584 0 0 0 0
732000000 0.69776386 -0.491668045 0.000547193 0.001361222 0 0 0 0
740000000 0.463653326 -0.692189693 0.000858933 0.001206881 0 0 0 0
748000000 0.157724931 -0.795076727 0.000755982 0.000986589 0 0 0 0
756000000 -0.182461068 -0.758566558 0.000744417 0.00081252 0 0 0 0
764000000 -0.487140655 -0.559244215 0.000616101 0.000615523 0 0 0 0
772000000 -0.66114211 -0.207046687 0.000461682 0.000590232 0 0 0 0
780000000 -0.603299558 0.219116732 0.000227441 0.000733433 0 0 0 0
788000000 -0.257744371 0.544465422 0.000694912 0.000980005 0 0 0 0
796000000 0.240428343 0.54103899 0.000710611 0.000993771 0 0 0 0
804000000 0.58748728 0.191948592 0.00068468 0.000880722 0 0 0 0
812000000 0.584052741 -0.275218337 0.001004633 0.00080643 0 0 0 0
820000000 0.294235259 -0.585983395 0.001487583 0.000613564 0 0 0 0
828000000 -0.092797502 -0.665085256 0.001816177 0.000197114 0 0 0 0
836000000 -0.4218584 -0.537928044 0.001893202 -0.000532788 0 0 0 0
844000000 -0.633053421 -0.300110757 0.002327565 -0.001485722 0 0 0 0
852000000 -0.728259861 -0.017074288 0.002576728 -0.002124517 0 0 0 0
860000000 -0.699946045 0.264243781 0.002843919 -0.003390187 0 0 0 0
868000000 -0.567815959 0.487819105 0.002689235 -0.005406716 0 0 0 0
876000000 -0.347554534 0.62016648 0.001384834 -0.007780677 0 0 0 0
884000000 -0.094164572 0.637937128 -0.002328179 -0.00981495 0 0 0 0
892000000 0.135118395 0.518087923 -0.009226836 -0.009138769 0 0 0 0
900000000 0.417834818 0.246339052 -0.01685805 4.5754e-05 0 0 0 0
908000000 0.366128236 0.02938465 -0.015285074 0.01478995 0 0 0 0
916000000 0.189881101 -0.080618739 0.000654074 0.02413176 0 0 0 0
924000000 0.004329741 -0.032069701 0.018243938 0.015097244 0 0 0 0
932000000 -0.074456527 0.165203437 0.022363085 -0.002311567 0 0 0 0
940000000 0.047957736 0.363672077 0.013908817 -0.015219974 0 0 0 0
948000000 0.315775334 0.402509212 0.000336793 -0.017723152 0 0 0 0
956000000 0.511203825 0.244486436 -0.007256817 -0.011493222 0 0 0 0
964000000 0.601865768 0.002901985 -0.008994469 -0.003925236 0 0 0 0
972000000 0.531589865 -0.266714453 -0.007994482 0.001073052 0 0 0 0
980000000 0.331662148 -0.476561218 -0.003958528 0.003396995 0 0 0 0
988000000 0.059341173 -0.570567429 -0.002300124 0.003989796 0 0 0 0
996000000 -0.226555556 -0.540415883 -0.000800557 0.002619238 0 0 0 0
1004000000 -0.476876348 -0.396482557 -0.000732527 0.002237822 0 0 0 0
