# Hz S RI R 50
700000000 0.749284565 0.560947716 -4.19e-05 0.000610634 0 0 0 0
708000000 0.85645914 0.316771328 0.000101788 0.00110244 0 0 0 0
716000000 0.890541791 0.044730968 3.9599e-05 0.001256626 0 0 0 0
724000000 0.839501202 -0.233560457 0.000414639 0.001291261 0 0 0 0
732000000 0.697242498 -0.49085316 0.00055659 0.001341563 0 0 0 0
740000000 0.465925574 -0.691391944 0.001014361 0.001353631 0 0 0 0
748000000 0.156528666 -0.790542244 0.001087927 0.001160832 0 0 0 0
756000000 -0.182255551 -0.754633665 0.00121899 0.000852604 0 0 0 0
764000000 -0.485641032 -0.556187689 0.001272352 0.000663391 0 0 0 0
772000000 -0.657083094 -0.200976356 0.001051832 0.00014418 0 0 0 0
780000000 -0.59228748 0.223887518 0.000953111 -0.000342233 0 0 0 0
788000000 -0.244397312 0.536150097 4.4568e-05 -0.000640646 0 0 0 0
796000000 0.246339827 0.524277091 -0.001268048 -0.00066352 0 0 0 0
804000000 0.573320329 0.174008145 -0.002149645 0.001015473 0 0 0 0
812000000 0.55980128 -0.282226383 -0.001287005 0.00307753 0 0 0 0
820000000 0.274847686 -0.577433168 0.001113552 0.00343352 0 0 0 0
828000000 -0.099332176 -0.643178045 0.00280928 0.002681985 0 0 0 0
836000000 -0.415611118 -0.521083772 0.003785552 0.001281398 0 0 0 0
844000000 -0.627364933 -0.280461877 0.004665753 -0.000293616 0 0 0 0
852000000 -0.709812462 -0.005517998 0.005547491 -0.001984528 0 0 0 0
860000000 -0.675800085 0.260663837 0.006136321 -0.004298607 0 0 0 0
868000000 -0.542188227 0.471592038 0.005769365 -0.007884606 0 0 0 0
876000000 -0.329109996 0.594484865 0.003364998 -0.012405102 0 0 0 0
884000000 -0.094066359 0.603085339 -0.002785863 -0.016176141 0 0 0 0
892000000 0.105597987 0.478564232 -0.014354337 -0.015592712 0 0 0 0
900000000 0.358692824 0.238799765 -0.028836349 -0.002693719 0 0 0 0
908000000 0.308916121 0.068144254 -0.026432517 0.022903975 0 0 0 0
916000000 0.178730756 -3.4865e-05 -0.000930847 0.039801385 0 0 0 0
924000000 0.047639816 0.023262355 0.02969551 0.026783626 0 0 0 0
932000000 -0.029969885 0.167822822 0.036366142 -0.005231312 0 0 0 0
940000000 0.06737636 0.346085965 0.018520893 -0.024113172 0 0 0 0
948000000 0.315404862 0.392300814 -0.000131116 -0.022370507 0 0 0 0
956000000 0.5031116 0.237023577 -0.008438417 -0.014797832 0 0 0 0
964000000 0.599247872 -0.009894324 -0.011023213 -0.006458063 0 0 0 0
972000000 0.521569848 -0.273302018 -0.010319394 -0.000173631 0 0 0 0
980000000 0.332762241 -0.482782721 -0.007065939 0.003221966 0 0 0 0
988000000 0.057353779 -0.566206753 -0.004495573 0.004225482 0 0 0 0
996000000 -0.224182486 -0.530088722 -0.002476537 0.003875935 0 0 0 0
1004000000 -0.486558705 -0.398700267 -0.002570197 0.003255872 0 0 0 0
