# Hz S RI R 50
700000000 0.750730216 0.552673757 -1.607e-05 0.000780501 0 0 0 0
708000000 0.858079731 0.310700595 7.0667e-05 0.000979033 0 0 0 0
716000000 0.892138242 0.040369059 0.000107438 0.001172873 0 0 0 0
724000000 0.83804202 -0.234217375 0.000464698 0.001304 0 0 0 0
732000000 0.694606721 -0.495590806 0.000710515 0.001462285 0 0 0 0
740000000 0.458108931 -0.692417502 0.001008423 0.001458729 0 0 0 0
748000000 0.150071427 -0.791345298 0.00131052 0.00104497 0 0 0 0
756000000 -0.188857302 -0.749680101 0.001277499 0.000644272 0 0 0 0
764000000 -0.491606891 -0.542819142 0.001345083 0.000412472 0 0 0 0
772000000 -0.654464662 -0.184985861 0.001179177 -0.000317398 0 0 0 0
780000000 -0.577886879 0.236880227 0.000482444 -0.000709792 0 0 0 0
788000000 -0.219289943 0.534906446 -0.000577045 -0.000857842 0 0 0 0
796000000 0.266649931 0.506226181 -0.001889503 -0.000178278 0 0 0 0
804000000 0.578809797 0.146202847 -0.002180904 0.001809292 0 0 0 0
812000000 0.542245566 -0.304257035 -0.000579609 0.003518789 0 0 0 0
820000000 0.249568462 -0.582569599 0.001893613 0.00341004 0 0 0 0
828000000 -0.126263305 -0.634056687 0.003057131 0.002257154 0 0 0 0
836000000 -0.432491749 -0.497898459 0.003940773 0.000828152 0 0 0 0
844000000 -0.633051335 -0.255721598 0.004879418 -0.000769403 0 0 0 0
852000000 -0.703489243 0.024273056 0.005480813 -0.002376831 0 0 0 0
860000000 -0.658404469 0.286762952 0.005785252 -0.004653789 0 0 0 0
868000000 -0.51353389 0.485067307 0.005270514 -0.008278611 0 0 0 0
876000000 -0.29509291 0.585908174 0.00286012 -0.012488398 0 0 0 0
884000000 -0.064759843 0.568914413 -0.004235642 -0.016381496 0 0 0 0
892000000 0.116009004 0.426418572 -0.016400566 -0.014404961 0 0 0 0
900000000 0.334998518 0.195662766 -0.028369443 0.002172262 0 0 0 0
908000000 0.259646534 0.056309793 -0.023482644 0.026627004 0 0 0 0
916000000 0.126954048 0.016786869 0.005293617 0.038744881 0 0 0 0
924000000 0.008962085 0.073597915 0.033669892 0.020361078 0 0 0 0
932000000 -0.013561621 0.22609426 0.033699158 -0.01154961 0 0 0 0
940000000 0.113940715 0.384427338 0.012670466 -0.024810265 0 0 0 0
948000000 0.372722327 0.376701205 -0.004102341 -0.020256986 0 0 0 0
956000000 0.546790361 0.206977918 -0.009470292 -0.011789568 0 0 0 0
964000000 0.603579401 -0.043276507 -0.010401261 -0.003767293 0 0 0 0
972000000 0.513600826 -0.293342083 -0.008422956 0.001164633 0 0 0 0
980000000 0.306371062 -0.497839868 -0.005260418 0.003338831 0 0 0 0
988000000 0.033580224 -0.566241741 -0.003923066 0.004009624 0 0 0 0
996000000 -0.249859467 -0.528209686 -0.001942021 0.003485491 0 0 0 0
1004000000 -0.486178845 -0.390934765 -0.00169346 0.002875371 0 0 0 0
