# Hz S RI R 50
700000000 0.749932646 0.560799419 8.6225e-05 0.000668395 0 0 0 0
708000000 0.858779251 0.314050972 5.4253e-05 0.001048102 0 0 0 0
716000000 0.894134044 0.044762682 7.7809e-05 0.001170041 0 0 0 0
724000000 0.840095102 -0.233268663 0.000400507 0.001222953 0 0 0 0
732000000 0.696812331 -0.492021739 0.000639421 0.001436894 0 0 0 0
740000000 0.461829274 -0.690639913 0.000852416 0.001264194 0 0 0 0
748000000 0.154389351 -0.796129226 0.001115366 0.000877436 0 0 0 0
756000000 -0.186964333 -0.753356993 0.001068323 0.000745586 0 0 0 0
764000000 -0.487728089 -0.553567469 0.000649643 0.000354744 0 0 0 0
772000000 -0.66078639 -0.19592227 0.000550391 0.000489258 0 0 0 0
780000000 -0.59150213 0.23274891 0.000348121 0.000596632 0 0 0 0
788000000 -0.234951272 0.542214632 0.000160129 0.000619444 0 0 0 0
796000000 0.259816914 0.523805737 8.8641e-05 0.000814034 0 0 0 0
804000000 0.588118851 0.163744494 2.4046e-05 0.000962089 0 0 0 0
812000000 0.562876343 -0.298285067 0.000407621 0.001339693 0 0 0 0
820000000 0.268994748 -0.592285215 0.001130443 0.001333872 0 0 0 0
828000000 -0.113212533 -0.651195287 0.001723866 0.001051189 0 0 0 0
836000000 -0.433794677 -0.520355939 0.002438555 0.000184555 0 0 0 0
844000000 -0.63774228 -0.27350232 0.002986785 -0.000683919 0 0 0 0
852000000 -0.72140783 0.008285559 0.003386763 -0.001672116 0 0 0 0
860000000 -0.684812903 0.278034895 0.004007214 -0.003312978 0 0 0 0
868000000 -0.537212729 0.495715022 0.003827032 -0.00579901 0 0 0 0
876000000 -0.315020292 0.616391837 0.002570644 -0.008622906 0 0 0 0
884000000 -0.062205482 0.61002469 -0.001613497 -0.011461722 0 0 0 0
892000000 0.147496148 0.461474061 -0.009541517 -0.011331056 0 0 0 0
900000000 0.385003983 0.188759744 -0.018693849 -0.002037762 0 0 0 0
908000000 0.28505519 0.004414347 -0.018659191 0.014057356 0 0 0 0
916000000 0.111372828 -0.038600608 -0.00271924 0.025721896 0 0 0 0
924000000 -0.035999629 0.044466864 0.016123456 0.018896186 0 0 0 0
932000000 -0.051056288 0.242877691 0.022886304 0.001704672 0 0 0 0
940000000 0.11086253 0.395196884 0.017226906 -0.011539299 0 0 0 0
948000000 0.374799162 0.392413616 0.005329497 -0.016812039 0 0 0 0
956000000 0.537415742 0.211970761 -0.003617347 -0.013715445 0 0 0 0
964000000 0.609873652 -0.03805099 -0.008035256 -0.007358526 0 0 0 0
972000000 0.514453053 -0.295194655 -0.008435809 -0.001848691 0 0 0 0
980000000 0.315554738 -0.498009264 -0.005983316 0.000700583 0 0 0 0
988000000 0.04070824 -0.567602217 -0.004461665 0.003084679 0 0 0 0
996000000 -0.249259397 -0.530064702 -0.003781344 0.002791399 0 0 0 0
1004000000 -0.480727016 -0.394632786 -0.002921456 0.002605143 0 0 0 0
