# Hz S RI R 50
700000000 0.745933949 0.558029651 7.3889e-05 0.000466732 0 0 0 0
708000000 0.859320819 0.315757125 0.000111343 0.000834072 0 0 0 0
716000000 0.890919864 0.040971864 -5.6917e-05 0.001221971 0 0 0 0
724000000 0.843731701 -0.231696531 0.000162954 0.00123259 0 0 0 0
732000000 0.697038233 -0.492959082 0.00044098 0.00165699 0 0 0 0
740000000 0.4649733 -0.689920663 0.000658813 0.001609714 0 0 0 0
748000000 0.155692711 -0.792399108 0.00081888 0.001316279 0 0 0 0
756000000 -0.179853767 -0.753703057 0.00119704 0.001285753 0 0 0 0
764000000 -0.482299238 -0.558621048 0.001335938 0.001028516 0 0 0 0
772000000 -0.651796102 -0.207969024 0.001927001 0.000816595 0 0 0 0
780000000 -0.592314541 0.21528244 0.002325315 -0.000452743 0 0 0 0
788000000 -0.250111401 0.52365756 0.00130879 -0.002225453 0 0 0 0
796000000 0.228254407 0.520236432 -0.001433716 -0.003199447 0 0 0 0
804000000 0.56087017 0.179970204 -0.00505734 -0.001156817 0 0 0 0
812000000 0.552394449 -0.266019582 -0.005263119 0.004004098 0 0 0 0
820000000 0.279185354 -0.561118543 -0.00098938 0.007133231 0 0 0 0
828000000 -0.089051537 -0.633731722 0.003293592 0.006914943 0 0 0 0
836000000 -0.406445294 -0.512658059 0.006593277 0.004462102 0 0 0 0
844000000 -0.615087747 -0.278316557 0.009382205 0.000818579 0 0 0 0
852000000 -0.699299097 -0.008750927 0.010526097 -0.003204228 0 0 0 0
860000000 -0.664865672 0.255567044 0.010267515 -0.008478962 0 0 0 0
868000000 -0.530322492 0.460399806 0.007576372 -0.014955952 0 0 0 0
876000000 -0.320429593 0.575034201 0.000439684 -0.020896133 0 0 0 0
884000000 -0.093755304 0.566343247 -0.012742111 -0.022690664 0 0 0 0
892000000 0.084163725 0.435643017 -0.029972258 -0.013305412 0 0 0 0
900000000 0.31084153 0.209457412 -0.038900282 0.016076708 0 0 0 0
908000000 0.228705927 0.105175562 -0.018212469 0.043849874 0 0 0 0
916000000 0.142812401 0.096155494 0.019580757 0.045888934 0 0 0 0
924000000 0.108615808 0.111079514 0.04691229 0.017790455 0 0 0 0
932000000 0.061266183 0.173011496 0.043119832 -0.022475847 0 0 0 0
940000000 0.111505776 0.290264636 0.011229073 -0.039114788 0 0 0 0
948000000 0.326343923 0.350530952 -0.012724127 -0.026535792 0 0 0 0
956000000 0.505597889 0.207635104 -0.017482817 -0.011021264 0 0 0 0
964000000 0.588032662 -0.03192358 -0.015111766 -0.000707701 0 0 0 0
972000000 0.508328914 -0.29038757 -0.010797541 0.005107459 0 0 0 0
980000000 0.307100743 -0.488054722 -0.005019524 0.006923375 0 0 0 0
988000000 0.039551578 -0.566662847 -0.002030496 0.006432991 0 0 0 0
996000000 -0.24939005 -0.514766156 -0.000275077 0.00432058 0 0 0 0
1004000000 -0.486751317 -0.373043715 -6.4937e-05 0.003192203 0 0 0 0
