# Hz S RI R 50
700000000 0.750870823 0.558539628 -3.738e-06 0.000465155 0 0 0 0
708000000 0.858197808 0.313338339 -5.7551e-05 0.000801317 0 0 0 0
716000000 0.889839529 0.040501419 -7.6171e-05 0.001242017 0 0 0 0
724000000 0.844755291 -0.238557115 -9.735e-06 0.001357858 0 0 0 0
732000000 0.695028603 -0.495481312 0.000507976 0.001524574 0 0 0 0
740000000 0.46147421 -0.691422164 0.000556299 0.001554829 0 0 0 0
748000000 0.154228284 -0.794967293 0.000944013 0.00129024 0 0 0 0
756000000 -0.183479487 -0.756106793 0.000949405 0.001288469 0 0 0 0
764000000 -0.486751377 -0.555902302 0.001165276 0.000906913 0 0 0 0
772000000 -0.656181335 -0.205243214 0.001466173 0.000831643 0 0 0 0
780000000 -0.597909331 0.218041747 0.001530583 -8.2869e-05 0 0 0 0
788000000 -0.257722824 0.530741155 0.001164525 -0.000897872 0 0 0 0
796000000 0.227079525 0.532309353 -0.000531708 -0.002094379 0 0 0 0
804000000 0.568696022 0.197244301 -0.002936821 -0.000912683 0 0 0 0
812000000 0.571532368 -0.259160667 -0.003113373 0.002490686 0 0 0 0
820000000 0.29834029 -0.570891022 -0.000617765 0.004419843 0 0 0 0
828000000 -0.079409904 -0.652767837 0.002322339 0.004404574 0 0 0 0
836000000 -0.405194014 -0.534685432 0.004617775 0.002765784 0 0 0 0
844000000 -0.622107207 -0.297593951 0.006283701 0.000525847 0 0 0 0
852000000 -0.716161489 -0.01820454 0.007439266 -0.002133844 0 0 0 0
860000000 -0.689297616 0.251368463 0.007654216 -0.005814632 0 0 0 0
868000000 -0.555466234 0.470317602 0.006552313 -0.010374592 0 0 0 0
876000000 -0.339621931 0.600894927 0.002340235 -0.015402639 0 0 0 0
884000000 -0.097483903 0.60741198 -0.006664045 -0.018396833 0 0 0 0
892000000 0.109158433 0.468309253 -0.020631514 -0.013941267 0 0 0 0
900000000 0.344905316 0.222015157 -0.030346436 0.005942365 0 0 0 0
908000000 0.264140099 0.103376686 -0.019834572 0.030218023 0 0 0 0
916000000 0.184889048 0.065545372 0.008116001 0.037155129 0 0 0 0
924000000 0.106751881 0.040345355 0.03251753 0.021052539 0 0 0 0
932000000 0.008402225 0.125186413 0.037066694 -0.01032108 0 0 0 0
940000000 0.058670043 0.319570839 0.01381715 -0.028845427 0 0 0 0
948000000 0.312967419 0.388846427 -0.005129745 -0.022447321 0 0 0 0
956000000 0.509495258 0.239465847 -0.010299393 -0.01302208 0 0 0 0
964000000 0.603367507 -0.024135839 -0.012008318 -0.004372933 0 0 0 0
972000000 0.522377729 -0.287249028 -0.010658464 0.001515033 0 0 0 0
980000000 0.323488473 -0.489225536 -0.006235676 0.00472708 0 0 0 0
988000000 0.047022487 -0.579613029 -0.003872365 0.005915056 0 0 0 0
996000000 -0.243873402 -0.531188189 -0.001754818 0.004935018 0 0 0 0
1004000000 -0.487117379 -0.395058035 -0.000434866 0.003916194 0 0 0 0
