# Hz S RI R 50
700000000 0.745305955 0.559469759 0.000115197 0.000626104 0 0 0 0
708000000 0.857722699 0.31810528 1.7722e-05 0.000812952 0 0 0 0
716000000 0.892341911 0.042307026 0.000123596 0.001011014 0 0 0 0
724000000 0.844504237 -0.236784487 0.00024694 0.001304387 0 0 0 0
732000000 0.696892261 -0.491923838 0.000237065 0.001374394 0 0 0 0
740000000 0.464948594 -0.688569724 0.000498243 0.001429885 0 0 0 0
748000000 0.15616329 -0.789966523 0.000900437 0.001371748 0 0 0 0
756000000 -0.180380955 -0.754132032 0.000875558 0.00111181 0 0 0 0
764000000 -0.482968509 -0.554029583 0.001139707 0.001087979 0 0 0 0
772000000 -0.652646064 -0.2006848 0.001468003 0.000954328 0 0 0 0
780000000 -0.591428399 0.220664471 0.001845123 0.000387395 0 0 0 0
788000000 -0.249260619 0.526533007 0.00157661 -0.000830934 0 0 0 0
796000000 0.233669757 0.524167299 0.000221066 -0.001925198 0 0 0 0
804000000 0.564683198 0.185408413 -0.002391847 -0.001428082 0 0 0 0
812000000 0.561962246 -0.266534119 -0.003491414 0.00130613 0 0 0 0
820000000 0.284024119 -0.56930232 -0.001586902 0.004202817 0 0 0 0
828000000 -0.090837582 -0.63941735 0.001343741 0.004832007 0 0 0 0
836000000 -0.409831613 -0.517245233 0.004130154 0.003598083 0 0 0 0
844000000 -0.621466696 -0.284111559 0.006438616 0.00144838 0 0 0 0
852000000 -0.703983306 -0.006044626 0.00780855 -0.001482043 0 0 0 0
860000000 -0.669999718 0.260534256 0.008370116 -0.005323231 0 0 0 0
868000000 -0.530994892 0.469115227 0.0073416 -0.010598476 0 0 0 0
876000000 -0.314477294 0.578746736 0.003049312 -0.015940025 0 0 0 0
884000000 -0.090040802 0.565678238 -0.00632415 -0.019208692 0 0 0 0
892000000 0.083330661 0.426852941 -0.020242242 -0.014738757 0 0 0 0
900000000 0.297269463 0.20494613 -0.030803754 0.005847306 0 0 0 0
908000000 0.219760209 0.119503214 -0.02077056 0.028329949 0 0 0 0
916000000 0.166695371 0.091929912 0.004903194 0.035991109 0 0 0 0
924000000 0.093803517 0.095283813 0.028499234 0.023222731 0 0 0 0
932000000 0.036645695 0.179568171 0.03511082 -0.004100482 0 0 0 0
940000000 0.112499713 0.324445843 0.019564593 -0.023137517 0 0 0 0
948000000 0.344076156 0.345006674 0.001706299 -0.024208873 0 0 0 0
956000000 0.516446709 0.186680108 -0.008909586 -0.017429923 0 0 0 0
964000000 0.577302873 -0.046914465 -0.01359985 -0.007813911 0 0 0 0
972000000 0.495697826 -0.294194459 -0.012776309 -8.7494e-05 0 0 0 0
980000000 0.302154779 -0.493569761 -0.008605903 0.004724769 0 0 0 0
988000000 0.031235599 -0.563197612 -0.004604103 0.005993373 0 0 0 0
996000000 -0.244947612 -0.510866641 -0.002195603 0.005596297 0 0 0 0
1004000000 -0.485016077 -0.391550421 -0.001032201 0.004809181 0 0 0 0
