# Hz S RI R 50
700000000 0.745195925 0.557468175 5.816e-05 0.000578498 0 0 0 0
708000000 0.855651497 0.315233707 -4.5175e-05 0.000789547 0 0 0 0
716000000 0.891988396 0.041609037 -0.000100407 0.001167544 0 0 0 0
724000000 0.842288851 -0.234324052 5.7589e-05 0.001321323 0 0 0 0
732000000 0.697168886 -0.491583585 0.000217821 0.001609986 0 0 0 0
740000000 0.463900953 -0.689792335 0.000725398 0.001549585 0 0 0 0
748000000 0.157132446 -0.790168285 0.000815313 0.001375071 0 0 0 0
756000000 -0.183558493 -0.754947781 0.000966097 0.001285933 0 0 0 0
764000000 -0.48385027 -0.554943561 0.001358451 0.001177457 0 0 0 0
772000000 -0.655303657 -0.206796765 0.001711964 0.000818088 0 0 0 0
780000000 -0.590312421 0.216165661 0.002389112 -3.0077e-05 0 0 0 0
788000000 -0.250700265 0.524711847 0.0017923 -0.001839317 0 0 0 0
796000000 0.228781104 0.523014664 -0.000538318 -0.003045618 0 0 0 0
804000000 0.563823282 0.187970742 -0.003998337 -0.00191727 0 0 0 0
812000000 0.560322523 -0.262216657 -0.004640837 0.002287773 0 0 0 0
820000000 0.288283467 -0.565490841 -0.001535648 0.005408371 0 0 0 0
828000000 -0.08377055 -0.640751123 0.00205373 0.005564621 0 0 0 0
836000000 -0.403798699 -0.519870936 0.004895421 0.00399272 0 0 0 0
844000000 -0.612802267 -0.289799302 0.007075364 0.001142255 0 0 0 0
852000000 -0.704853057 -0.015791477 0.00847608 -0.001835063 0 0 0 0
860000000 -0.67669481 0.251058965 0.008810002 -0.005695831 0 0 0 0
868000000 -0.544386863 0.460560619 0.007385019 -0.010633091 0 0 0 0
876000000 -0.335665464 0.584252715 0.003497313 -0.0160875 0 0 0 0
884000000 -0.102775171 0.588691174 -0.005438731 -0.020087685 0 0 0 0
892000000 0.086875878 0.462316274 -0.02009565 -0.017096003 0 0 0 0
900000000 0.333800286 0.227088317 -0.034079965 0.001699034 0 0 0 0
908000000 0.265173375 0.100949451 -0.026407841 0.030085423 0 0 0 0
916000000 0.164816498 0.05308048 0.003062826 0.043493978 0 0 0 0
924000000 0.090677998 0.070953249 0.034393686 0.028474465 0 0 0 0
932000000 0.037837877 0.160031542 0.042736954 -0.006547592 0 0 0 0
940000000 0.092646844 0.305126756 0.020822441 -0.030587946 0 0 0 0
948000000 0.318145394 0.3547616 -0.00315059 -0.027532141 0 0 0 0
956000000 0.510272145 0.21713896 -0.012440669 -0.015847828 0 0 0 0
964000000 0.576979637 -0.025802403 -0.013635257 -0.005541159 0 0 0 0
972000000 0.510101318 -0.278544098 -0.011927736 0.001508441 0 0 0 0
980000000 0.314166247 -0.487924218 -0.00753634 0.0049656 0 0 0 0
988000000 0.047092355 -0.565518796 -0.004594965 0.006151407 0 0 0 0
996000000 -0.236496627 -0.527564644 -0.002176145 0.005225088 0 0 0 0
1004000000 -0.477520674 -0.391168534 -0.001082218 0.004978458 0 0 0 0
