# Hz S RI R 50
700000000 0.751561224 0.5552904 -0.000118917 0.000590633 0 0 0 0
708000000 0.857117056 0.313580989 -6.5022e-05 0.001041038 0 0 0 0
716000000 0.890829563 0.040991149 -0.000113508 0.001259183 0 0 0 0
724000000 0.841922283 -0.234055355 0.000129721 0.001349766 0 0 0 0
732000000 0.695312798 -0.493624329 0.000435711 0.00156374 0 0 0 0
740000000 0.46051687 -0.689992189 0.00076392 0.001728819 0 0 0 0
748000000 0.153334677 -0.788652777 0.001196284 0.00153828 0 0 0 0
756000000 -0.181885346 -0.752075552 0.001419725 0.001008469 0 0 0 0
764000000 -0.483165949 -0.550153017 0.001517069 0.000780991 0 0 0 0
772000000 -0.652452528 -0.203571125 0.001817646 0.000275956 0 0 0 0
780000000 -0.58580178 0.220148742 0.001741854 -0.000709695 0 0 0 0
788000000 -0.242595791 0.522268891 0.000616207 -0.001881993 0 0 0 0
796000000 0.232227176 0.514241874 -0.001339751 -0.002398146 0 0 0 0
804000000 0.556338369 0.17424494 -0.00421257 -0.000363777 0 0 0 0
812000000 0.54546678 -0.269253134 -0.00395194 0.003433985 0 0 0 0
820000000 0.270888864 -0.558103382 -0.000803672 0.005639688 0 0 0 0
828000000 -0.098418772 -0.626836299 0.002388536 0.005647739 0 0 0 0
836000000 -0.411100089 -0.501174688 0.005418222 0.003897343 0 0 0 0
844000000 -0.607660114 -0.269738972 0.007432509 0.001385918 0 0 0 0
852000000 -0.685912072 0.002919073 0.008946485 -0.001742823 0 0 0 0
860000000 -0.652040243 0.260994374 0.009708085 -0.005935441 0 0 0 0
868000000 -0.517095983 0.455978423 0.008527268 -0.012126851 0 0 0 0
876000000 -0.307165861 0.556082308 0.003735848 -0.018518911 0 0 0 0
884000000 -0.092478685 0.544561505 -0.007393289 -0.022999964 0 0 0 0
892000000 0.065330035 0.418250173 -0.025036551 -0.018196025 0 0 0 0
900000000 0.272501885 0.217971384 -0.038589902 0.006735364 0 0 0 0
908000000 0.212967485 0.132019937 -0.026849305 0.038013726 0 0 0 0
916000000 0.147812008 0.111761093 0.010299296 0.049071345 0 0 0 0
924000000 0.114020332 0.111029118 0.043127659 0.026525471 0 0 0 0
932000000 0.075615644 0.174137204 0.045924682 -0.014893348 0 0 0 0
940000000 0.128327637 0.302259564 0.016254762 -0.036597371 0 0 0 0
948000000 0.337126493 0.335463851 -0.007670985 -0.027355175 0 0 0 0
956000000 0.495584338 0.179764196 -0.014304093 -0.014117296 0 0 0 0
964000000 0.574718356 -0.053179603 -0.014419525 -0.004010446 0 0 0 0
972000000 0.497957587 -0.292436242 -0.012126001 0.002706022 0 0 0 0
980000000 0.297116428 -0.479389131 -0.00709334 0.005439002 0 0 0 0
988000000 0.032556284 -0.555197656 -0.00402631 0.006467967 0 0 0 0
996000000 -0.244533479 -0.50955516 -0.001089807 0.005856977 0 0 0 0
1004000000 -0.477337121 -0.383627027 -0.000427549 0.004637312 0 0 0 0
