# Hz S RI R 50
700000000 0.748456478 0.554558455 -8.2446e-05 0.000546313 0 0 0 0
708000000 0.856789231 0.314372986 -0.000207868 0.000760248 0 0 0 0
716000000 0.890737593 0.040666032 -0.00015132 0.001211408 0 0 0 0
724000000 0.843201577 -0.233375594 -0.000159262 0.001360177 0 0 0 0
732000000 0.69500339 -0.491631418 0.000235297 0.001680284 0 0 0 0
740000000 0.461626768 -0.685670077 0.000651564 0.001851699 0 0 0 0
748000000 0.154658764 -0.789911746 0.000965919 0.001656005 0 0 0 0
756000000 -0.182070687 -0.751125633 0.001428695 0.001501308 0 0 0 0
764000000 -0.482301026 -0.549150347 0.001834124 0.00124882 0 0 0 0
772000000 -0.650501251 -0.205827578 0.002194637 0.000578632 0 0 0 0
780000000 -0.586905598 0.215346515 0.002717614 -0.000615094 0 0 0 0
788000000 -0.245926856 0.523290932 0.001538043 -0.00248583 0 0 0 0
796000000 0.228068679 0.516194343 -0.001588826 -0.003475655 0 0 0 0
804000000 0.558640658 0.178253337 -0.005252921 -0.001183365 0 0 0 0
812000000 0.550738394 -0.266764551 -0.004884946 0.003807967 0 0 0 0
820000000 0.277487546 -0.559791684 -0.001074818 0.006335557 0 0 0 0
828000000 -0.092104591 -0.631389141 0.002805107 0.005892632 0 0 0 0
836000000 -0.406488686 -0.504982471 0.005522138 0.003757581 0 0 0 0
844000000 -0.610707163 -0.272133499 0.007564149 0.000953376 0 0 0 0
852000000 -0.689482986 -0.002951087 0.008817247 -0.002380027 0 0 0 0
860000000 -0.657065153 0.260200679 0.009225843 -0.006162738 0 0 0 0
868000000 -0.522238969 0.456297099 0.00791537 -0.011711382 0 0 0 0
876000000 -0.312996834 0.567588508 0.003210155 -0.01766224 0 0 0 0
884000000 -0.092765033 0.556324601 -0.007538639 -0.021874459 0 0 0 0
892000000 0.074460558 0.423689603 -0.024329116 -0.016885837 0 0 0 0
900000000 0.295526444 0.207294777 -0.037220396 0.008246052 0 0 0 0
908000000 0.218340054 0.113335974 -0.02415285 0.037255197 0 0 0 0
916000000 0.140908837 0.113671988 0.010927316 0.046012796 0 0 0 0
924000000 0.109823532 0.128324881 0.041360557 0.023573521 0 0 0 0
932000000 0.082952715 0.182528942 0.043348513 -0.014558382 0 0 0 0
940000000 0.133992731 0.304795175 0.014744442 -0.034867174 0 0 0 0
948000000 0.339412003 0.336066097 -0.008577764 -0.0265909 0 0 0 0
956000000 0.502119004 0.191170141 -0.014142324 -0.013046854 0 0 0 0
964000000 0.577841043 -0.046364333 -0.014067482 -0.002873326 0 0 0 0
972000000 0.491692394 -0.290154039 -0.01071364 0.002726132 0 0 0 0
980000000 0.296822994 -0.482874691 -0.006595755 0.005259954 0 0 0 0
988000000 0.035841435 -0.560477972 -0.004128834 0.006031525 0 0 0 0
996000000 -0.251353502 -0.514592945 -0.001992847 0.004744987 0 0 0 0
1004000000 -0.486971259 -0.376020818 -0.000457976 0.00439574 0 0 0 0
