# Hz S RI R 50
700000000 0.7480008 0.555744051 6.9878e-05 0.000648868 0 0 0 0
708000000 0.859966516 0.311269223 0.000170699 0.0010293 0 0 0 0
716000000 0.892814397 0.041520606 0.000294987 0.001259183 0 0 0 0
724000000 0.842068791 -0.23690325 0.000397945 0.001238082 0 0 0 0
732000000 0.694403588 -0.495048642 0.000727573 0.001218417 0 0 0 0
740000000 0.459105819 -0.694640755 0.000835422 0.001232442 0 0 0 0
748000000 0.149660751 -0.791360437 0.001102958 0.001003321 0 0 0 0
756000000 -0.186229735 -0.753011822 0.001033185 0.000492112 0 0 0 0
764000000 -0.491130143 -0.548658132 0.000673282 0.000247299 0 0 0 0
772000000 -0.654083847 -0.192705288 0.000588495 5.8186e-05 0 0 0 0
780000000 -0.583324968 0.229795634 0.000174542 0.000288457 0 0 0 0
788000000 -0.229721367 0.531988501 -0.000113593 0.00046157 0 0 0 0
796000000 0.254427313 0.508953869 -0.000405631 0.00064679 0 0 0 0
804000000 0.57330358 0.151490762 -0.000611358 0.001221572 0 0 0 0
812000000 0.541250526 -0.295235902 0.000164506 0.002002734 0 0 0 0
820000000 0.250578552 -0.57901442 0.001202792 0.001922947 0 0 0 0
828000000 -0.121854528 -0.632380306 0.002173749 0.001468109 0 0 0 0
836000000 -0.433247834 -0.49714452 0.002892206 0.000820034 0 0 0 0
844000000 -0.62749195 -0.248511046 0.003865205 -0.000475869 0 0 0 0
852000000 -0.697918534 0.029392153 0.004625522 -0.001992577 0 0 0 0
860000000 -0.649073541 0.290332406 0.005417253 -0.003839329 0 0 0 0
868000000 -0.495166152 0.487639367 0.00531017 -0.007067056 0 0 0 0
876000000 -0.266332417 0.579875826 0.003361624 -0.011422065 0 0 0 0
884000000 -0.033313248 0.5323053 -0.002729761 -0.015442506 0 0 0 0
892000000 0.112720541 0.354055911 -0.014576079 -0.014639083 0 0 0 0
900000000 0.259590744 0.125512242 -0.027545787 -0.000378467 0 0 0 0
908000000 0.135420277 0.074305735 -0.022075818 0.024583002 0 0 0 0
916000000 0.067205175 0.124190479 0.00478188 0.03525367 0 0 0 0
924000000 0.05437294 0.168943569 0.028824089 0.017706546 0 0 0 0
932000000 0.057189576 0.269131809 0.026965737 -0.009458012 0 0 0 0
940000000 0.17425169 0.3765347 0.010736243 -0.017795927 0 0 0 0
948000000 0.417805254 0.348579049 0.00067484 -0.015310866 0 0 0 0
956000000 0.569904625 0.165840223 -0.004460604 -0.011334089 0 0 0 0
964000000 0.602412283 -0.092080138 -0.007372746 -0.006466259 0 0 0 0
972000000 0.500489592 -0.332477688 -0.008467876 -0.00195887 0 0 0 0
980000000 0.282272726 -0.525565087 -0.005938107 0.001098408 0 0 0 0
988000000 0.004463338 -0.567772448 -0.005478647 0.002549429 0 0 0 0
996000000 -0.271816551 -0.520566165 -0.003676128 0.002429598 0 0 0 0
1004000000 -0.511146843 -0.373122036 -0.003337757 0.00381807 0 0 0 0
