# Hz S RI R 50
700000000 0.7511096 0.555347263 7.4639e-05 0.000695772 0 0 0 0
708000000 0.858430802 0.31333369 5.2498e-05 0.000786667 0 0 0 0
716000000 0.892298579 0.038133624 8.3947e-05 0.001237519 0 0 0 0
724000000 0.839446127 -0.238065019 0.000364898 0.001280735 0 0 0 0
732000000 0.696563363 -0.492036998 0.000485103 0.001473716 0 0 0 0
740000000 0.459927231 -0.691647827 0.000924834 0.001368436 0 0 0 0
748000000 0.155990749 -0.791860699 0.001088264 0.00104362 0 0 0 0
756000000 -0.184532582 -0.754878401 0.00095673 0.000985027 0 0 0 0
764000000 -0.4866665 -0.550041556 0.001056451 0.000679397 0 0 0 0
772000000 -0.654363274 -0.19846934 0.001143799 0.00047671 0 0 0 0
780000000 -0.582654654 0.226875349 0.001334492 -0.000100304 0 0 0 0
788000000 -0.234404638 0.530967772 0.000926143 -0.00085266 0 0 0 0
796000000 0.252108633 0.50946182 -0.000695839 -0.001507968 0 0 0 0
804000000 0.568753778 0.159046083 -0.002859782 -0.000270247 0 0 0 0
812000000 0.539545357 -0.287674754 -0.002712287 0.002777877 0 0 0 0
820000000 0.257768511 -0.573263049 -0.000423914 0.004438599 0 0 0 0
828000000 -0.111504197 -0.630501866 0.002486055 0.004375163 0 0 0 0
836000000 -0.417643725 -0.500623464 0.004551236 0.003030146 0 0 0 0
844000000 -0.619784891 -0.26372388 0.00643795 0.000686772 0 0 0 0
852000000 -0.6906479 0.008957003 0.007565094 -0.001874151 0 0 0 0
860000000 -0.658007383 0.269692093 0.008121508 -0.005435199 0 0 0 0
868000000 -0.519611954 0.467060297 0.00737012 -0.010491332 0 0 0 0
876000000 -0.306514829 0.574669837 0.003421093 -0.016323339 0 0 0 0
884000000 -0.086661361 0.56582874 -0.006395787 -0.020319145 0 0 0 0
892000000 0.087516285 0.438427925 -0.021757995 -0.016256622 0 0 0 0
900000000 0.320213407 0.218537718 -0.035050339 0.004440032 0 0 0 0
908000000 0.258449494 0.099324695 -0.025022203 0.034205168 0 0 0 0
916000000 0.156945958 0.047923076 0.009403748 0.045191783 0 0 0 0
924000000 0.059432163 0.060203712 0.040803086 0.021359143 0 0 0 0
932000000 -0.005331117 0.189138114 0.038545649 -0.01635427 0 0 0 0
940000000 0.096461109 0.352229207 0.012151494 -0.030566826 0 0 0 0
948000000 0.35224083 0.376368522 -0.006381046 -0.022225053 0 0 0 0
956000000 0.531989216 0.196105882 -0.011510158 -0.011153108 0 0 0 0
964000000 0.596153795 -0.034733798 -0.011586395 -0.003112012 0 0 0 0
972000000 0.522764146 -0.287937253 -0.008975751 0.002344697 0 0 0 0
980000000 0.313831448 -0.488610297 -0.004943717 0.004217448 0 0 0 0
988000000 0.04668292 -0.56444782 -0.002912988 0.004354462 0 0 0 0
996000000 -0.245947211 -0.527344644 -0.001532738 0.003263294 0 0 0 0
1004000000 -0.489530712 -0.393277674 -0.001329313 0.002970392 0 0 0 0
