# Hz S RI R 50
700000000 0.746228575 0.552538812 3.4159e-05 0.000584775 0 0 0 0
708000000 0.85573548 0.313773691 -5.5067e-05 0.000924104 0 0 0 0
716000000 0.893596529 0.044863119 8.5953e-05 0.001231941 0 0 0 0
724000000 0.83599323 -0.235545814 0.000154112 0.001477294 0 0 0 0
732000000 0.697337806 -0.491906434 0.000417558 0.001544218 0 0 0 0
740000000 0.460138589 -0.690217971 0.000645277 0.00137818 0 0 0 0
748000000 0.153976038 -0.790880739 0.001133785 0.001402496 0 0 0 0
756000000 -0.183833837 -0.753828167 0.001061727 0.001027051 0 0 0 0
764000000 -0.483924061 -0.553764343 0.001347546 0.000691595 0 0 0 0
772000000 -0.658261835 -0.198671534 0.001684623 0.000409939 0 0 0 0
780000000 -0.588678002 0.223393157 0.001574617 -0.000390192 0 0 0 0
788000000 -0.239917546 0.532645642 0.000846575 -0.001505565 0 0 0 0
796000000 0.241978362 0.517784953 -0.001260938 -0.001696759 0 0 0 0
804000000 0.570650696 0.173011347 -0.003098845 -6.875e-05 0 0 0 0
812000000 0.556346178 -0.277195602 -0.003018447 0.002728897 0 0 0 0
820000000 0.272371262 -0.573304772 -0.000407573 0.004258157 0 0 0 0
828000000 -0.099870346 -0.640930712 0.001928144 0.003883939 0 0 0 0
836000000 -0.41724947 -0.51413697 0.003779463 0.002942303 0 0 0 0
844000000 -0.621811628 -0.276838868 0.005715146 0.001330479 0 0 0 0
852000000 -0.702950477 -0.003506765 0.007399308 -0.00085379 0 0 0 0
860000000 -0.668878674 0.265709459 0.008401225 -0.004060748 0 0 0 0
868000000 -0.530220687 0.471225947 0.008646061 -0.008980735 0 0 0 0
876000000 -0.319975316 0.58573544 0.006101224 -0.01534406 0 0 0 0
884000000 -0.089202649 0.578655123 -0.002444147 -0.021538581 0 0 0 0
892000000 0.092984125 0.447267532 -0.018539272 -0.021481174 0 0 0 0
900000000 0.335102915 0.230234861 -0.038102801 -0.001867139 0 0 0 0
908000000 0.259823828 0.095495678 -0.03378316 0.031041497 0 0 0 0
916000000 0.16432847 0.046988092 0.000432198 0.05081693 0 0 0 0
924000000 0.078201703 0.055733315 0.039172824 0.034240752 0 0 0 0
932000000 0.009549642 0.165311291 0.048652112 -0.009429943 0 0 0 0
940000000 0.086987741 0.31696403 0.020172504 -0.034447636 0 0 0 0
948000000 0.323896348 0.366965889 -0.005796778 -0.027781685 0 0 0 0
956000000 0.503845453 0.219775587 -0.01308528 -0.014369678 0 0 0 0
964000000 0.597681999 -0.023471845 -0.013592507 -0.004500969 0 0 0 0
972000000 0.516489386 -0.277186632 -0.010350132 0.001736401 0 0 0 0
980000000 0.315033048 -0.487451672 -0.00624298 0.004317784 0 0 0 0
988000000 0.045257478 -0.575470983 -0.003651978 0.004726077 0 0 0 0
996000000 -0.233350977 -0.524660527 -0.002160586 0.003846915 0 0 0 0
1004000000 -0.481874257 -0.396169096 -0.002063638 0.003409652 0 0 0 0
