# Hz S RI R 50
700000000 0.74670279 0.559407711 5.2858e-05 0.000732523 0 0 0 0
708000000 0.858159422 0.313939213 0.000272229 0.000895812 0 0 0 0
716000000 0.891285002 0.043370626 0.000375579 0.001131496 0 0 0 0
724000000 0.84623003 -0.236990734 0.000274575 0.001286279 0 0 0 0
732000000 0.698295831 -0.494267523 0.000761441 0.001334789 0 0 0 0
740000000 0.463280946 -0.691577911 0.000784236 0.001022448 0 0 0 0
748000000 0.155717879 -0.791643619 0.000804815 0.000843871 0 0 0 0
756000000 -0.183949187 -0.752436518 0.000749021 0.000643458 0 0 0 0
764000000 -0.489296436 -0.550805091 0.000806171 0.000615192 0 0 0 0
772000000 -0.655177474 -0.198454409 0.000465205 0.000720458 0 0 0 0
780000000 -0.588640391 0.22798413 0.000631726 0.000510164 0 0 0 0
788000000 -0.239897027 0.535839557 0.000572349 0.000601235 0 0 0 0
796000000 0.248915567 0.520747482 0.000460691 0.000222191 0 0 0 0
804000000 0.575677573 0.168718501 -0.000255528 0.00023746 0 0 0 0
812000000 0.557228624 -0.28804323 -0.000548751 0.001193471 0 0 0 0
820000000 0.268978983 -0.580032408 0.000366676 0.001996638 0 0 0 0
828000000 -0.108006753 -0.64359641 0.0013461 0.001933323 0 0 0 0
836000000 -0.423651307 -0.512905538 0.002606873 0.001170969 0 0 0 0
844000000 -0.627256214 -0.270688265 0.003720535 8.1897e-05 0 0 0 0
852000000 -0.705463111 0.007943315 0.004715477 -0.001276086 0 0 0 0
860000000 -0.664898633 0.276685357 0.00569981 -0.003395523 0 0 0 0
868000000 -0.520111203 0.480830132 0.005534378 -0.006578373 0 0 0 0
876000000 -0.29448843 0.585720479 0.003939748 -0.010713516 0 0 0 0
884000000 -0.065404281 0.562668263 -0.001582269 -0.014508222 0 0 0 0
892000000 0.105368442 0.408042967 -0.012007087 -0.014286135 0 0 0 0
900000000 0.305668205 0.182734757 -0.023934509 -0.001893818 0 0 0 0
908000000 0.2131197 0.088467799 -0.021133825 0.016685673 0 0 0 0
916000000 0.133451357 0.075346305 -0.002933734 0.028477203 0 0 0 0
924000000 0.060097243 0.095871061 0.017136808 0.021771471 0 0 0 0
932000000 0.030015135 0.213905736 0.025231834 0.003723439 0 0 0 0
940000000 0.130214884 0.356906443 0.01941953 -0.011100521 0 0 0 0
948000000 0.369912296 0.358382046 0.007605369 -0.017306813 0 0 0 0
956000000 0.529197216 0.189920902 -0.001385018 -0.016003945 0 0 0 0
964000000 0.588961541 -0.058142632 -0.00751587 -0.01017744 0 0 0 0
972000000 0.500989615 -0.310952603 -0.009423937 -0.003746037 0 0 0 0
980000000 0.30878362 -0.500830233 -0.007590818 0.00022095 0 0 0 0
988000000 0.029405703 -0.561266541 -0.006381106 0.002817612 0 0 0 0
996000000 -0.256413638 -0.516326785 -0.005033161 0.00330755 0 0 0 0
1004000000 -0.487939864 -0.383556276 -0.003989045 0.00383506 0 0 0 0
