# Hz S RI R 50
700000000 0.751348555 0.556749761 0.000102956 0.000606094 0 0 0 0
708000000 0.857242226 0.317483574 0.000111573 0.001004805 0 0 0 0
716000000 0.89260739 0.045627817 -3.7327e-05 0.0012298 0 0 0 0
724000000 0.836633563 -0.234810277 0.000284623 0.001500938 0 0 0 0
732000000 0.698234856 -0.490360319 0.000594679 0.001380291 0 0 0 0
740000000 0.464959114 -0.688522577 0.000782742 0.001366202 0 0 0 0
748000000 0.157592535 -0.790085971 0.001096849 0.001086086 0 0 0 0
756000000 -0.179041713 -0.754293978 0.00108621 0.000902621 0 0 0 0
764000000 -0.482288628 -0.555667102 0.001236767 0.000762685 0 0 0 0
772000000 -0.65319544 -0.20590195 0.001287917 0.000464397 0 0 0 0
780000000 -0.593128561 0.215889602 0.001204844 -0.000183964 0 0 0 0
788000000 -0.250636249 0.531195759 0.000374179 -0.001029859 0 0 0 0
796000000 0.236207395 0.521301925 -0.000890748 -0.001307944 0 0 0 0
804000000 0.565211772 0.179467394 -0.002801121 0.00018308 0 0 0 0
812000000 0.556250512 -0.269896298 -0.002152863 0.002685734 0 0 0 0
820000000 0.278342753 -0.566772699 0.000133172 0.003840704 0 0 0 0
828000000 -0.092240147 -0.636219918 0.0020797 0.00342505 0 0 0 0
836000000 -0.408679395 -0.513766646 0.003650692 0.002419758 0 0 0 0
844000000 -0.617546558 -0.282224267 0.004900254 0.00076268 0 0 0 0
852000000 -0.696046411 -0.011975828 0.006330944 -0.001209461 0 0 0 0
860000000 -0.666773498 0.254823029 0.007436505 -0.003755065 0 0 0 0
868000000 -0.538128733 0.457274585 0.007313907 -0.008041542 0 0 0 0
876000000 -0.332174718 0.576721012 0.005080644 -0.013250336 0 0 0 0
884000000 -0.10997226 0.576422095 -0.001690012 -0.018311236 0 0 0 0
892000000 0.072562657 0.464494436 -0.014654007 -0.018632095 0 0 0 0
900000000 0.330042749 0.258107811 -0.030222594 -0.004605688 0 0 0 0
908000000 0.279589474 0.11706344 -0.030817652 0.022515654 0 0 0 0
916000000 0.193297281 0.05637012 -0.005286533 0.042463101 0 0 0 0
924000000 0.101986274 0.050589792 0.028313286 0.03334387 0 0 0 0
932000000 0.024762732 0.129833608 0.040825299 -0.000597552 0 0 0 0
940000000 0.071962073 0.297323048 0.022696925 -0.024847585 0 0 0 0
948000000 0.291882485 0.376116305 0.002350499 -0.024912664 0 0 0 0
956000000 0.498853355 0.226968199 -0.0080403 -0.016543738 0 0 0 0
964000000 0.583901226 -0.010430122 -0.011323693 -0.008250379 0 0 0 0
972000000 0.516452789 -0.276479601 -0.011215269 -0.001081958 0 0 0 0
980000000 0.324548184 -0.476066231 -0.008263332 0.002211855 0 0 0 0
988000000 0.053222548 -0.565393686 -0.005651364 0.004677479 0 0 0 0
996000000 -0.213869377 -0.527382254 -0.003031142 0.004166458 0 0 0 0
1004000000 -0.477369964 -0.392917662 -0.002614607 0.004679972 0 0 0 0
