# Hz S RI R 50
700000000 0.750591337 0.556704699 5.8088e-05 0.000728993 0 0 0 0
708000000 0.858685076 0.312062203 7.1581e-05 0.000870882 0 0 0 0
716000000 0.891267001 0.038395728 2.8194e-05 0.001196822 0 0 0 0
724000000 0.844217717 -0.240212857 0.000400505 0.001313977 0 0 0 0
732000000 0.691677927 -0.495537489 0.00074529 0.001273381 0 0 0 0
740000000 0.457560718 -0.69170022 0.000819291 0.00128725 0 0 0 0
748000000 0.150802403 -0.7894876 0.000805862 0.001158875 0 0 0 0
756000000 -0.186555907 -0.749093055 0.001104408 0.00074901 0 0 0 0
764000000 -0.488030791 -0.545675992 0.001004695 0.000834172 0 0 0 0
772000000 -0.656643569 -0.191488608 0.001299418 0.00066803 0 0 0 0
780000000 -0.580356001 0.228646114 0.001392589 7.3775e-05 0 0 0 0
788000000 -0.229843571 0.528052806 0.000852875 -0.000494747 0 0 0 0
796000000 0.246734976 0.503031075 -0.000460288 -0.00111728 0 0 0 0
804000000 0.562691807 0.15581195 -0.002228595 -0.000417324 0 0 0 0
812000000 0.532811701 -0.288263976 -0.002372455 0.002246991 0 0 0 0
820000000 0.250140368 -0.567865192 -0.000245117 0.00371171 0 0 0 0
828000000 -0.117491632 -0.620159268 0.001918853 0.003506499 0 0 0 0
836000000 -0.420071423 -0.488694876 0.003841429 0.002169789 0 0 0 0
844000000 -0.615399718 -0.251710981 0.005557217 0.000680725 0 0 0 0
852000000 -0.681655406 0.020492553 0.006616422 -0.001350792 0 0 0 0
860000000 -0.640023112 0.273574113 0.007456222 -0.004535324 0 0 0 0
868000000 -0.493338167 0.463243484 0.007256288 -0.008733026 0 0 0 0
876000000 -0.28689593 0.550449788 0.004316932 -0.01427971 0 0 0 0
884000000 -0.080392092 0.522801399 -0.003620029 -0.019046556 0 0 0 0
892000000 0.060227092 0.394816458 -0.01813494 -0.017337733 0 0 0 0
900000000 0.26130256 0.203480407 -0.032619688 0.001476514 0 0 0 0
908000000 0.213032349 0.134713217 -0.026621289 0.027847925 0 0 0 0
916000000 0.155480504 0.098741926 0.002263692 0.042578734 0 0 0 0
924000000 0.086208626 0.109158001 0.034390419 0.026860371 0 0 0 0
932000000 0.046348158 0.203333735 0.040394201 -0.00797774 0 0 0 0
940000000 0.133070722 0.331649959 0.018456479 -0.028012571 0 0 0 0
948000000 0.368954509 0.348735809 -0.002785748 -0.024549044 0 0 0 0
956000000 0.538011908 0.187918648 -0.010538936 -0.014137008 0 0 0 0
964000000 0.580920696 -0.063461944 -0.011737046 -0.005269437 0 0 0 0
972000000 0.498666346 -0.307498306 -0.010115311 0.000610741 0 0 0 0
980000000 0.287419557 -0.498907625 -0.00654474 0.003584275 0 0 0 0
988000000 0.021899623 -0.569087266 -0.003779527 0.004498895 0 0 0 0
996000000 -0.252893567 -0.514319837 -0.002020121 0.003763611 0 0 0 0
1004000000 -0.493213921 -0.381424069 -0.002059831 0.003292119 0 0 0 0
