# Hz S RI R 50
700000000 0.751098871 0.558421373 6.707e-06 0.00071743 0 0 0 0
708000000 0.860835909 0.311859607 3.6045e-05 0.000914462 0 0 0 0
716000000 0.889080584 0.041360061 0.000149719 0.001106319 0 0 0 0
724000000 0.83724308 -0.234520643 0.00030422 0.001575232 0 0 0 0
732000000 0.695032715 -0.49311456 0.00060797 0.001384734 0 0 0 0
740000000 0.45875284 -0.691983103 0.000841468 0.001298004 0 0 0 0
748000000 0.153846725 -0.789248228 0.001345168 0.001233709 0 0 0 0
756000000 -0.184529408 -0.752221822 0.001393658 0.000917141 0 0 0 0
764000000 -0.487653464 -0.54948318 0.001308582 0.00050255 0 0 0 0
772000000 -0.654082417 -0.197401374 0.001493185 0.000186881 0 0 0 0
780000000 -0.58098495 0.223058938 0.001226515 -0.000713267 0 0 0 0
788000000 -0.235308483 0.528667569 0.000379601 -0.001322562 0 0 0 0
796000000 0.240055903 0.510894656 -0.001535647 -0.001172839 0 0 0 0
804000000 0.561059951 0.165943279 -0.003065584 0.000548685 0 0 0 0
812000000 0.543351292 -0.278375327 -0.002317651 0.003269839 0 0 0 0
820000000 0.264784961 -0.56471318 0.000225292 0.004250632 0 0 0 0
828000000 -0.105597235 -0.626146554 0.002469439 0.003962448 0 0 0 0
836000000 -0.416193574 -0.500103294 0.004199066 0.00253485 0 0 0 0
844000000 -0.616020023 -0.264223277 0.005630238 0.000652042 0 0 0 0
852000000 -0.688820242 0.009645883 0.006940501 -0.001513659 0 0 0 0
860000000 -0.650895059 0.266277819 0.00800589 -0.004636907 0 0 0 0
868000000 -0.510961949 0.461673408 0.007693173 -0.00928285 0 0 0 0
876000000 -0.29743582 0.562879562 0.004645694 -0.015149483 0 0 0 0
884000000 -0.086353339 0.539984285 -0.004094908 -0.020338065 0 0 0 0
892000000 0.067239634 0.409495532 -0.019290268 -0.018524337 0 0 0 0
900000000 0.282425165 0.214322775 -0.035051759 0.001680559 0 0 0 0
908000000 0.223358988 0.123737379 -0.028251966 0.030222576 0 0 0 0
916000000 0.160358086 0.099545218 0.00351513 0.045468974 0 0 0 0
924000000 0.098529674 0.106853052 0.036711629 0.027088563 0 0 0 0
932000000 0.049696274 0.175565943 0.040802195 -0.009935048 0 0 0 0
940000000 0.115218065 0.325992286 0.016809066 -0.02846775 0 0 0 0
948000000 0.356803268 0.358077317 -0.002668293 -0.023811222 0 0 0 0
956000000 0.519681632 0.190280497 -0.009485065 -0.01419325 0 0 0 0
964000000 0.590798497 -0.04922061 -0.011934073 -0.005991413 0 0 0 0
972000000 0.508039951 -0.304063111 -0.010630751 0.000205705 0 0 0 0
980000000 0.30132699 -0.49189344 -0.007365306 0.003573247 0 0 0 0
988000000 0.027938118 -0.567300379 -0.004730427 0.004571998 0 0 0 0
996000000 -0.254122853 -0.523157596 -0.002718836 0.004599084 0 0 0 0
1004000000 -0.484416872 -0.381476044 -0.002371791 0.00438325 0 0 0 0
