# Hz S RI R 50
700000000 0.747475147 0.556391417 5.0421e-05 0.000727967 0 0 0 0
708000000 0.855196714 0.311514079 5.0542e-05 0.000911031 0 0 0 0
716000000 0.891756772 0.043000224 -1.141e-05 0.001226217 0 0 0 0
724000000 0.84306395 -0.238529518 0.000211591 0.001349583 0 0 0 0
732000000 0.693738341 -0.493755698 0.000431807 0.001357352 0 0 0 0
740000000 0.457693338 -0.691844224 0.000691568 0.001337702 0 0 0 0
748000000 0.151068344 -0.790219068 0.000913858 0.001215082 0 0 0 0
756000000 -0.188141524 -0.749859929 0.001097124 0.000924377 0 0 0 0
764000000 -0.487295836 -0.543730735 0.001210587 0.00072351 0 0 0 0
772000000 -0.653758823 -0.189854055 0.001548977 0.000224075 0 0 0 0
780000000 -0.578611612 0.228071331 0.001205658 -0.000258613 0 0 0 0
788000000 -0.232120215 0.524707376 0.000371182 -0.001052738 0 0 0 0
796000000 0.247522339 0.505412399 -0.001176498 -0.001204617 0 0 0 0
804000000 0.561051428 0.159395143 -0.002806311 0.00074995 0 0 0 0
812000000 0.537520587 -0.283356666 -0.001738235 0.002994019 0 0 0 0
820000000 0.256516516 -0.56760025 0.000661072 0.003836949 0 0 0 0
828000000 -0.11026892 -0.626654744 0.002551441 0.003030678 0 0 0 0
836000000 -0.414857327 -0.497435033 0.003892671 0.001378982 0 0 0 0
844000000 -0.613660752 -0.258157581 0.004587578 -0.000249734 0 0 0 0
852000000 -0.686854302 0.010075768 0.005280141 -0.001707565 0 0 0 0
860000000 -0.644923508 0.268176436 0.00609699 -0.003703419 0 0 0 0
868000000 -0.503716886 0.461768567 0.006379927 -0.007244166 0 0 0 0
876000000 -0.287938386 0.559740126 0.004948499 -0.011807082 0 0 0 0
884000000 -0.080317929 0.531054377 -0.000886777 -0.017129583 0 0 0 0
892000000 0.063586607 0.394864439 -0.013919371 -0.018236273 0 0 0 0
900000000 0.26454091 0.20992057 -0.03113869 -0.003733724 0 0 0 0
908000000 0.203545495 0.136287435 -0.029800839 0.023080348 0 0 0 0
916000000 0.149579972 0.109965562 -0.00245997 0.041978444 0 0 0 0
924000000 0.104245349 0.111583136 0.031123269 0.029546413 0 0 0 0
932000000 0.061462029 0.194828718 0.039786793 -0.005565577 0 0 0 0
940000000 0.130922034 0.325896739 0.017183162 -0.025993768 0 0 0 0
948000000 0.351103931 0.347902715 -0.001750188 -0.021936446 0 0 0 0
956000000 0.518156111 0.188586354 -0.008128459 -0.012850831 0 0 0 0
964000000 0.584698021 -0.053982533 -0.010333927 -0.005886237 0 0 0 0
972000000 0.500324964 -0.304665327 -0.008419076 -0.000532129 0 0 0 0
980000000 0.297291755 -0.499012738 -0.006103304 0.002088093 0 0 0 0
988000000 0.032062437 -0.569909453 -0.00510446 0.003340469 0 0 0 0
996000000 -0.248343065 -0.516216993 -0.003453605 0.003355802 0 0 0 0
1004000000 -0.486646771 -0.385675609 -0.002696456 0.004058641 0 0 0 0
