# Hz S RI R 50
700000000 0.752539455 0.559912025 2.1854e-05 0.000824787 0 0 0 0
708000000 0.860485851 0.318240851 0.000107015 0.00119365 0 0 0 0
716000000 0.894503772 0.04667662 5.9592e-05 0.001232211 0 0 0 0
724000000 0.839799225 -0.233091279 0.000372323 0.001735725 0 0 0 0
732000000 0.701333522 -0.49100399 0.000798849 0.001549945 0 0 0 0
740000000 0.467643707 -0.691090583 0.00124439 0.001653576 0 0 0 0
748000000 0.165518507 -0.792355895 0.001583567 0.001424737 0 0 0 0
756000000 -0.174401521 -0.763225913 0.001808201 0.000936741 0 0 0 0
764000000 -0.478858143 -0.57025665 0.001809588 0.000181378 0 0 0 0
772000000 -0.658241689 -0.221576824 0.001855007 -0.000450122 0 0 0 0
780000000 -0.612733602 0.198016852 0.001561644 -0.00100513 0 0 0 0
788000000 -0.289294302 0.524205446 0.000447493 -0.002326811 0 0 0 0
796000000 0.193616703 0.55365777 -0.002049213 -0.002782354 0 0 0 0
804000000 0.559441924 0.236423283 -0.004578729 -0.001110459 0 0 0 0
812000000 0.588875949 -0.224217489 -0.004860517 0.002913058 0 0 0 0
820000000 0.331538945 -0.548492014 -0.002061937 0.005818937 0 0 0 0
828000000 -0.043280102 -0.649815022 0.001167166 0.005860219 0 0 0 0
836000000 -0.370650976 -0.549845814 0.003777652 0.00497494 0 0 0 0
844000000 -0.597769856 -0.327726006 0.006268255 0.003053604 0 0 0 0
852000000 -0.702809631 -0.057368412 0.008210936 0.00094073 0 0 0 0
860000000 -0.698473691 0.210533827 0.00993623 -0.002128619 0 0 0 0
868000000 -0.58611983 0.427099138 0.010995259 -0.007339115 0 0 0 0
876000000 -0.395157933 0.563600063 0.009828725 -0.014062318 0 0 0 0
884000000 -0.183651834 0.605704009 0.00346679 -0.021928928 0 0 0 0
892000000 0.015723213 0.544382989 -0.010387686 -0.026035927 0 0 0 0
900000000 0.333280891 0.369439959 -0.032932832 -0.016935028 0 0 0 0
908000000 0.372907578 0.212054163 -0.043914243 0.008435362 0 0 0 0
916000000 0.331033229 0.085421495 -0.030641686 0.042431384 0 0 0 0
924000000 0.223819881 -0.007315974 0.008522421 0.057008098 0 0 0 0
932000000 0.094853982 0.014736165 0.050160292 0.033460572 0 0 0 0
940000000 0.057372182 0.159237191 0.054793369 -0.013637172 0 0 0 0
948000000 0.195190116 0.280828416 0.023564979 -0.040552571 0 0 0 0
956000000 0.381252676 0.237746283 -0.006523931 -0.03515258 0 0 0 0
964000000 0.515368998 0.043546073 -0.018819404 -0.018397634 0 0 0 0
972000000 0.487604558 -0.203429728 -0.019068432 -0.004111983 0 0 0 0
980000000 0.332791179 -0.423047959 -0.013659177 0.002740823 0 0 0 0
988000000 0.076507471 -0.524499416 -0.009674644 0.006722986 0 0 0 0
996000000 -0.204611033 -0.506684303 -0.005532685 0.007199228 0 0 0 0
1004000000 -0.445844858 -0.398782223 -0.003503448 0.006827338 0 0 0 0
