# Hz S RI R 50
700000000 0.764274716 0.52798134 8.0747e-05 0.000739227 0 0 0 0
708000000 0.867630779 0.285844922 -4.295e-06 0.000779021 0 0 0 0
716000000 0.892219781 0.017016043 1.4199e-05 0.001204959 0 0 0 0
724000000 0.83338809 -0.256427556 0.000221087 0.001258009 0 0 0 0
732000000 0.67961508 -0.514377951 0.000644443 0.001625785 0 0 0 0
740000000 0.446686059 -0.703054547 0.000669124 0.001445062 0 0 0 0
748000000 0.137345194 -0.795071244 0.001071554 0.00142753 0 0 0 0
756000000 -0.197665587 -0.74938184 0.001263039 0.000836503 0 0 0 0
764000000 -0.49315986 -0.542316138 0.00138641 0.000418313 0 0 0 0
772000000 -0.65304327 -0.1859373 0.001281609 0.000276568 0 0 0 0
780000000 -0.573753833 0.234884679 0.001260173 -0.000311034 0 0 0 0
788000000 -0.220206007 0.526893019 0.000619345 -0.001193734 0 0 0 0
796000000 0.261759728 0.49762234 -0.000788048 -0.001528267 0 0 0 0
804000000 0.569763898 0.139295414 -0.002738021 -0.000557394 0 0 0 0
812000000 0.531422734 -0.306011378 -0.002759621 0.001880327 0 0 0 0
820000000 0.242126688 -0.581550836 -0.00128924 0.003695555 0 0 0 0
828000000 -0.124649584 -0.629213511 0.000868775 0.004287416 0 0 0 0
836000000 -0.431830585 -0.494936704 0.002907068 0.003579206 0 0 0 0
844000000 -0.628242731 -0.262894272 0.004928998 0.002064975 0 0 0 0
852000000 -0.701627969 0.010246069 0.006794271 0.000391706 0 0 0 0
860000000 -0.664070487 0.269074231 0.008635617 -0.002209435 0 0 0 0
868000000 -0.52776575 0.465858757 0.009841354 -0.007099446 0 0 0 0
876000000 -0.32597649 0.57057774 0.008640357 -0.013926969 0 0 0 0
884000000 -0.114345192 0.564852178 0.001582926 -0.021439839 0 0 0 0
892000000 0.047180868 0.450101912 -0.0137293 -0.02432014 0 0 0 0
900000000 0.296936064 0.254323482 -0.035072829 -0.010224309 0 0 0 0
908000000 0.277588009 0.154204115 -0.039417736 0.020131452 0 0 0 0
916000000 0.227122575 0.096237927 -0.014533817 0.047806926 0 0 0 0
924000000 0.147422969 0.05395906 0.026217238 0.04557228 0 0 0 0
932000000 0.046528972 0.104399241 0.050942763 0.010102183 0 0 0 0
940000000 0.067262023 0.277244091 0.036788679 -0.026874039 0 0 0 0
948000000 0.283428609 0.355064719 0.008015324 -0.034951601 0 0 0 0
956000000 0.469497919 0.236185818 -0.010629801 -0.02597182 0 0 0 0
964000000 0.570356428 -0.018980331 -0.017673995 -0.011484873 0 0 0 0
972000000 0.501736402 -0.280323505 -0.016668641 -0.001137619 0 0 0 0
980000000 0.299529254 -0.477405667 -0.012025339 0.004756855 0 0 0 0
988000000 0.030391031 -0.548555314 -0.007597379 0.007384839 0 0 0 0
996000000 -0.265269696 -0.499492198 -0.004256752 0.006994553 0 0 0 0
1004000000 -0.498585999 -0.353514432 -0.001796491 0.007179716 0 0 0 0
