# Hz S RI R 50
700000000 0.763865411 0.529982209 0.000133127 0.000647603 0 0 0 0
708000000 0.866732597 0.284140348 0.000112439 0.000935541 0 0 0 0
716000000 0.88922286 0.014745808 0.000133755 0.001095089 0 0 0 0
724000000 0.830920815 -0.263622671 0.000390202 0.001395969 0 0 0 0
732000000 0.6828956 -0.513861 0.000503856 0.001343022 0 0 0 0
740000000 0.444594681 -0.706450998 0.001012058 0.001496061 0 0 0 0
748000000 0.136393412 -0.797902822 0.001207127 0.00137539 0 0 0 0
756000000 -0.198575392 -0.750965833 0.001412535 0.000868104 0 0 0 0
764000000 -0.493543565 -0.542898535 0.001326733 0.000374859 0 0 0 0
772000000 -0.653024613 -0.189041793 0.001474299 -3.2668e-05 0 0 0 0
780000000 -0.58002299 0.233672246 0.00126467 -0.000654171 0 0 0 0
788000000 -0.226566046 0.530302643 0.000458348 -0.001192279 0 0 0 0
796000000 0.253047555 0.503178596 -0.001178147 -0.001647271 0 0 0 0
804000000 0.567668974 0.148356094 -0.0030624 -0.000333773 0 0 0 0
812000000 0.542840421 -0.295836508 -0.002894536 0.002097762 0 0 0 0
820000000 0.25422585 -0.576856553 -0.000773759 0.003981648 0 0 0 0
828000000 -0.114797361 -0.637289822 0.001033916 0.003927029 0 0 0 0
836000000 -0.423680633 -0.505435943 0.003046332 0.003011457 0 0 0 0
844000000 -0.626431405 -0.274854391 0.004862993 0.001644618 0 0 0 0
852000000 -0.706719875 -0.001348568 0.006332454 0.000134307 0 0 0 0
860000000 -0.676132619 0.256778538 0.007805355 -0.002487156 0 0 0 0
868000000 -0.545765876 0.465037226 0.008900724 -0.006371696 0 0 0 0
876000000 -0.340770065 0.578202962 0.008372597 -0.012353228 0 0 0 0
884000000 -0.120763823 0.582420229 0.002501034 -0.019684806 0 0 0 0
892000000 0.050595764 0.471909135 -0.010783683 -0.023740541 0 0 0 0
900000000 0.315191566 0.284477353 -0.032770555 -0.012434126 0 0 0 0
908000000 0.301615774 0.161585375 -0.039073996 0.015665804 0 0 0 0
916000000 0.252544969 0.080764234 -0.018212445 0.044370882 0 0 0 0
924000000 0.166176155 0.03249406 0.021890817 0.046159304 0 0 0 0
932000000 0.051559977 0.073062233 0.048904322 0.013700077 0 0 0 0
940000000 0.036255847 0.251820296 0.037091873 -0.024024739 0 0 0 0
948000000 0.26055333 0.348666459 0.009066422 -0.032365076 0 0 0 0
956000000 0.461119651 0.233240053 -0.008266016 -0.024854212 0 0 0 0
964000000 0.563464105 0.003905734 -0.015600119 -0.012852406 0 0 0 0
972000000 0.499372601 -0.263453722 -0.015881186 -0.002477876 0 0 0 0
980000000 0.306376665 -0.466634452 -0.012151304 0.003480804 0 0 0 0
988000000 0.035368878 -0.547825992 -0.008160592 0.005736927 0 0 0 0
996000000 -0.253742992 -0.508477687 -0.004751109 0.005920325 0 0 0 0
1004000000 -0.4871369 -0.369506686 -0.002622904 0.007057752 0 0 0 0
