# Hz S RI R 50
700000000 0.763501286 0.528532862 7.1597e-05 0.000730201 0 0 0 0
708000000 0.863203883 0.285941809 -4.7e-06 0.000961947 0 0 0 0
716000000 0.893665909 0.013124315 0.000293581 0.001194762 0 0 0 0
724000000 0.832844913 -0.255031764 0.000387777 0.001467763 0 0 0 0
732000000 0.683205306 -0.511293888 0.000457641 0.001620459 0 0 0 0
740000000 0.445010513 -0.702182948 0.000841993 0.001550869 0 0 0 0
748000000 0.137019053 -0.794952094 0.001141199 0.001297756 0 0 0 0
756000000 -0.195500239 -0.7485857 0.001471048 0.000915965 0 0 0 0
764000000 -0.493054836 -0.543198823 0.001249186 0.000431822 0 0 0 0
772000000 -0.6558851 -0.188132628 0.001362882 0.000121157 0 0 0 0
780000000 -0.574765741 0.228850036 0.001108773 -0.000579906 0 0 0 0
788000000 -0.224596962 0.523954629 0.000290469 -0.00109855 0 0 0 0
796000000 0.253954946 0.497234433 -0.001322073 -0.001454542 0 0 0 0
804000000 0.562365293 0.145908027 -0.002949921 -0.000255932 0 0 0 0
812000000 0.534013152 -0.298821151 -0.002596474 0.002295862 0 0 0 0
820000000 0.247450143 -0.573826491 -0.000726222 0.00415806 0 0 0 0
828000000 -0.118319764 -0.627127528 0.001295779 0.003971128 0 0 0 0
836000000 -0.424402683 -0.49600479 0.003350321 0.003295444 0 0 0 0
844000000 -0.62238115 -0.26263985 0.005102823 0.001813398 0 0 0 0
852000000 -0.698048293 0.003558908 0.006812663 0.000152417 0 0 0 0
860000000 -0.663994491 0.261802494 0.008556788 -0.00261981 0 0 0 0
868000000 -0.5300287 0.458456814 0.009543653 -0.007302167 0 0 0 0
876000000 -0.329652845 0.566069662 0.008064197 -0.014085473 0 0 0 0
884000000 -0.120136536 0.559742569 0.000887766 -0.021458806 0 0 0 0
892000000 0.042891807 0.450499147 -0.014332567 -0.023604143 0 0 0 0
900000000 0.285365581 0.271728217 -0.034815743 -0.009430609 0 0 0 0
908000000 0.270706146 0.171229571 -0.03848467 0.021043699 0 0 0 0
916000000 0.224721848 0.107940375 -0.013243149 0.048236973 0 0 0 0
924000000 0.165077522 0.059023659 0.027711013 0.044848855 0 0 0 0
932000000 0.074404954 0.092364057 0.051638808 0.008301283 0 0 0 0
940000000 0.06503956 0.252362012 0.03491402 -0.027987763 0 0 0 0
948000000 0.284733712 0.340172827 0.006177717 -0.034768741 0 0 0 0
956000000 0.468839377 0.21529366 -0.010119656 -0.024793021 0 0 0 0
964000000 0.571407377 -0.009278538 -0.017703255 -0.011187165 0 0 0 0
972000000 0.490317076 -0.278156846 -0.016103941 -0.000609306 0 0 0 0
980000000 0.304293483 -0.478860408 -0.011043463 0.004553101 0 0 0 0
988000000 0.035673536 -0.547954201 -0.007357945 0.007272026 0 0 0 0
996000000 -0.262263089 -0.494006156 -0.003547976 0.007773214 0 0 0 0
1004000000 -0.491766989 -0.360844463 -0.001586671 0.006404429 0 0 0 0
