# Hz S RI R 50
700000000 0.765227377 0.534567058 7.4641e-05 0.000688971 0 0 0 0
708000000 0.865557372 0.283891499 2.5308e-05 0.00105861 0 0 0 0
716000000 0.888913035 0.01382463 0.000199584 0.001144677 0 0 0 0
724000000 0.831826448 -0.256827563 0.000273337 0.001274751 0 0 0 0
732000000 0.683735191 -0.511768877 0.000397837 0.001531174 0 0 0 0
740000000 0.445198416 -0.699938893 0.000813437 0.00140741 0 0 0 0
748000000 0.138222292 -0.791957437 0.001248047 0.001340168 0 0 0 0
756000000 -0.194592565 -0.749263703 0.001536905 0.000797002 0 0 0 0
764000000 -0.490883529 -0.54419732 0.001219004 0.00036882 0 0 0 0
772000000 -0.652858138 -0.191097676 0.001152802 3.267e-05 0 0 0 0
780000000 -0.576312065 0.230484947 0.001279276 -0.000456251 0 0 0 0
788000000 -0.223744407 0.522522151 0.000352849 -0.0011589 0 0 0 0
796000000 0.253213226 0.496472179 -0.001184755 -0.001630522 0 0 0 0
804000000 0.563118278 0.146277964 -0.002778897 -0.000256566 0 0 0 0
812000000 0.53598845 -0.293091714 -0.002813912 0.002223151 0 0 0 0
820000000 0.251971423 -0.574905872 -0.000591677 0.003957512 0 0 0 0
828000000 -0.118232294 -0.630287885 0.001171416 0.004053724 0 0 0 0
836000000 -0.42442286 -0.500156879 0.003199112 0.003143612 0 0 0 0
844000000 -0.621775388 -0.265133678 0.004950907 0.001930586 0 0 0 0
852000000 -0.700434386 0.006133366 0.006706482 -2.4407e-05 0 0 0 0
860000000 -0.664297342 0.261986434 0.008531535 -0.002573337 0 0 0 0
868000000 -0.535076677 0.457457423 0.009440243 -0.007148642 0 0 0 0
876000000 -0.331549197 0.5661273 0.008041871 -0.013774777 0 0 0 0
884000000 -0.126497268 0.560857236 0.001116126 -0.020797224 0 0 0 0
892000000 0.039061482 0.457858502 -0.013654695 -0.023597765 0 0 0 0
900000000 0.287647455 0.268197238 -0.035092979 -0.010922942 0 0 0 0
908000000 0.281064957 0.170256897 -0.038814585 0.019662382 0 0 0 0
916000000 0.234646931 0.099237285 -0.014811238 0.04733967 0 0 0 0
924000000 0.170543253 0.047793582 0.026339089 0.045267771 0 0 0 0
932000000 0.069180764 0.087874583 0.051376186 0.009527122 0 0 0 0
940000000 0.062463302 0.243472456 0.036053545 -0.026986427 0 0 0 0
948000000 0.262292951 0.341827452 0.006995718 -0.035076785 0 0 0 0
956000000 0.472258418 0.228111878 -0.01063893 -0.025614477 0 0 0 0
964000000 0.564291 -0.007488368 -0.017128402 -0.011815496 0 0 0 0
972000000 0.500352263 -0.263527452 -0.016619339 -0.001309551 0 0 0 0
980000000 0.312425017 -0.474912703 -0.011795991 0.005013858 0 0 0 0
988000000 0.037019968 -0.540023267 -0.007835537 0.007615519 0 0 0 0
996000000 -0.258058786 -0.494800508 -0.003546217 0.007362715 0 0 0 0
1004000000 -0.483824551 -0.365378946 -0.002264205 0.006866951 0 0 0 0
