# Hz S RI R 50
700000000 0.766863584 0.528559446 2.4362e-05 0.00076794 0 0 0 0
708000000 0.864438891 0.286394268 1.9603e-05 0.000901397 0 0 0 0
716000000 0.890894293 0.016828941 0.00020137 0.00129956 0 0 0 0
724000000 0.831147909 -0.261041224 0.000145578 0.001407727 0 0 0 0
732000000 0.683863103 -0.512735307 0.000629097 0.00156148 0 0 0 0
740000000 0.444412708 -0.703492343 0.000925428 0.001558816 0 0 0 0
748000000 0.138973206 -0.795344233 0.001142876 0.001242033 0 0 0 0
756000000 -0.196871116 -0.751661837 0.001349877 0.000953208 0 0 0 0
764000000 -0.492594659 -0.543249487 0.001546941 0.000478682 0 0 0 0
772000000 -0.653138697 -0.18680875 0.001457655 -2.5362e-05 0 0 0 0
780000000 -0.577160298 0.232040047 0.001130293 -0.000384525 0 0 0 0
788000000 -0.225950151 0.52975738 0.000440772 -0.001200244 0 0 0 0
796000000 0.259529739 0.502232432 -0.000870846 -0.001630842 0 0 0 0
804000000 0.570338487 0.146172657 -0.002959549 -0.000564552 0 0 0 0
812000000 0.540655374 -0.299837082 -0.002883188 0.001852955 0 0 0 0
820000000 0.255781233 -0.582392811 -0.001085011 0.003515419 0 0 0 0
828000000 -0.119264662 -0.635011196 0.001121532 0.00379393 0 0 0 0
836000000 -0.425749212 -0.504884123 0.00279951 0.003176207 0 0 0 0
844000000 -0.628772318 -0.268376141 0.004670807 0.002021793 0 0 0 0
852000000 -0.706543982 0.002469802 0.006047581 0.000708582 0 0 0 0
860000000 -0.672484815 0.263583213 0.007948408 -0.001666091 0 0 0 0
868000000 -0.541867375 0.461702257 0.009437831 -0.005842098 0 0 0 0
876000000 -0.332156866 0.576158583 0.008963117 -0.012202844 0 0 0 0
884000000 -0.118126772 0.572616159 0.003347154 -0.019858315 0 0 0 0
892000000 0.04572723 0.470978736 -0.010568572 -0.024372091 0 0 0 0
900000000 0.30351293 0.279770791 -0.031177556 -0.013922252 0 0 0 0
908000000 0.280428051 0.178576543 -0.039080377 0.014561063 0 0 0 0
916000000 0.241412132 0.0983994 -0.019250446 0.043042074 0 0 0 0
924000000 0.167818471 0.030866404 0.01806367 0.046198163 0 0 0 0
932000000 0.048327799 0.081245355 0.047217175 0.016544986 0 0 0 0
940000000 0.047749064 0.245962813 0.038152575 -0.021329861 0 0 0 0
948000000 0.260042637 0.347436279 0.012041269 -0.032833613 0 0 0 0
956000000 0.456527948 0.232605069 -0.007290649 -0.025176953 0 0 0 0
964000000 0.563122153 -6.9258e-05 -0.015929657 -0.013114017 0 0 0 0
972000000 0.508187651 -0.255974799 -0.01550679 -0.002694098 0 0 0 0
980000000 0.311423897 -0.472716927 -0.011908999 0.002697046 0 0 0 0
988000000 0.033973764 -0.542901277 -0.008258009 0.005899977 0 0 0 0
996000000 -0.249400705 -0.500080823 -0.005556021 0.006251121 0 0 0 0
1004000000 -0.493918448 -0.355767399 -0.003652433 0.006314576 0 0 0 0
