# Hz S RI R 50
700000000 0.763289213 0.533487737 -1.4205e-05 0.000738998 0 0 0 0
708000000 0.867737889 0.285764902 -3.5392e-05 0.000991735 0 0 0 0
716000000 0.893090665 0.013637449 0.000164883 0.001267299 0 0 0 0
724000000 0.833979785 -0.26442638 0.000395074 0.001341088 0 0 0 0
732000000 0.682102441 -0.512877821 0.000602369 0.001590113 0 0 0 0
740000000 0.445291996 -0.701896846 0.000760737 0.001299503 0 0 0 0
748000000 0.138056278 -0.793892562 0.001013122 0.001236768 0 0 0 0
756000000 -0.197939693 -0.751560628 0.001447366 0.000942183 0 0 0 0
764000000 -0.494610249 -0.541849136 0.001442176 0.000564518 0 0 0 0
772000000 -0.656177461 -0.18734689 0.001259108 0.00014331 0 0 0 0
780000000 -0.578546285 0.232848182 0.001354587 -0.000170849 0 0 0 0
788000000 -0.221597909 0.530568361 0.000981308 -0.001285332 0 0 0 0
796000000 0.263531059 0.500264048 -0.000489634 -0.001921693 0 0 0 0
804000000 0.573721706 0.1412272 -0.002648042 -0.000943912 0 0 0 0
812000000 0.54036194 -0.304951488 -0.00338951 0.001681454 0 0 0 0
820000000 0.246505424 -0.581700742 -0.001373531 0.004047605 0 0 0 0
828000000 -0.124139785 -0.632763147 0.000771142 0.004445275 0 0 0 0
836000000 -0.430528849 -0.500354111 0.003160223 0.003833676 0 0 0 0
844000000 -0.626719892 -0.263204276 0.005121416 0.002213257 0 0 0 0
852000000 -0.703555464 0.007994923 0.006982688 0.000390209 0 0 0 0
860000000 -0.669581234 0.26551637 0.008827268 -0.002470405 0 0 0 0
868000000 -0.530959486 0.467156529 0.009948455 -0.007389701 0 0 0 0
876000000 -0.331451207 0.572673439 0.008320014 -0.014058113 0 0 0 0
884000000 -0.119589671 0.571611344 0.001243258 -0.021574271 0 0 0 0
892000000 0.052362177 0.458156704 -0.013960141 -0.023989247 0 0 0 0
900000000 0.307557731 0.264350473 -0.034777864 -0.010531103 0 0 0 0
908000000 0.281383067 0.158817768 -0.039095703 0.020251456 0 0 0 0
916000000 0.234327495 0.076847314 -0.014905362 0.047265365 0 0 0 0
924000000 0.143640637 0.039491813 0.026181938 0.045532695 0 0 0 0
932000000 0.043668854 0.101530387 0.050209876 0.010356932 0 0 0 0
940000000 0.068378172 0.272824317 0.036218773 -0.026367023 0 0 0 0
948000000 0.280623644 0.352980524 0.008640942 -0.034464422 0 0 0 0
956000000 0.464938998 0.231896907 -0.009738366 -0.025547176 0 0 0 0
964000000 0.572039604 -0.010924946 -0.017152149 -0.012453227 0 0 0 0
972000000 0.496687203 -0.270567029 -0.015917129 -0.001531508 0 0 0 0
980000000 0.303077101 -0.467661798 -0.012143387 0.003886436 0 0 0 0
988000000 0.019119579 -0.552363932 -0.007692524 0.006773751 0 0 0 0
996000000 -0.248533099 -0.504504621 -0.003927679 0.007043092 0 0 0 0
1004000000 -0.488378852 -0.350212544 -0.002113565 0.006431256 0 0 0 0
