# Hz S RI R 50
700000000 0.767662823 0.532017946 8.0967e-05 0.00064274 0 0 0 0
708000000 0.868048369 0.282571762 6.1597e-05 0.000845584 0 0 0 0
716000000 0.888890504 0.01160824 6.3426e-05 0.001263368 0 0 0 0
724000000 0.830560564 -0.265185713 0.000280937 0.001309886 0 0 0 0
732000000 0.682727158 -0.514370262 0.000430085 0.001428706 0 0 0 0
740000000 0.444609373 -0.702750384 0.000951869 0.001586593 0 0 0 0
748000000 0.134998649 -0.796118438 0.001117107 0.001370802 0 0 0 0
756000000 -0.200437799 -0.748266637 0.001407911 0.00086728 0 0 0 0
764000000 -0.495514601 -0.542927265 0.001436121 0.000383111 0 0 0 0
772000000 -0.654645025 -0.185836315 0.00132468 6.7404e-05 0 0 0 0
780000000 -0.575382828 0.237570792 0.001163189 -0.000168647 0 0 0 0
788000000 -0.216115534 0.530184626 0.00072607 -0.000916631 0 0 0 0
796000000 0.264061659 0.494171679 -0.000730757 -0.001518932 0 0 0 0
804000000 0.571059346 0.134632155 -0.002460621 -0.000678359 0 0 0 0
812000000 0.531634032 -0.307747036 -0.002872341 0.001620723 0 0 0 0
820000000 0.237908631 -0.584566414 -0.001197033 0.003612302 0 0 0 0
828000000 -0.130136266 -0.630293905 0.000935837 0.004124898 0 0 0 0
836000000 -0.431942045 -0.497324824 0.002887848 0.003486033 0 0 0 0
844000000 -0.628490746 -0.256904572 0.004991485 0.002132548 0 0 0 0
852000000 -0.700517356 0.014672673 0.006914864 0.000310507 0 0 0 0
860000000 -0.663585305 0.270444959 0.008526612 -0.002602986 0 0 0 0
868000000 -0.52843827 0.468071907 0.009679965 -0.007147843 0 0 0 0
876000000 -0.3220205 0.56936264 0.008197558 -0.01384114 0 0 0 0
884000000 -0.106974884 0.560113251 0.001201972 -0.021051131 0 0 0 0
892000000 0.054747778 0.451079905 -0.013883798 -0.023548459 0 0 0 0
900000000 0.294525891 0.258413106 -0.03460234 -0.0103789 0 0 0 0
908000000 0.274270594 0.157215341 -0.038130141 0.019433517 0 0 0 0
916000000 0.216636329 0.08117228 -0.014604501 0.046350188 0 0 0 0
924000000 0.138830915 0.040357794 0.024903511 0.044117026 0 0 0 0
932000000 0.043642286 0.1157156 0.049084406 0.010546876 0 0 0 0
940000000 0.077673465 0.283110231 0.035732537 -0.024934902 0 0 0 0
948000000 0.300917327 0.355437278 0.008539628 -0.034231245 0 0 0 0
956000000 0.482512712 0.214434072 -0.009498429 -0.025630678 0 0 0 0
964000000 0.567812383 -0.019600845 -0.017055304 -0.011964377 0 0 0 0
972000000 0.492348849 -0.279883861 -0.016089154 -0.001863005 0 0 0 0
980000000 0.299384504 -0.46794182 -0.012160206 0.004212832 0 0 0 0
988000000 0.02561362 -0.549245297 -0.007581141 0.007475899 0 0 0 0
996000000 -0.253671854 -0.495782792 -0.004525968 0.007570414 0 0 0 0
1004000000 -0.492337614 -0.363076925 -0.002361397 0.00739666 0 0 0 0
