# Hz S RI R 50
700000000 0.765105366 0.530075371 -1.0287e-05 0.000633662 0 0 0 0
708000000 0.867043137 0.289020359 0.000115298 0.000882254 0 0 0 0
716000000 0.89025551 0.015427777 0.000241922 0.001217419 0 0 0 0
724000000 0.835800707 -0.260744929 0.00021979 0.001330108 0 0 0 0
732000000 0.681922554 -0.511297225 0.000447259 0.001575852 0 0 0 0
740000000 0.442725926 -0.701545536 0.000889104 0.001518138 0 0 0 0
748000000 0.138909369 -0.795531213 0.001170551 0.001280594 0 0 0 0
756000000 -0.196313634 -0.748565554 0.001197405 0.000812984 0 0 0 0
764000000 -0.491784274 -0.544572651 0.001426846 0.000334315 0 0 0 0
772000000 -0.653378129 -0.18813312 0.001352761 0.00025655 0 0 0 0
780000000 -0.575676858 0.23240523 0.001219336 -0.000440117 0 0 0 0
788000000 -0.219163909 0.525704562 0.000458024 -0.001162403 0 0 0 0
796000000 0.258853793 0.497462242 -0.000807497 -0.001283108 0 0 0 0
804000000 0.567643821 0.137590602 -0.002586142 -0.000313037 0 0 0 0
812000000 0.532884955 -0.303635239 -0.002603086 0.00188014 0 0 0 0
820000000 0.244958385 -0.577438652 -0.000972645 0.003748795 0 0 0 0
828000000 -0.122758641 -0.628166913 0.000869164 0.003737823 0 0 0 0
836000000 -0.427873104 -0.496774792 0.003058202 0.003186366 0 0 0 0
844000000 -0.625377595 -0.259571343 0.004680722 0.001917269 0 0 0 0
852000000 -0.697959244 0.009699631 0.006616519 0.000249038 0 0 0 0
860000000 -0.662381768 0.266504228 0.00809539 -0.0022462 0 0 0 0
868000000 -0.526655256 0.46331048 0.009220422 -0.006822221 0 0 0 0
876000000 -0.326405763 0.566687047 0.008160141 -0.013069511 0 0 0 0
884000000 -0.116725958 0.566113054 0.001616593 -0.020162522 0 0 0 0
892000000 0.045212984 0.452373057 -0.012619824 -0.023196341 0 0 0 0
900000000 0.295860111 0.273039251 -0.033000469 -0.010867916 0 0 0 0
908000000 0.276047259 0.154422998 -0.038051746 0.018071928 0 0 0 0
916000000 0.224596813 0.098125301 -0.01551726 0.04632328 0 0 0 0
924000000 0.155328199 0.058915194 0.024254307 0.044906165 0 0 0 0
932000000 0.052518293 0.097812563 0.049273345 0.011103347 0 0 0 0
940000000 0.061284977 0.275310456 0.036005858 -0.02436541 0 0 0 0
948000000 0.284227579 0.346303731 0.008291164 -0.033530913 0 0 0 0
956000000 0.466571509 0.231693476 -0.00919826 -0.025825709 0 0 0 0
964000000 0.561652243 -0.009301228 -0.016944006 -0.01327382 0 0 0 0
972000000 0.50275743 -0.27266547 -0.016031155 -0.002683284 0 0 0 0
980000000 0.303197413 -0.462833166 -0.012252585 0.004366902 0 0 0 0
988000000 0.034007254 -0.547327935 -0.008270688 0.00709985 0 0 0 0
996000000 -0.256249487 -0.498287826 -0.00440265 0.007527123 0 0 0 0
1004000000 -0.490712106 -0.354640185 -0.002381634 0.007104127 0 0 0 0
