# Hz S RI R 50
700000000 0.7642892 0.532737612 3.7711e-05 0.000698056 0 0 0 0
708000000 0.867740452 0.284848004 9.9737e-05 0.001049376 0 0 0 0
716000000 0.893673002 0.016317941 0.000160126 0.001163911 0 0 0 0
724000000 0.834594547 -0.259570658 0.000276346 0.001292895 0 0 0 0
732000000 0.682383596 -0.509290158 0.000684347 0.001516681 0 0 0 0
740000000 0.443374842 -0.701666831 0.000920323 0.001308968 0 0 0 0
748000000 0.140997096 -0.795634746 0.001147407 0.001277856 0 0 0 0
756000000 -0.197186589 -0.748052775 0.00154398 0.000736137 0 0 0 0
764000000 -0.493948787 -0.540972232 0.001569792 0.000325829 0 0 0 0
772000000 -0.65069735 -0.185099273 0.001357111 -9.326e-06 0 0 0 0
780000000 -0.573248386 0.231129094 0.000998576 -0.000451816 0 0 0 0
788000000 -0.222358256 0.526815652 0.000535946 -0.001162953 0 0 0 0
796000000 0.261534899 0.498864233 -0.000913921 -0.001542773 0 0 0 0
804000000 0.567379593 0.141889259 -0.002724264 -0.000211385 0 0 0 0
812000000 0.532921195 -0.300182253 -0.002859809 0.002045365 0 0 0 0
820000000 0.243740007 -0.577162921 -0.000905423 0.003993895 0 0 0 0
828000000 -0.12247762 -0.629868566 0.001167665 0.003927248 0 0 0 0
836000000 -0.428606212 -0.497252106 0.002965727 0.003169674 0 0 0 0
844000000 -0.62758553 -0.26077345 0.00490699 0.00188176 0 0 0 0
852000000 -0.69996047 0.007669255 0.006574037 -6.594e-05 0 0 0 0
860000000 -0.665945947 0.264210522 0.008216897 -0.002618763 0 0 0 0
868000000 -0.530598282 0.459679096 0.009161098 -0.007022411 0 0 0 0
876000000 -0.331841677 0.571718096 0.00788839 -0.013407433 0 0 0 0
884000000 -0.116850085 0.564545631 0.001154198 -0.020360451 0 0 0 0
892000000 0.045718748 0.451940864 -0.013097507 -0.023252299 0 0 0 0
900000000 0.295682132 0.272785156 -0.03329686 -0.010458047 0 0 0 0
908000000 0.271095991 0.16561459 -0.038308963 0.018744723 0 0 0 0
916000000 0.227925688 0.093940034 -0.015348889 0.046243045 0 0 0 0
924000000 0.156380638 0.045565251 0.025184469 0.044950332 0 0 0 0
932000000 0.053319655 0.108130678 0.049834057 0.010066937 0 0 0 0
940000000 0.060598459 0.269337445 0.035835169 -0.026292368 0 0 0 0
948000000 0.284124404 0.360213428 0.007769739 -0.033620383 0 0 0 0
956000000 0.474175125 0.219365566 -0.009944185 -0.024691633 0 0 0 0
964000000 0.566964626 -0.013407419 -0.016788421 -0.011820668 0 0 0 0
972000000 0.498325794 -0.27062264 -0.015792585 -0.001580815 0 0 0 0
980000000 0.297759264 -0.478329181 -0.011786868 0.004192817 0 0 0 0
988000000 0.028187468 -0.551728367 -0.007363346 0.006907103 0 0 0 0
996000000 -0.26093313 -0.501157343 -0.004498278 0.006869331 0 0 0 0
1004000000 -0.495003491 -0.370828717 -0.001346753 0.007025242 0 0 0 0
