# Hz S RI R 50
700000000 0.763346731 0.526087462 8.0933e-05 0.000892199 0 0 0 0
708000000 0.867330491 0.28500542 4.0552e-05 0.000908106 0 0 0 0
716000000 0.895688652 0.014124048 7.0786e-05 0.001141774 0 0 0 0
724000000 0.834980368 -0.26154378 0.000323881 0.001535267 0 0 0 0
732000000 0.685044765 -0.511445939 0.00061609 0.001370497 0 0 0 0
740000000 0.446455419 -0.702958881 0.001033519 0.001538333 0 0 0 0
748000000 0.141148984 -0.793748199 0.001107546 0.001199363 0 0 0 0
756000000 -0.194424659 -0.749901711 0.001475062 0.000900821 0 0 0 0
764000000 -0.49027583 -0.546990633 0.001265703 0.000345843 0 0 0 0
772000000 -0.651018202 -0.1884498 0.001361309 -8.2686e-05 0 0 0 0
780000000 -0.575927257 0.229199558 0.001170485 -0.000543617 0 0 0 0
788000000 -0.225207433 0.527671754 0.000548582 -0.001077115 0 0 0 0
796000000 0.253367453 0.499588072 -0.001112269 -0.00145195 0 0 0 0
804000000 0.565223038 0.148353368 -0.002907137 -5.8115e-05 0 0 0 0
812000000 0.537872552 -0.293663978 -0.002785499 0.002220842 0 0 0 0
820000000 0.252918273 -0.574627101 -0.000597443 0.003942752 0 0 0 0
828000000 -0.117013558 -0.630619764 0.001200028 0.003945867 0 0 0 0
836000000 -0.422870963 -0.500091135 0.003321201 0.003173237 0 0 0 0
844000000 -0.62277615 -0.268017798 0.005002273 0.002009557 0 0 0 0
852000000 -0.700017869 0.000753275 0.006664316 0.000105047 0 0 0 0
860000000 -0.667589187 0.2594392 0.008027693 -0.002681434 0 0 0 0
868000000 -0.533256113 0.459602594 0.009063153 -0.006917532 0 0 0 0
876000000 -0.332136154 0.564764618 0.007969483 -0.013518162 0 0 0 0
884000000 -0.123922422 0.56573677 0.001183366 -0.020398156 0 0 0 0
892000000 0.040651179 0.457721799 -0.013171854 -0.023090364 0 0 0 0
900000000 0.295715302 0.28573966 -0.034750439 -0.010697911 0 0 0 0
908000000 0.280044555 0.166620701 -0.038204811 0.019163299 0 0 0 0
916000000 0.235913872 0.106700912 -0.015190429 0.04621357 0 0 0 0
924000000 0.172690182 0.053104761 0.025696601 0.044966433 0 0 0 0
932000000 0.06746792 0.091261915 0.051158286 0.010683707 0 0 0 0
940000000 0.067191503 0.244009256 0.035810299 -0.026681985 0 0 0 0
948000000 0.273970812 0.346997708 0.007435297 -0.033760797 0 0 0 0
956000000 0.462741702 0.235293775 -0.010035539 -0.025221727 0 0 0 0
964000000 0.565619409 -0.001414596 -0.017287725 -0.012340212 0 0 0 0
972000000 0.496032148 -0.25984621 -0.016723616 -0.001490261 0 0 0 0
980000000 0.302302122 -0.464612811 -0.01162752 0.004575969 0 0 0 0
988000000 0.024620702 -0.544708073 -0.007954229 0.007136783 0 0 0 0
996000000 -0.253892362 -0.501290798 -0.003236386 0.006918674 0 0 0 0
1004000000 -0.4925448 -0.35488829 -0.00180912 0.006145645 0 0 0 0
