# Hz S RI R 50
700000000 0.762064933 0.531318545 8.1745e-05 0.000715278 0 0 0 0
708000000 0.865009605 0.285532176 7.0496e-05 0.000859558 0 0 0 0
716000000 0.893444478 0.01574283 -0.000125341 0.001157517 0 0 0 0
724000000 0.831167936 -0.260715931 0.000268118 0.001479083 0 0 0 0
732000000 0.68110758 -0.511578619 0.000648615 0.001706106 0 0 0 0
740000000 0.444271981 -0.70008552 0.000957559 0.001358727 0 0 0 0
748000000 0.137666165 -0.79504913 0.0013141 0.001132013 0 0 0 0
756000000 -0.195243731 -0.748314142 0.001444515 0.000665002 0 0 0 0
764000000 -0.49152407 -0.542564511 0.001384289 0.00053956 0 0 0 0
772000000 -0.65536648 -0.186170607 0.001216266 2.4473e-05 0 0 0 0
780000000 -0.573075234 0.228449434 0.00135222 -0.000554296 0 0 0 0
788000000 -0.221257746 0.52679181 0.000621102 -0.001279036 0 0 0 0
796000000 0.255216807 0.496740669 -0.001015617 -0.001468277 0 0 0 0
804000000 0.564510285 0.142883419 -0.002747726 -0.000380549 0 0 0 0
812000000 0.531874358 -0.300282746 -0.002873755 0.001933463 0 0 0 0
820000000 0.247222885 -0.57643783 -0.001217747 0.003977567 0 0 0 0
828000000 -0.123608566 -0.626792669 0.000915962 0.004340555 0 0 0 0
836000000 -0.429269343 -0.492468416 0.003321882 0.003642869 0 0 0 0
844000000 -0.617704331 -0.257994353 0.005267308 0.002332091 0 0 0 0
852000000 -0.694488644 0.009991578 0.007076326 5.8946e-05 0 0 0 0
860000000 -0.659623861 0.259960681 0.008643371 -0.002675445 0 0 0 0
868000000 -0.527007579 0.46142137 0.009650764 -0.007485358 0 0 0 0
876000000 -0.327688544 0.5618276 0.008270816 -0.014147032 0 0 0 0
884000000 -0.12124297 0.556613326 0.000920013 -0.021454293 0 0 0 0
892000000 0.037020709 0.44872272 -0.01436172 -0.023990578 0 0 0 0
900000000 0.295589625 0.270781815 -0.035525605 -0.009451997 0 0 0 0
908000000 0.262152314 0.180558145 -0.039402175 0.020558621 0 0 0 0
916000000 0.224684327 0.10772676 -0.01468483 0.048122391 0 0 0 0
924000000 0.168684482 0.075118862 0.026858199 0.046098902 0 0 0 0
932000000 0.064422883 0.097638726 0.051289577 0.009619617 0 0 0 0
940000000 0.071883678 0.258045941 0.036495789 -0.026822989 0 0 0 0
948000000 0.278818964 0.340895622 0.008108429 -0.035304013 0 0 0 0
956000000 0.474959164 0.216291934 -0.010137257 -0.02549236 0 0 0 0
964000000 0.5559448 -0.00036426 -0.017892388 -0.012337327 0 0 0 0
972000000 0.495001047 -0.26725164 -0.016937367 -0.001304494 0 0 0 0
980000000 0.306781381 -0.468623757 -0.012298209 0.005062045 0 0 0 0
988000000 0.026773517 -0.551644861 -0.007770203 0.007534757 0 0 0 0
996000000 -0.25757867 -0.498476326 -0.00399388 0.007309949 0 0 0 0
1004000000 -0.49420318 -0.355745106 -0.001502019 0.006103921 0 0 0 0
