# Hz S RI R 50
700000000 0.762915074 0.529195129 1.8951e-05 0.000726261 0 0 0 0
708000000 0.864866197 0.286759287 0.000116395 0.000992421 0 0 0 0
716000000 0.890480756 0.015576235 0.000133448 0.001227545 0 0 0 0
724000000 0.832858085 -0.260587424 0.000288864 0.001313599 0 0 0 0
732000000 0.682462453 -0.511020302 0.000445074 0.001541631 0 0 0 0
740000000 0.444222539 -0.70504105 0.000770097 0.001582426 0 0 0 0
748000000 0.138730853 -0.797626495 0.001045692 0.001435425 0 0 0 0
756000000 -0.196852758 -0.750475704 0.00131853 0.001056042 0 0 0 0
764000000 -0.493145465 -0.54345256 0.001494843 0.000465599 0 0 0 0
772000000 -0.657705962 -0.188741758 0.001590704 0.000232379 0 0 0 0
780000000 -0.575644552 0.231984376 0.001445497 -0.00055009 0 0 0 0
788000000 -0.221628069 0.528263032 0.000945156 -0.001452082 0 0 0 0
796000000 0.260712265 0.500700592 -0.001017469 -0.002065273 0 0 0 0
804000000 0.572521865 0.146660253 -0.002966949 -0.000808646 0 0 0 0
812000000 0.538675785 -0.300449371 -0.003182629 0.002057645 0 0 0 0
820000000 0.250637352 -0.581159412 -0.001447574 0.004038089 0 0 0 0
828000000 -0.12067689 -0.635599792 0.00082403 0.004436984 0 0 0 0
836000000 -0.427062362 -0.502909719 0.003207579 0.003631234 0 0 0 0
844000000 -0.630551159 -0.266601771 0.005214352 0.002520857 0 0 0 0
852000000 -0.706994175 0.003448301 0.007326731 0.000649516 0 0 0 0
860000000 -0.674107432 0.266222 0.008989394 -0.002335787 0 0 0 0
868000000 -0.541078329 0.464081197 0.010053789 -0.007334244 0 0 0 0
876000000 -0.333146423 0.57762593 0.008832925 -0.014226826 0 0 0 0
884000000 -0.118549317 0.574986934 0.001596887 -0.021942237 0 0 0 0
892000000 0.058856647 0.465808928 -0.01409669 -0.024801762 0 0 0 0
900000000 0.312982052 0.264344066 -0.035594686 -0.011749668 0 0 0 0
908000000 0.283688843 0.153231471 -0.040208999 0.020223453 0 0 0 0
916000000 0.228077694 0.076463222 -0.015322091 0.048941411 0 0 0 0
924000000 0.14400424 0.041668582 0.027289871 0.046660501 0 0 0 0
932000000 0.039694417 0.104374274 0.052347108 0.009492835 0 0 0 0
940000000 0.064850546 0.276949077 0.036349464 -0.027735015 0 0 0 0
948000000 0.283724129 0.365195244 0.006777976 -0.035473793 0 0 0 0
956000000 0.473919004 0.228913068 -0.009879544 -0.024966694 0 0 0 0
964000000 0.56896466 -0.021804904 -0.017090843 -0.011347879 0 0 0 0
972000000 0.503819704 -0.270292907 -0.016267221 -0.000988647 0 0 0 0
980000000 0.30296263 -0.484482347 -0.011363431 0.004663838 0 0 0 0
988000000 0.022620109 -0.55436474 -0.007338077 0.006823417 0 0 0 0
996000000 -0.259463131 -0.515866816 -0.003857633 0.006901234 0 0 0 0
1004000000 -0.486723661 -0.362334936 -0.002624065 0.007089226 0 0 0 0
