# Hz S RI R 50
700000000 0.763743042 0.529516398 -7.145e-05 0.00073339 0 0 0 0
708000000 0.869506537 0.283852219 -2.0106e-05 0.00085011 0 0 0 0
716000000 0.892429411 0.011572142 0.000149265 0.001236745 0 0 0 0
724000000 0.835875809 -0.25996235 0.000318593 0.001497611 0 0 0 0
732000000 0.684126198 -0.510424673 0.00034062 0.001427103 0 0 0 0
740000000 0.448994457 -0.702558636 0.000764906 0.001584742 0 0 0 0
748000000 0.139984592 -0.794186055 0.001194668 0.001444853 0 0 0 0
756000000 -0.195582643 -0.750712692 0.001451042 0.000889121 0 0 0 0
764000000 -0.492634981 -0.543658494 0.001568807 0.000515246 0 0 0 0
772000000 -0.654943466 -0.190253689 0.001558773 0.000293197 0 0 0 0
780000000 -0.577084958 0.228621751 0.001304822 -0.000654758 0 0 0 0
788000000 -0.226580724 0.52937901 0.000892082 -0.001363344 0 0 0 0
796000000 0.254559576 0.504483163 -0.000969943 -0.001931793 0 0 0 0
804000000 0.568412542 0.153081029 -0.0031836 -0.000538023 0 0 0 0
812000000 0.541087031 -0.294954359 -0.003216717 0.001820709 0 0 0 0
820000000 0.256915956 -0.579936623 -0.001077649 0.003800281 0 0 0 0
828000000 -0.11229036 -0.638086676 0.000798157 0.004378092 0 0 0 0
836000000 -0.42510277 -0.507276952 0.002944526 0.003659758 0 0 0 0
844000000 -0.627331972 -0.274694234 0.004945886 0.002530895 0 0 0 0
852000000 -0.708064913 -0.001484795 0.006884277 0.000718854 0 0 0 0
860000000 -0.677165389 0.261041343 0.008895589 -0.002135936 0 0 0 0
868000000 -0.543963551 0.46157521 0.010277321 -0.006811745 0 0 0 0
876000000 -0.341730624 0.578111171 0.009167357 -0.014023712 0 0 0 0
884000000 -0.122013568 0.580246925 0.002172923 -0.021948115 0 0 0 0
892000000 0.052789185 0.472782075 -0.013790959 -0.025599967 0 0 0 0
900000000 0.307160198 0.277303278 -0.036355856 -0.012459294 0 0 0 0
908000000 0.29017654 0.157624661 -0.041339512 0.020362071 0 0 0 0
916000000 0.240685746 0.085682958 -0.016338575 0.049354359 0 0 0 0
924000000 0.161863639 0.040896233 0.026289677 0.047700606 0 0 0 0
932000000 0.055434733 0.081103853 0.05254073 0.01113582 0 0 0 0
940000000 0.04000014 0.251361161 0.03855453 -0.027167256 0 0 0 0
948000000 0.254361778 0.354905724 0.008564095 -0.035868801 0 0 0 0
956000000 0.465803623 0.250629723 -0.011366342 -0.026424275 0 0 0 0
964000000 0.56528753 0.003795298 -0.017786564 -0.012053719 0 0 0 0
972000000 0.498735636 -0.269007831 -0.017287369 -0.001860793 0 0 0 0
980000000 0.308056503 -0.456936269 -0.012487901 0.004874099 0 0 0 0
988000000 0.026142194 -0.547252774 -0.007751842 0.007459075 0 0 0 0
996000000 -0.243730813 -0.502375423 -0.004192756 0.007277355 0 0 0 0
1004000000 -0.48819068 -0.352430999 -0.001738369 0.006852179 0 0 0 0
