# Hz S RI R 50
700000000 0.764827668 0.529716193 -2.8244e-05 0.000581106 0 0 0 0
708000000 0.866250157 0.28582403 6.0666e-05 0.000960673 0 0 0 0
716000000 0.890718817 0.015038018 0.000129382 0.001206454 0 0 0 0
724000000 0.828045547 -0.258065491 0.000205709 0.001505478 0 0 0 0
732000000 0.683153986 -0.510855972 0.000434774 0.001604533 0 0 0 0
740000000 0.44701454 -0.700051128 0.001010052 0.001562883 0 0 0 0
748000000 0.140691503 -0.794154465 0.001102308 0.001278038 0 0 0 0
756000000 -0.196092039 -0.751007676 0.001546442 0.000811414 0 0 0 0
764000000 -0.492805898 -0.546095252 0.001333544 0.000579347 0 0 0 0
772000000 -0.651775777 -0.192960903 0.001417655 6.527e-06 0 0 0 0
780000000 -0.579695701 0.230565503 0.001385485 -0.000391015 0 0 0 0
788000000 -0.227873757 0.526133775 0.000648009 -0.001455947 0 0 0 0
796000000 0.252797126 0.502339661 -0.001148084 -0.001911542 0 0 0 0
804000000 0.567190945 0.15217562 -0.003005171 -0.000686773 0 0 0 0
812000000 0.543793797 -0.29533869 -0.003218344 0.002010259 0 0 0 0
820000000 0.2570073 -0.57699728 -0.00115477 0.004008581 0 0 0 0
828000000 -0.113345496 -0.635594069 0.000981544 0.00437548 0 0 0 0
836000000 -0.421682119 -0.50656867 0.003152084 0.003574269 0 0 0 0
844000000 -0.625282943 -0.273938238 0.004991886 0.002416581 0 0 0 0
852000000 -0.705456018 -0.002600166 0.007120978 0.000425687 0 0 0 0
860000000 -0.674629151 0.258680522 0.008670789 -0.002220113 0 0 0 0
868000000 -0.544681012 0.461699068 0.009973024 -0.007084636 0 0 0 0
876000000 -0.342647552 0.574390769 0.008815056 -0.013936441 0 0 0 0
884000000 -0.125252768 0.577694416 0.00194177 -0.0219145 0 0 0 0
892000000 0.050807703 0.464854717 -0.013709634 -0.024981159 0 0 0 0
900000000 0.30806297 0.275102019 -0.035249646 -0.011386211 0 0 0 0
908000000 0.282025188 0.158974513 -0.040506504 0.020163709 0 0 0 0
916000000 0.240969628 0.093011386 -0.015706257 0.048980429 0 0 0 0
924000000 0.161703377 0.047570779 0.026489093 0.047220293 0 0 0 0
932000000 0.062439437 0.087862811 0.052408844 0.010724467 0 0 0 0
940000000 0.060642063 0.241455525 0.037529382 -0.026573793 0 0 0 0
948000000 0.264212697 0.3484672 0.007966581 -0.035916961 0 0 0 0
956000000 0.460890233 0.238174095 -0.010799935 -0.026908192 0 0 0 0
964000000 0.563158512 0.00052521 -0.018138872 -0.012075035 0 0 0 0
972000000 0.507898211 -0.260044813 -0.01704318 -0.00157083 0 0 0 0
980000000 0.29936698 -0.473066538 -0.011496152 0.004885868 0 0 0 0
988000000 0.033201266 -0.543148696 -0.007555052 0.007338275 0 0 0 0
996000000 -0.255042344 -0.500289499 -0.003618641 0.006951926 0 0 0 0
1004000000 -0.50470227 -0.357609927 -0.002106356 0.006372161 0 0 0 0
