# Hz S RI R 50
700000000 0.767243325 0.536344468 8.8633e-05 0.000669002 0 0 0 0
708000000 0.864122331 0.285173714 2.8172e-05 0.001021345 0 0 0 0
716000000 0.896520376 0.015299106 0.000167803 0.001280411 0 0 0 0
724000000 0.832243919 -0.25820294 0.000308664 0.001460118 0 0 0 0
732000000 0.682883858 -0.511782407 0.000634702 0.001501208 0 0 0 0
740000000 0.443322896 -0.701991438 0.000767504 0.001610209 0 0 0 0
748000000 0.13775739 -0.794041812 0.001143941 0.00120605 0 0 0 0
756000000 -0.198971197 -0.750202178 0.001226421 0.000921909 0 0 0 0
764000000 -0.494604736 -0.540702342 0.001326271 0.000731648 0 0 0 0
772000000 -0.65379697 -0.187628701 0.001430794 0.00031772 0 0 0 0
780000000 -0.578694224 0.233915746 0.001227 -0.000423852 0 0 0 0
788000000 -0.220956578 0.531446814 0.000853746 -0.00110094 0 0 0 0
796000000 0.266566365 0.500229239 -0.000699208 -0.001850366 0 0 0 0
804000000 0.572864949 0.138280838 -0.00280131 -0.000845964 0 0 0 0
812000000 0.536105513 -0.305552512 -0.003365821 0.001713316 0 0 0 0
820000000 0.242613419 -0.583949506 -0.001368201 0.004100328 0 0 0 0
828000000 -0.127433612 -0.632540941 0.000672877 0.004686846 0 0 0 0
836000000 -0.431310266 -0.49846524 0.003117935 0.004103023 0 0 0 0
844000000 -0.631945013 -0.257830381 0.005384782 0.002656843 0 0 0 0
852000000 -0.704129099 0.013183549 0.007309466 0.000575276 0 0 0 0
860000000 -0.66869378 0.2674492 0.00912285 -0.002592743 0 0 0 0
868000000 -0.530195772 0.466235965 0.010233948 -0.007786123 0 0 0 0
876000000 -0.32761082 0.571700394 0.00847356 -0.014776003 0 0 0 0
884000000 -0.113810442 0.566283881 0.000671978 -0.022339694 0 0 0 0
892000000 0.056412443 0.455306619 -0.015446716 -0.024043945 0 0 0 0
900000000 0.310837626 0.269468486 -0.036862976 -0.008503083 0 0 0 0
908000000 0.281673461 0.158128619 -0.038724213 0.021612012 0 0 0 0
916000000 0.222121626 0.086723029 -0.012989557 0.048141274 0 0 0 0
924000000 0.146602302 0.045180726 0.027285672 0.044259618 0 0 0 0
932000000 0.047065284 0.110421553 0.050542395 0.008391569 0 0 0 0
940000000 0.070277936 0.269517421 0.035381313 -0.027294795 0 0 0 0
948000000 0.288077473 0.358124703 0.006764893 -0.034830428 0 0 0 0
956000000 0.482824593 0.221718192 -0.010260063 -0.024415489 0 0 0 0
964000000 0.576494932 -0.008382269 -0.017218742 -0.011617586 0 0 0 0
972000000 0.500294029 -0.267017036 -0.016055934 -0.001664897 0 0 0 0
980000000 0.300253897 -0.471080511 -0.011628367 0.003688425 0 0 0 0
988000000 0.027631681 -0.544959604 -0.007706287 0.007191176 0 0 0 0
996000000 -0.260904371 -0.498858273 -0.004096088 0.007515873 0 0 0 0
1004000000 -0.491918593 -0.35688439 -0.002684181 0.006657854 0 0 0 0
