# Hz S RI R 50
700000000 0.762979328 0.529897451 4.2074e-05 0.000716508 0 0 0 0
708000000 0.86440438 0.286436557 -5.4601e-05 0.001005608 0 0 0 0
716000000 0.891759276 0.017067238 1.7268e-05 0.001174706 0 0 0 0
724000000 0.830322086 -0.257830828 0.000237338 0.00155158 0 0 0 0
732000000 0.683184564 -0.511931121 0.000636832 0.001522979 0 0 0 0
740000000 0.447064459 -0.70212841 0.000965625 0.001477751 0 0 0 0
748000000 0.141234651 -0.793395161 0.001220543 0.001448567 0 0 0 0
756000000 -0.195937961 -0.749847769 0.001457002 0.001047007 0 0 0 0
764000000 -0.490887731 -0.546413779 0.001583239 0.000504625 0 0 0 0
772000000 -0.650982439 -0.192382127 0.00139838 6.3668e-05 0 0 0 0
780000000 -0.577962636 0.228186666 0.001414061 -0.000517427 0 0 0 0
788000000 -0.227158784 0.5288226 0.000759564 -0.001345069 0 0 0 0
796000000 0.256165206 0.505693614 -0.000967424 -0.001950013 0 0 0 0
804000000 0.570816516 0.149905279 -0.002980429 -0.000553399 0 0 0 0
812000000 0.543454349 -0.298492461 -0.003065471 0.001775687 0 0 0 0
820000000 0.255498111 -0.582192838 -0.00124877 0.003662388 0 0 0 0
828000000 -0.114966332 -0.639120697 0.000700832 0.004114123 0 0 0 0
836000000 -0.425625056 -0.507197618 0.002927899 0.003813351 0 0 0 0
844000000 -0.628098726 -0.26884976 0.005087755 0.002368923 0 0 0 0
852000000 -0.712391734 8.4186e-05 0.007166054 0.000858505 0 0 0 0
860000000 -0.677567481 0.25744909 0.008968912 -0.002163629 0 0 0 0
868000000 -0.544403135 0.465460985 0.010128451 -0.00704295 0 0 0 0
876000000 -0.337743461 0.576140522 0.00895505 -0.014096368 0 0 0 0
884000000 -0.117298178 0.581366658 0.001562346 -0.021827051 0 0 0 0
892000000 0.052910257 0.464468538 -0.013864597 -0.024947561 0 0 0 0
900000000 0.318986535 0.27615863 -0.036476422 -0.010296635 0 0 0 0
908000000 0.290524363 0.154826775 -0.040490627 0.021083733 0 0 0 0
916000000 0.235094711 0.080853477 -0.014508529 0.048800684 0 0 0 0
924000000 0.15365377 0.037742882 0.027453418 0.046386662 0 0 0 0
932000000 0.050661299 0.087412305 0.051905702 0.009011027 0 0 0 0
940000000 0.053515091 0.249818697 0.035974878 -0.027536885 0 0 0 0
948000000 0.263577759 0.357293665 0.006648529 -0.035161789 0 0 0 0
956000000 0.466863572 0.234351873 -0.011049288 -0.025384016 0 0 0 0
964000000 0.55952382 -0.012230864 -0.017142098 -0.010583721 0 0 0 0
972000000 0.496615916 -0.247668802 -0.016163097 -0.001207777 0 0 0 0
980000000 0.306964606 -0.450405448 -0.011479646 0.004758158 0 0 0 0
988000000 0.029636356 -0.548486173 -0.007298999 0.007205703 0 0 0 0
996000000 -0.25924465 -0.504255533 -0.004003229 0.006475474 0 0 0 0
1004000000 -0.481396555 -0.361877113 -0.002273663 0.006694218 0 0 0 0
