# Hz S RI R 50
700000000 0.769303202 0.532321274 8.3804e-05 0.000754901 0 0 0 0
708000000 0.864966034 0.286038577 0.000120331 0.0009082 0 0 0 0
716000000 0.891858696 0.012649994 2.445e-06 0.00125722 0 0 0 0
724000000 0.834837257 -0.262732207 8.3491e-05 0.001334838 0 0 0 0
732000000 0.683713555 -0.508481502 0.000436294 0.001649605 0 0 0 0
740000000 0.443906754 -0.703620433 0.00078363 0.001674621 0 0 0 0
748000000 0.13924089 -0.794927716 0.00129481 0.001261732 0 0 0 0
756000000 -0.19477047 -0.750223457 0.001391998 0.000900189 0 0 0 0
764000000 -0.492358952 -0.546381831 0.0013852 0.000567878 0 0 0 0
772000000 -0.653158843 -0.192925795 0.001513272 6.5858e-05 0 0 0 0
780000000 -0.575490772 0.224039107 0.001500751 -0.000388666 0 0 0 0
788000000 -0.227247774 0.526423811 0.000668301 -0.001456813 0 0 0 0
796000000 0.250974476 0.502858757 -0.000971153 -0.001869167 0 0 0 0
804000000 0.567551612 0.152553871 -0.003123131 -0.000525517 0 0 0 0
812000000 0.545485198 -0.29387471 -0.003135484 0.00206895 0 0 0 0
820000000 0.257405042 -0.579779148 -0.00123807 0.003873514 0 0 0 0
828000000 -0.111732512 -0.638238251 0.000952681 0.004000971 0 0 0 0
836000000 -0.422117322 -0.514475166 0.002732703 0.003527327 0 0 0 0
844000000 -0.628143191 -0.273524165 0.005045752 0.002396235 0 0 0 0
852000000 -0.708363175 -0.001745098 0.006976208 0.0007811 0 0 0 0
860000000 -0.679916262 0.261709064 0.008828033 -0.002185994 0 0 0 0
868000000 -0.55197066 0.467345833 0.010200825 -0.006856234 0 0 0 0
876000000 -0.344505608 0.580547392 0.009104052 -0.01402433 0 0 0 0
884000000 -0.124372474 0.584363877 0.001977437 -0.02215474 0 0 0 0
892000000 0.053657259 0.472676843 -0.0139688 -0.025144124 0 0 0 0
900000000 0.306750893 0.276898533 -0.035238578 -0.010819249 0 0 0 0
908000000 0.292927265 0.164298936 -0.04098704 0.020128484 0 0 0 0
916000000 0.242365837 0.087288081 -0.015450169 0.048545766 0 0 0 0
924000000 0.172581657 0.029234854 0.026585821 0.046805635 0 0 0 0
932000000 0.065654948 0.069395884 0.0520363 0.011041939 0 0 0 0
940000000 0.0422546 0.244450733 0.037722688 -0.027750192 0 0 0 0
948000000 0.247526839 0.348704755 0.007656654 -0.035904455 0 0 0 0
956000000 0.457266449 0.242723688 -0.011307662 -0.02539917 0 0 0 0
964000000 0.567048668 0.011505893 -0.017312446 -0.011925389 0 0 0 0
972000000 0.512236893 -0.256950795 -0.016477724 -0.000559821 0 0 0 0
980000000 0.307096838 -0.462263524 -0.011829216 0.004365977 0 0 0 0
988000000 0.041155569 -0.539296984 -0.007922168 0.00766254 0 0 0 0
996000000 -0.255783796 -0.490876138 -0.003993596 0.00728301 0 0 0 0
1004000000 -0.48455587 -0.349835366 -0.001696111 0.006808673 0 0 0 0
