# Hz S RI R 50
700000000 0.764512181 0.527279138 7.5408e-05 0.000637453 0 0 0 0
708000000 0.866954624 0.285705804 7.4916e-05 0.001058315 0 0 0 0
716000000 0.892698585 0.01247061 2.8939e-05 0.001369219 0 0 0 0
724000000 0.831554234 -0.255954533 0.000306373 0.001559701 0 0 0 0
732000000 0.682643115 -0.511395752 0.000496714 0.001476885 0 0 0 0
740000000 0.446169644 -0.701786637 0.000949987 0.001647425 0 0 0 0
748000000 0.141159653 -0.794836461 0.001071571 0.001252136 0 0 0 0
756000000 -0.195172935 -0.751389861 0.001283873 0.000964685 0 0 0 0
764000000 -0.491606831 -0.544747233 0.001366245 0.000589899 0 0 0 0
772000000 -0.652179241 -0.192524194 0.001538378 6.757e-06 0 0 0 0
780000000 -0.577710926 0.227153435 0.001131581 -0.000261313 0 0 0 0
788000000 -0.22674337 0.527152657 0.000829538 -0.001165931 0 0 0 0
796000000 0.251677423 0.502778291 -0.000844846 -0.001647701 0 0 0 0
804000000 0.569397568 0.150292918 -0.002670201 -0.000603079 0 0 0 0
812000000 0.541323125 -0.2963261 -0.003058732 0.001817755 0 0 0 0
820000000 0.257148295 -0.581347703 -0.001376442 0.003698394 0 0 0 0
828000000 -0.117015741 -0.636683106 0.000593255 0.004168612 0 0 0 0
836000000 -0.425122648 -0.507816016 0.002766957 0.003774565 0 0 0 0
844000000 -0.623043417 -0.27127546 0.005014853 0.002631878 0 0 0 0
852000000 -0.708750903 -0.000551405 0.006993656 0.000842396 0 0 0 0
860000000 -0.677219212 0.259472191 0.008791847 -0.00197976 0 0 0 0
868000000 -0.542599916 0.462074637 0.010243743 -0.006782124 0 0 0 0
876000000 -0.342123001 0.57560414 0.009360358 -0.014002453 0 0 0 0
884000000 -0.123052418 0.576147437 0.002067256 -0.022166119 0 0 0 0
892000000 0.048898454 0.465427249 -0.01377899 -0.025210537 0 0 0 0
900000000 0.310241997 0.272877544 -0.035462446 -0.011761462 0 0 0 0
908000000 0.286734551 0.154686555 -0.040758423 0.019854513 0 0 0 0
916000000 0.23045203 0.085980162 -0.015234243 0.048190884 0 0 0 0
924000000 0.158432498 0.054688833 0.025798011 0.046612303 0 0 0 0
932000000 0.052426543 0.097385659 0.05125587 0.010643144 0 0 0 0
940000000 0.062687955 0.255400478 0.036857847 -0.026117153 0 0 0 0
948000000 0.271233499 0.353420078 0.008369061 -0.034899074 0 0 0 0
956000000 0.461196869 0.229924947 -0.009492227 -0.026909992 0 0 0 0
964000000 0.562602281 -0.002681936 -0.01810237 -0.01302333 0 0 0 0
972000000 0.496580034 -0.267568737 -0.017069712 -0.001695847 0 0 0 0
980000000 0.304985105 -0.46992293 -0.012361072 0.00421283 0 0 0 0
988000000 0.024660563 -0.549074709 -0.007561834 0.008037608 0 0 0 0
996000000 -0.256727248 -0.494535505 -0.004011584 0.008052737 0 0 0 0
1004000000 -0.486394375 -0.349991708 -0.001730244 0.007120486 0 0 0 0
