# Hz S RI R 50
700000000 0.770544767 0.529411733 5.0829e-05 0.000772408 0 0 0 0
708000000 0.866633892 0.284407585 -9.558e-05 0.000926487 0 0 0 0
716000000 0.894318819 0.014351262 8.4831e-05 0.001255859 0 0 0 0
724000000 0.835777878 -0.263748437 0.000351977 0.001526229 0 0 0 0
732000000 0.683078408 -0.511234641 0.000598473 0.001640591 0 0 0 0
740000000 0.444530546 -0.704650402 0.000900794 0.001413091 0 0 0 0
748000000 0.138496533 -0.795369625 0.001179626 0.001180555 0 0 0 0
756000000 -0.195335909 -0.75052005 0.001482248 0.001098855 0 0 0 0
764000000 -0.494285225 -0.544524848 0.001532663 0.000605245 0 0 0 0
772000000 -0.651777744 -0.187889859 0.001401661 0.00026716 0 0 0 0
780000000 -0.577411353 0.229852706 0.001285616 -0.0005496 0 0 0 0
788000000 -0.224251121 0.528614521 0.000598618 -0.001269252 0 0 0 0
796000000 0.258260518 0.501756608 -0.001016674 -0.001906522 0 0 0 0
804000000 0.570159614 0.147587686 -0.002882971 -0.000506481 0 0 0 0
812000000 0.540494143 -0.297982126 -0.003201297 0.001865264 0 0 0 0
820000000 0.255412548 -0.580465435 -0.001088285 0.003864853 0 0 0 0
828000000 -0.118300423 -0.638050138 0.00075598 0.004168292 0 0 0 0
836000000 -0.428769528 -0.507491052 0.003072164 0.003653642 0 0 0 0
844000000 -0.631047129 -0.268395423 0.004943075 0.002382884 0 0 0 0
852000000 -0.707761228 0.001640795 0.007107595 0.000647418 0 0 0 0
860000000 -0.675661385 0.261343419 0.008938509 -0.002158432 0 0 0 0
868000000 -0.545016944 0.461865931 0.01000308 -0.007100853 0 0 0 0
876000000 -0.337777316 0.579216837 0.008833985 -0.013859679 0 0 0 0
884000000 -0.123514458 0.580161929 0.001673114 -0.021513478 0 0 0 0
892000000 0.057334836 0.469336092 -0.013489972 -0.024673303 0 0 0 0
900000000 0.31390509 0.275019377 -0.036163464 -0.011141347 0 0 0 0
908000000 0.294333189 0.15979515 -0.040293872 0.019525721 0 0 0 0
916000000 0.235926166 0.078169487 -0.015584113 0.047765795 0 0 0 0
924000000 0.153752073 0.035566315 0.02580427 0.046827945 0 0 0 0
932000000 0.04028603 0.090917736 0.051473569 0.010407997 0 0 0 0
940000000 0.045428518 0.269308298 0.036536972 -0.026207178 0 0 0 0
948000000 0.275593161 0.361232459 0.00769901 -0.034580636 0 0 0 0
956000000 0.477139025 0.228727027 -0.009750373 -0.024720605 0 0 0 0
964000000 0.563930094 -0.01091085 -0.016266359 -0.012098747 0 0 0 0
972000000 0.498504668 -0.264872878 -0.015914997 -0.002085088 0 0 0 0
980000000 0.310319513 -0.468231409 -0.011628325 0.004065417 0 0 0 0
988000000 0.033521052 -0.546426117 -0.008107121 0.007329238 0 0 0 0
996000000 -0.255212038 -0.495618999 -0.004624354 0.007074373 0 0 0 0
1004000000 -0.486421465 -0.362540841 -0.002343158 0.006434883 0 0 0 0
