# Hz S RI R 50
700000000 0.76844418 0.531544983 4.9367e-05 0.000600359 0 0 0 0
708000000 0.865170121 0.286582529 7.3303e-05 0.000925731 0 0 0 0
716000000 0.890798568 0.012535105 3.5131e-05 0.001333188 0 0 0 0
724000000 0.831321835 -0.26060611 0.000351408 0.001268228 0 0 0 0
732000000 0.682072103 -0.510019838 0.000461353 0.001559038 0 0 0 0
740000000 0.443148553 -0.702991068 0.000809008 0.001626061 0 0 0 0
748000000 0.13870646 -0.79327923 0.001138089 0.001403177 0 0 0 0
756000000 -0.196806028 -0.750431954 0.001264142 0.000982887 0 0 0 0
764000000 -0.493871748 -0.543695509 0.001556816 0.000454083 0 0 0 0
772000000 -0.656161606 -0.190118387 0.001519704 -2.9325e-05 0 0 0 0
780000000 -0.579296112 0.232806786 0.0014827 -0.000352067 0 0 0 0
788000000 -0.223538294 0.529765307 0.000747313 -0.00121391 0 0 0 0
796000000 0.258156895 0.503040671 -0.000767973 -0.001844832 0 0 0 0
804000000 0.574557662 0.148357063 -0.002915306 -0.000820521 0 0 0 0
812000000 0.541719675 -0.298602968 -0.003144647 0.001903745 0 0 0 0
820000000 0.249379768 -0.582109272 -0.001359474 0.003903848 0 0 0 0
828000000 -0.12006098 -0.636276423 0.000686369 0.004081493 0 0 0 0
836000000 -0.424636065 -0.504711091 0.002897185 0.003556373 0 0 0 0
844000000 -0.623966217 -0.266710609 0.00499352 0.002482742 0 0 0 0
852000000 -0.705869674 0.005849612 0.007037385 0.000487754 0 0 0 0
860000000 -0.672830641 0.261492431 0.008887059 -0.002138464 0 0 0 0
868000000 -0.53849703 0.463552862 0.009941245 -0.007170927 0 0 0 0
876000000 -0.335148096 0.570990681 0.008744014 -0.013818351 0 0 0 0
884000000 -0.119884416 0.575696706 0.001777252 -0.021382361 0 0 0 0
892000000 0.049844626 0.46977815 -0.013338277 -0.024461699 0 0 0 0
900000000 0.307327151 0.290894776 -0.035308033 -0.010935085 0 0 0 0
908000000 0.298377811 0.161043107 -0.039792869 0.018783943 0 0 0 0
916000000 0.239597484 0.079617112 -0.016412092 0.047499068 0 0 0 0
924000000 0.150626718 0.028168693 0.025001158 0.046526458 0 0 0 0
932000000 0.046681143 0.089321672 0.050627574 0.011054323 0 0 0 0
940000000 0.052504699 0.266578257 0.036301117 -0.026189651 0 0 0 0
948000000 0.276681542 0.364569306 0.007440927 -0.033955156 0 0 0 0
956000000 0.46669045 0.229829058 -0.008491772 -0.024776196 0 0 0 0
964000000 0.560989797 -0.01569074 -0.016175309 -0.012214597 0 0 0 0
972000000 0.498692542 -0.260250955 -0.015849206 -0.002817598 0 0 0 0
980000000 0.299080282 -0.477286368 -0.012179845 0.003968357 0 0 0 0
988000000 0.043098114 -0.551611483 -0.008098734 0.006469673 0 0 0 0
996000000 -0.248841822 -0.501622736 -0.004127861 0.007596376 0 0 0 0
1004000000 -0.488766074 -0.348945558 -0.002525811 0.00665204 0 0 0 0
