# Hz S RI R 50
700000000 0.762830674 0.5301041 -1.548e-06 0.000701098 0 0 0 0
708000000 0.868646919 0.285359203 -8.815e-05 0.000976516 0 0 0 0
716000000 0.894279003 0.013653132 0.000157573 0.001134856 0 0 0 0
724000000 0.833419203 -0.257657676 0.000148008 0.001357006 0 0 0 0
732000000 0.682658433 -0.512242138 0.000431696 0.001577787 0 0 0 0
740000000 0.446275234 -0.70446211 0.000856636 0.001355656 0 0 0 0
748000000 0.139205634 -0.794007062 0.001188758 0.001436733 0 0 0 0
756000000 -0.195761412 -0.748267352 0.001348778 0.001077198 0 0 0 0
764000000 -0.492771506 -0.542748332 0.00147104 0.000673798 0 0 0 0
772000000 -0.6556288 -0.189108714 0.001313785 0.000156583 0 0 0 0
780000000 -0.576543509 0.231370359 0.001538235 -0.000465348 0 0 0 0
788000000 -0.225694313 0.526587307 0.000603021 -0.001325379 0 0 0 0
796000000 0.25467804 0.50090444 -0.000996347 -0.001656326 0 0 0 0
804000000 0.570216774 0.142830684 -0.002814046 -0.000644229 0 0 0 0
812000000 0.536829888 -0.300059169 -0.003242874 0.00217892 0 0 0 0
820000000 0.251193463 -0.582328975 -0.001251539 0.004064189 0 0 0 0
828000000 -0.120940968 -0.636319994 0.000939574 0.004167202 0 0 0 0
836000000 -0.428503751 -0.504464566 0.002899633 0.003702893 0 0 0 0
844000000 -0.628238677 -0.265331089 0.00511469 0.002214455 0 0 0 0
852000000 -0.707122087 0.003378021 0.006930847 0.000712058 0 0 0 0
860000000 -0.674873292 0.260920286 0.008956403 -0.00199933 0 0 0 0
868000000 -0.540041744 0.469272375 0.010196447 -0.007028508 0 0 0 0
876000000 -0.331660836 0.576060354 0.009009747 -0.0139333 0 0 0 0
884000000 -0.11686626 0.57418096 0.001913462 -0.021963836 0 0 0 0
892000000 0.052690368 0.46218121 -0.013700338 -0.025385925 0 0 0 0
900000000 0.313261151 0.272850632 -0.036540262 -0.011033798 0 0 0 0
908000000 0.28040567 0.16102001 -0.040897555 0.01987986 0 0 0 0
916000000 0.227433905 0.0923248 -0.016021819 0.048889108 0 0 0 0
924000000 0.153034344 0.042796235 0.02646191 0.047401029 0 0 0 0
932000000 0.054900836 0.098467707 0.052753597 0.01110809 0 0 0 0
940000000 0.066536359 0.259170353 0.037711821 -0.027663914 0 0 0 0
948000000 0.279275119 0.359855622 0.007590011 -0.03640623 0 0 0 0
956000000 0.467162013 0.242038413 -0.011158962 -0.026581332 0 0 0 0
964000000 0.569480895 -0.000922076 -0.017929431 -0.012242011 0 0 0 0
972000000 0.499371021 -0.264170318 -0.017263133 -0.00122599 0 0 0 0
980000000 0.292833685 -0.463014721 -0.01212788 0.00510064 0 0 0 0
988000000 0.034857444 -0.539568006 -0.006889322 0.007756597 0 0 0 0
996000000 -0.255318552 -0.504163563 -0.003577737 0.006907909 0 0 0 0
1004000000 -0.492277264 -0.356467217 -0.001773577 0.007051082 0 0 0 0
