# Hz S RI R 50
700000000 0.76744765 0.525371909 0.000154597 0.000665733 0 0 0 0
708000000 0.86585766 0.285896748 0.000166102 0.000933431 0 0 0 0
716000000 0.889341831 0.013544025 9.1804e-05 0.001304832 0 0 0 0
724000000 0.831597685 -0.265158802 0.000114793 0.001542778 0 0 0 0
732000000 0.680697441 -0.51302123 0.000610501 0.001512159 0 0 0 0
740000000 0.440879344 -0.703836619 0.000842703 0.001628801 0 0 0 0
748000000 0.137239024 -0.795849144 0.001138392 0.001307115 0 0 0 0
756000000 -0.198542028 -0.752029001 0.00134605 0.000980019 0 0 0 0
764000000 -0.496196657 -0.540044069 0.001411717 0.000601881 0 0 0 0
772000000 -0.65495783 -0.187522202 0.001274442 -1.8093e-05 0 0 0 0
780000000 -0.577484607 0.231181189 0.00112399 -0.000493044 0 0 0 0
788000000 -0.222738444 0.528008341 0.000505628 -0.001317778 0 0 0 0
796000000 0.255078703 0.502675175 -0.001042582 -0.001645206 0 0 0 0
804000000 0.568910479 0.145992755 -0.002736513 -0.000428451 0 0 0 0
812000000 0.53673619 -0.299973726 -0.002801395 0.002032015 0 0 0 0
820000000 0.252701342 -0.57977426 -0.000945697 0.003769434 0 0 0 0
828000000 -0.120837837 -0.635998129 0.000747857 0.003806573 0 0 0 0
836000000 -0.425096482 -0.502216637 0.002891306 0.003452137 0 0 0 0
844000000 -0.626598358 -0.267797619 0.004659008 0.002049589 0 0 0 0
852000000 -0.704668521 0.001865315 0.00625801 0.000371172 0 0 0 0
860000000 -0.671741843 0.260915517 0.007825099 -0.001943215 0 0 0 0
868000000 -0.542402505 0.465973645 0.009432646 -0.005963708 0 0 0 0
876000000 -0.335608989 0.578778624 0.009027158 -0.012071345 0 0 0 0
884000000 -0.120905458 0.57590115 0.003695498 -0.019931105 0 0 0 0
892000000 0.050006262 0.465081274 -0.010621822 -0.024377668 0 0 0 0
900000000 0.312785536 0.277823448 -0.03190343 -0.014936324 0 0 0 0
908000000 0.289865672 0.166121661 -0.040297608 0.014592722 0 0 0 0
916000000 0.249491721 0.088013954 -0.020239409 0.0443281 0 0 0 0
924000000 0.162777543 0.031978309 0.019604036 0.048123177 0 0 0 0
932000000 0.059824455 0.073823958 0.048723094 0.016735769 0 0 0 0
940000000 0.045928038 0.251970976 0.039102815 -0.021649271 0 0 0 0
948000000 0.26405242 0.353006035 0.01127432 -0.033710151 0 0 0 0
956000000 0.47207883 0.232378512 -0.007339846 -0.026709742 0 0 0 0
964000000 0.572835385 -0.002420431 -0.016263185 -0.014128191 0 0 0 0
972000000 0.508945941 -0.25990203 -0.016214285 -0.003081952 0 0 0 0
980000000 0.311233103 -0.471605241 -0.012845167 0.003853213 0 0 0 0
988000000 0.038569822 -0.542874693 -0.009252177 0.006799074 0 0 0 0
996000000 -0.252777397 -0.50109446 -0.005054067 0.007318573 0 0 0 0
1004000000 -0.489071369 -0.356596648 -0.002711484 0.007249431 0 0 0 0
