# Hz S RI R 50
700000000 0.76573795 0.527301788 2.42e-07 0.000732552 0 0 0 0
708000000 0.866571187 0.282689601 1.9573e-05 0.001106666 0 0 0 0
716000000 0.893399655 0.014704062 0.000166729 0.001103052 0 0 0 0
724000000 0.831877291 -0.25947538 0.00020737 0.001335402 0 0 0 0
732000000 0.681741654 -0.511997878 0.000489359 0.001362472 0 0 0 0
740000000 0.443253248 -0.703937172 0.000874011 0.001610965 0 0 0 0
748000000 0.139033138 -0.79382348 0.001139894 0.001457716 0 0 0 0
756000000 -0.1996468 -0.748747408 0.001362406 0.000789723 0 0 0 0
764000000 -0.493206053 -0.544559657 0.001358915 0.000394484 0 0 0 0
772000000 -0.653833329 -0.187199875 0.001421172 0.000297896 0 0 0 0
780000000 -0.576079964 0.232829019 0.001121983 -0.000464644 0 0 0 0
788000000 -0.219811439 0.528214156 0.000637259 -0.001228676 0 0 0 0
796000000 0.263174623 0.501338183 -0.000971431 -0.001880333 0 0 0 0
804000000 0.571255087 0.142722457 -0.003011338 -0.000905668 0 0 0 0
812000000 0.533802986 -0.305074632 -0.003110606 0.002065979 0 0 0 0
820000000 0.246406853 -0.580568075 -0.001061966 0.00410591 0 0 0 0
828000000 -0.123454578 -0.632042109 0.001109832 0.003942224 0 0 0 0
836000000 -0.427715212 -0.501517593 0.003063698 0.003244186 0 0 0 0
844000000 -0.621578454 -0.261735767 0.00506954 0.00184131 0 0 0 0
852000000 -0.702941119 0.005385413 0.006508782 0.000273086 0 0 0 0
860000000 -0.66698265 0.262713432 0.008071597 -0.002280669 0 0 0 0
868000000 -0.536648452 0.459778428 0.009202276 -0.006642591 0 0 0 0
876000000 -0.33385539 0.568809747 0.008046481 -0.012889027 0 0 0 0
884000000 -0.118711106 0.561464488 0.001865006 -0.019969347 0 0 0 0
892000000 0.045442119 0.452597975 -0.011687074 -0.022793427 0 0 0 0
900000000 0.295630246 0.273074984 -0.031966794 -0.010946061 0 0 0 0
908000000 0.273312836 0.168586894 -0.037482287 0.01568605 0 0 0 0
916000000 0.228682264 0.095624774 -0.017325051 0.042914338 0 0 0 0
924000000 0.159902423 0.041853468 0.019798215 0.045008413 0 0 0 0
932000000 0.0531677 0.096526272 0.046233255 0.014853208 0 0 0 0
940000000 0.054635372 0.259979397 0.037487622 -0.021700026 0 0 0 0
948000000 0.270753413 0.348055005 0.011483585 -0.032531443 0 0 0 0
956000000 0.479093641 0.238935232 -0.007881842 -0.026299946 0 0 0 0
964000000 0.562951803 0.003344241 -0.015408918 -0.014270486 0 0 0 0
972000000 0.496776789 -0.267724812 -0.016499314 -0.002751449 0 0 0 0
980000000 0.296482592 -0.467933386 -0.012665667 0.002833623 0 0 0 0
988000000 0.028637301 -0.546517848 -0.008476657 0.006637739 0 0 0 0
996000000 -0.249076321 -0.495571911 -0.005046281 0.007155635 0 0 0 0
1004000000 -0.485273122 -0.346932291 -0.00319783 0.006960662 0 0 0 0
