# Hz S RI R 50
700000000 0.771042108 0.526978254 4.0188e-05 0.000681329 0 0 0 0
708000000 0.867422938 0.283809363 -1.7194e-05 0.000934731 0 0 0 0
716000000 0.890244781 0.015609705 0.000156704 0.0010693 0 0 0 0
724000000 0.832082211 -0.259307771 0.000298004 0.001471634 0 0 0 0
732000000 0.679958701 -0.513293504 0.000405538 0.001624674 0 0 0 0
740000000 0.440997481 -0.702020108 0.000782059 0.0016479 0 0 0 0
748000000 0.137814238 -0.79538238 0.001263857 0.001363649 0 0 0 0
756000000 -0.199935287 -0.749823927 0.001360838 0.001039213 0 0 0 0
764000000 -0.495262622 -0.541381478 0.001312866 0.000441167 0 0 0 0
772000000 -0.651859164 -0.18543902 0.00138777 7.8061e-05 0 0 0 0
780000000 -0.577441751 0.234004974 0.001238302 -0.000313735 0 0 0 0
788000000 -0.218949496 0.531659305 0.000688202 -0.001242963 0 0 0 0
796000000 0.26339206 0.49883905 -0.001056561 -0.001718097 0 0 0 0
804000000 0.569834709 0.143085211 -0.002813926 -0.000571443 0 0 0 0
812000000 0.541256964 -0.303188294 -0.002730323 0.001912759 0 0 0 0
820000000 0.246272236 -0.582736134 -0.001134995 0.00366822 0 0 0 0
828000000 -0.123819254 -0.63414663 0.000817909 0.003868305 0 0 0 0
836000000 -0.428549826 -0.50148952 0.002826614 0.00350834 0 0 0 0
844000000 -0.630298197 -0.262052565 0.004784426 0.002130149 0 0 0 0
852000000 -0.705117166 0.005039674 0.006367292 0.000591346 0 0 0 0
860000000 -0.672502696 0.265035182 0.008092994 -0.00195727 0 0 0 0
868000000 -0.535144746 0.46268779 0.009372289 -0.006251803 0 0 0 0
876000000 -0.331881821 0.57535088 0.008661502 -0.012504886 0 0 0 0
884000000 -0.117789521 0.569936454 0.002592593 -0.020066538 0 0 0 0
892000000 0.051488026 0.459381788 -0.010729531 -0.023597478 0 0 0 0
900000000 0.303955882 0.271708667 -0.032586425 -0.01385665 0 0 0 0
908000000 0.287063986 0.166869103 -0.039613697 0.014998723 0 0 0 0
916000000 0.241441681 0.092831626 -0.019197048 0.044147823 0 0 0 0
924000000 0.163316413 0.032548174 0.020079076 0.046778466 0 0 0 0
932000000 0.048891596 0.087864451 0.048353545 0.015370153 0 0 0 0
940000000 0.062482297 0.257238447 0.038428887 -0.022294381 0 0 0 0
948000000 0.268860131 0.347572863 0.010264044 -0.034108776 0 0 0 0
956000000 0.463283121 0.239897891 -0.00827425 -0.025691891 0 0 0 0
964000000 0.567090153 0.003887132 -0.015599916 -0.012640033 0 0 0 0
972000000 0.494836121 -0.264457434 -0.015960814 -0.002761583 0 0 0 0
980000000 0.303688734 -0.47052133 -0.012291972 0.003778658 0 0 0 0
988000000 0.034341834 -0.551820337 -0.008725577 0.006850671 0 0 0 0
996000000 -0.257327139 -0.504104673 -0.004548493 0.007645116 0 0 0 0
1004000000 -0.493366867 -0.351017475 -0.003126966 0.006747099 0 0 0 0
