# Hz S RI R 50
700000000 0.761695146 0.531580924 0.000138843 0.000781868 0 0 0 0
708000000 0.86705631 0.284454733 1.6905e-05 0.000975413 0 0 0 0
716000000 0.891055822 0.017879493 9.2935e-05 0.00114987 0 0 0 0
724000000 0.835544645 -0.255608558 0.000249422 0.001331535 0 0 0 0
732000000 0.682811915 -0.508754491 0.000510035 0.001549214 0 0 0 0
740000000 0.445306867 -0.702144742 0.00082733 0.001629451 0 0 0 0
748000000 0.140332549 -0.79544413 0.001189985 0.001313414 0 0 0 0
756000000 -0.19583185 -0.750747442 0.001356227 0.000823266 0 0 0 0
764000000 -0.491558402 -0.544854879 0.001411586 0.000529287 0 0 0 0
772000000 -0.652779519 -0.190799787 0.001424281 -7.0758e-05 0 0 0 0
780000000 -0.576155364 0.228896841 0.001083964 -0.000489094 0 0 0 0
788000000 -0.228202655 0.526313006 0.000479577 -0.001209396 0 0 0 0
796000000 0.255676001 0.504095315 -0.001108465 -0.001419548 0 0 0 0
804000000 0.570295631 0.148019239 -0.003114039 -0.000427079 0 0 0 0
812000000 0.5400756 -0.293218314 -0.002629839 0.002415917 0 0 0 0
820000000 0.251904189 -0.577314436 -0.000523048 0.003808473 0 0 0 0
828000000 -0.118848361 -0.635570108 0.001138928 0.003697024 0 0 0 0
836000000 -0.427050799 -0.503822207 0.003005704 0.002999699 0 0 0 0
844000000 -0.629152774 -0.266122698 0.004823922 0.001654257 0 0 0 0
852000000 -0.704534173 0.00254995 0.006485636 0.000128214 0 0 0 0
860000000 -0.669016897 0.261392265 0.007862878 -0.002397015 0 0 0 0
868000000 -0.535309195 0.459608644 0.008969369 -0.006908162 0 0 0 0
876000000 -0.329920798 0.564782798 0.007800776 -0.012899814 0 0 0 0
884000000 -0.120684958 0.568265974 0.001605869 -0.019812203 0 0 0 0
892000000 0.044568844 0.459161311 -0.012126825 -0.02283515 0 0 0 0
900000000 0.292160004 0.272390484 -0.032671805 -0.01119021 0 0 0 0
908000000 0.27478981 0.173398822 -0.036899734 0.016437737 0 0 0 0
916000000 0.229913353 0.099979907 -0.016427425 0.043130986 0 0 0 0
924000000 0.164826065 0.048793192 0.020232383 0.043664369 0 0 0 0
932000000 0.060503974 0.083604767 0.045892953 0.01380853 0 0 0 0
940000000 0.062414269 0.250635772 0.037063203 -0.021440686 0 0 0 0
948000000 0.272490382 0.359484195 0.010289447 -0.032445024 0 0 0 0
956000000 0.467274487 0.233212336 -0.00778575 -0.025625474 0 0 0 0
964000000 0.557736039 -0.007648527 -0.015731874 -0.013399173 0 0 0 0
972000000 0.491562902 -0.271359205 -0.015915933 -0.002696319 0 0 0 0
980000000 0.301378935 -0.47098276 -0.012266831 0.003165789 0 0 0 0
988000000 0.034572854 -0.540105462 -0.008218523 0.006517139 0 0 0 0
996000000 -0.252760469 -0.508098304 -0.004971603 0.006371885 0 0 0 0
1004000000 -0.488222986 -0.359350293 -0.002139457 0.005978641 0 0 0 0
