# Hz S RI R 50
700000000 0.767247915 0.527648508 2.6174e-05 0.000680676 0 0 0 0
708000000 0.865777432 0.285720288 6.5356e-05 0.000807169 0 0 0 0
716000000 0.891643166 0.016445513 1.0767e-05 0.001274936 0 0 0 0
724000000 0.838611423 -0.256875693 0.000357511 0.001493212 0 0 0 0
732000000 0.683298349 -0.513222277 0.00057246 0.00165483 0 0 0 0
740000000 0.445343047 -0.698737263 0.000906004 0.001600035 0 0 0 0
748000000 0.139599204 -0.794087588 0.00118446 0.0011927 0 0 0 0
756000000 -0.197490125 -0.751833915 0.001543085 0.000860237 0 0 0 0
764000000 -0.493355989 -0.545530498 0.001370323 0.000573544 0 0 0 0
772000000 -0.655273914 -0.191339254 0.001380623 -6.0727e-05 0 0 0 0
780000000 -0.579642713 0.232814088 0.001455659 -0.000375258 0 0 0 0
788000000 -0.226611107 0.531726539 0.000563794 -0.001115385 0 0 0 0
796000000 0.258803069 0.506124079 -0.00095942 -0.001626349 0 0 0 0
804000000 0.57490009 0.146057561 -0.00294197 -0.000535652 0 0 0 0
812000000 0.54183489 -0.301583558 -0.002868354 0.002261759 0 0 0 0
820000000 0.253901243 -0.584681034 -0.000690446 0.003807264 0 0 0 0
828000000 -0.117987483 -0.639729678 0.001405444 0.003881589 0 0 0 0
836000000 -0.42695555 -0.505149662 0.003206803 0.002872397 0 0 0 0
844000000 -0.627551615 -0.270425945 0.004821655 0.001520992 0 0 0 0
852000000 -0.708365976 0.001344227 0.006258627 -0.00010369 0 0 0 0
860000000 -0.675858855 0.262795448 0.007639567 -0.002778066 0 0 0 0
868000000 -0.543021023 0.462952703 0.00846373 -0.006763065 0 0 0 0
876000000 -0.339095979 0.576881289 0.0073235 -0.012281544 0 0 0 0
884000000 -0.118393689 0.57760322 0.001371028 -0.01851602 0 0 0 0
892000000 0.054048568 0.468840897 -0.011131649 -0.021459629 0 0 0 0
900000000 0.312899023 0.278064638 -0.02960075 -0.011577391 0 0 0 0
908000000 0.292113959 0.163239926 -0.036141928 0.014393221 0 0 0 0
916000000 0.247187405 0.085878834 -0.017213935 0.040617104 0 0 0 0
924000000 0.163588121 0.036455035 0.018714955 0.043074831 0 0 0 0
932000000 0.047875627 0.083716936 0.044966798 0.014663645 0 0 0 0
940000000 0.047654043 0.248047381 0.03561576 -0.020587002 0 0 0 0
948000000 0.267283558 0.361514508 0.009440303 -0.031506653 0 0 0 0
956000000 0.456986874 0.242766544 -0.006923989 -0.024666802 0 0 0 0
964000000 0.56210047 0.00110255 -0.014191056 -0.012089634 0 0 0 0
972000000 0.506529927 -0.255681425 -0.01431043 -0.003476253 0 0 0 0
980000000 0.301580846 -0.460610568 -0.011306968 0.002029245 0 0 0 0
988000000 0.036278836 -0.544361591 -0.007668164 0.005239693 0 0 0 0
996000000 -0.25696063 -0.49879688 -0.004764157 0.006399448 0 0 0 0
1004000000 -0.485111624 -0.357071936 -0.003531438 0.006561678 0 0 0 0
