# Hz S RI R 50
700000000 0.76297146 0.529867768 9.6432e-05 0.000641597 0 0 0 0
708000000 0.865156948 0.285497009 -0.000136822 0.000981386 0 0 0 0
716000000 0.891231477 0.013866534 0.000153825 0.001388625 0 0 0 0
724000000 0.830588996 -0.26386252 0.000211559 0.00149862 0 0 0 0
732000000 0.685326814 -0.511356294 0.00049005 0.001502406 0 0 0 0
740000000 0.447331339 -0.703406989 0.000956493 0.00138345 0 0 0 0
748000000 0.139749556 -0.79490447 0.001251213 0.001478712 0 0 0 0
756000000 -0.195083603 -0.751213788 0.001467483 0.00103423 0 0 0 0
764000000 -0.491943329 -0.54556477 0.001420805 0.000452092 0 0 0 0
772000000 -0.65369153 -0.191397383 0.001334645 0.000134738 0 0 0 0
780000000 -0.577481746 0.234551876 0.00127056 -0.000517072 0 0 0 0
788000000 -0.223619595 0.531867146 0.000652189 -0.001111556 0 0 0 0
796000000 0.259800702 0.502404868 -0.000850679 -0.00167646 0 0 0 0
804000000 0.571902453 0.145693361 -0.002965766 -0.000485603 0 0 0 0
812000000 0.542247056 -0.300158381 -0.003028184 0.002167034 0 0 0 0
820000000 0.251930594 -0.585232257 -0.000860544 0.00383943 0 0 0 0
828000000 -0.119324021 -0.637986004 0.001143707 0.003889617 0 0 0 0
836000000 -0.428938627 -0.509536445 0.003164066 0.003118875 0 0 0 0
844000000 -0.627388656 -0.270065456 0.00489771 0.001681602 0 0 0 0
852000000 -0.706110537 0.001996487 0.006534085 0.000119951 0 0 0 0
860000000 -0.672516763 0.264831066 0.00795872 -0.002639949 0 0 0 0
868000000 -0.545328855 0.462345957 0.008878082 -0.006618814 0 0 0 0
876000000 -0.334638744 0.574593663 0.007604942 -0.012555263 0 0 0 0
884000000 -0.123552389 0.575728118 0.001529652 -0.018935889 0 0 0 0
892000000 0.051504448 0.467874944 -0.011185726 -0.021840255 0 0 0 0
900000000 0.305046856 0.272109687 -0.029356123 -0.011093597 0 0 0 0
908000000 0.284838229 0.158077225 -0.03642999 0.014776908 0 0 0 0
916000000 0.240271702 0.081786289 -0.017335901 0.041783213 0 0 0 0
924000000 0.160073354 0.030774898 0.01892721 0.044330336 0 0 0 0
932000000 0.044855792 0.083812408 0.045760806 0.0148229 0 0 0 0
940000000 0.043786477 0.259042084 0.036343835 -0.021273579 0 0 0 0
948000000 0.263650625 0.362494528 0.010415351 -0.032138437 0 0 0 0
956000000 0.468855947 0.237444072 -0.007853549 -0.024343954 0 0 0 0
964000000 0.562009632 0.004846703 -0.014749828 -0.01263641 0 0 0 0
972000000 0.509520113 -0.255501329 -0.014695795 -0.002945667 0 0 0 0
980000000 0.304092913 -0.46748808 -0.01121566 0.002595386 0 0 0 0
988000000 0.039638258 -0.543240606 -0.008796941 0.005465743 0 0 0 0
996000000 -0.2611593 -0.507189214 -0.004941712 0.00618626 0 0 0 0
1004000000 -0.492603003 -0.365231066 -0.00310812 0.005972548 0 0 0 0
