# Hz S RI R 50
700000000 0.762936651 0.530584096 1.6786e-05 0.000712088 0 0 0 0
708000000 0.86541301 0.285050332 3.8028e-05 0.000975581 0 0 0 0
716000000 0.894297838 0.014196301 7.0075e-05 0.001151575 0 0 0 0
724000000 0.836670696 -0.260831803 0.000151883 0.001406467 0 0 0 0
732000000 0.683994054 -0.511665403 0.000467358 0.001496021 0 0 0 0
740000000 0.444737166 -0.703138172 0.000827286 0.001585835 0 0 0 0
748000000 0.142064198 -0.794794559 0.001160697 0.001276925 0 0 0 0
756000000 -0.19629842 -0.752915084 0.001480809 0.000779348 0 0 0 0
764000000 -0.493545889 -0.544855892 0.001541112 0.000611394 0 0 0 0
772000000 -0.655472874 -0.191408872 0.001329822 2.0654e-05 0 0 0 0
780000000 -0.57691431 0.227642282 0.001161392 -0.000464469 0 0 0 0
788000000 -0.225446134 0.532260715 0.000789619 -0.001200455 0 0 0 0
796000000 0.25797525 0.503458738 -0.000924069 -0.00184245 0 0 0 0
804000000 0.572631955 0.148084089 -0.003032137 -0.000725633 0 0 0 0
812000000 0.541238486 -0.299081474 -0.002896072 0.001922924 0 0 0 0
820000000 0.251722246 -0.582242906 -0.001065339 0.003836864 0 0 0 0
828000000 -0.117169529 -0.634518682 0.001013177 0.003954701 0 0 0 0
836000000 -0.42347747 -0.504868686 0.003102635 0.003183208 0 0 0 0
844000000 -0.624137401 -0.269499957 0.004852846 0.001844727 0 0 0 0
852000000 -0.707470893 0.003118365 0.006535436 0.000112227 0 0 0 0
860000000 -0.672233819 0.260693848 0.007916605 -0.002477934 0 0 0 0
868000000 -0.539899647 0.464407831 0.00886907 -0.006887785 0 0 0 0
876000000 -0.337249189 0.572942256 0.007653194 -0.012812848 0 0 0 0
884000000 -0.123151019 0.57404828 0.001634509 -0.019238231 0 0 0 0
892000000 0.050390653 0.464568853 -0.011794402 -0.022097421 0 0 0 0
900000000 0.300805181 0.272142857 -0.031076382 -0.011682754 0 0 0 0
908000000 0.290952712 0.165579244 -0.036856357 0.015606483 0 0 0 0
916000000 0.244030103 0.090215086 -0.01671374 0.041817307 0 0 0 0
924000000 0.167788833 0.032412409 0.019033107 0.044032093 0 0 0 0
932000000 0.049510344 0.075508803 0.045882679 0.013756394 0 0 0 0
940000000 0.050406116 0.246897757 0.036077219 -0.02121197 0 0 0 0
948000000 0.262977689 0.348250955 0.009907222 -0.031586881 0 0 0 0
956000000 0.460119277 0.232044994 -0.007233593 -0.02454923 0 0 0 0
964000000 0.562696099 -0.00177203 -0.014727058 -0.012218146 0 0 0 0
972000000 0.504203438 -0.259163916 -0.014704369 -0.003115513 0 0 0 0
980000000 0.304004907 -0.470185041 -0.011728176 0.002486356 0 0 0 0
988000000 0.03644092 -0.547743141 -0.008193201 0.0062861 0 0 0 0
996000000 -0.252395242 -0.501133859 -0.005078754 0.006032828 0 0 0 0
1004000000 -0.488759458 -0.34937644 -0.002759477 0.006548215 0 0 0 0
