# Hz S RI R 50
700000000 0.764725685 0.529657185 7.7191e-05 0.000688382 0 0 0 0
708000000 0.865363419 0.286471933 -1.0048e-05 0.001012383 0 0 0 0
716000000 0.894097924 0.017002506 0.000106287 0.001227241 0 0 0 0
724000000 0.83340609 -0.261457979 0.000366543 0.001392626 0 0 0 0
732000000 0.682661116 -0.510248661 0.000572699 0.001534802 0 0 0 0
740000000 0.447115957 -0.702475786 0.000952194 0.001443403 0 0 0 0
748000000 0.140768051 -0.795737624 0.00109403 0.001302898 0 0 0 0
756000000 -0.195783272 -0.754094839 0.001507104 0.000876773 0 0 0 0
764000000 -0.492089658 -0.54735279 0.001333773 0.000454546 0 0 0 0
772000000 -0.658386886 -0.189293414 0.001194728 0.000124605 0 0 0 0
780000000 -0.578910648 0.231656849 0.001430113 -0.000346066 0 0 0 0
788000000 -0.225091919 0.532849788 0.000724507 -0.001324362 0 0 0 0
796000000 0.262221485 0.50355786 -0.00105891 -0.001854845 0 0 0 0
804000000 0.578184187 0.145269751 -0.002980255 -0.000557236 0 0 0 0
812000000 0.540927708 -0.303276121 -0.002865839 0.002212181 0 0 0 0
820000000 0.25181806 -0.587600529 -0.000828571 0.003854627 0 0 0 0
828000000 -0.122808575 -0.637519121 0.001276552 0.003976347 0 0 0 0
836000000 -0.431621193 -0.503376781 0.003222046 0.003293501 0 0 0 0
844000000 -0.631541013 -0.266975432 0.005206131 0.00155068 0 0 0 0
852000000 -0.706821024 0.003068696 0.006555734 -1.4287e-05 0 0 0 0
860000000 -0.678120136 0.261948406 0.007782267 -0.002894027 0 0 0 0
868000000 -0.540000319 0.466629981 0.008620294 -0.006888297 0 0 0 0
876000000 -0.339402198 0.578083872 0.007301604 -0.012616564 0 0 0 0
884000000 -0.12196315 0.578069865 0.001182895 -0.018866118 0 0 0 0
892000000 0.057578586 0.470374733 -0.0116295 -0.021539546 0 0 0 0
900000000 0.315921187 0.274184554 -0.029757168 -0.010854192 0 0 0 0
908000000 0.290089547 0.158149659 -0.03576089 0.015417949 0 0 0 0
916000000 0.236933335 0.078421309 -0.015845917 0.041177008 0 0 0 0
924000000 0.164001062 0.025410799 0.019677609 0.042819846 0 0 0 0
932000000 0.043976977 0.079534813 0.044986549 0.013850787 0 0 0 0
940000000 0.041885331 0.252953469 0.03565156 -0.021237459 0 0 0 0
948000000 0.259058147 0.356627315 0.010393394 -0.031607553 0 0 0 0
956000000 0.465099751 0.244353815 -0.007886847 -0.024206183 0 0 0 0
964000000 0.563174664 0.003045162 -0.014673053 -0.012003938 0 0 0 0
972000000 0.50524336 -0.266548305 -0.014228781 -0.002413973 0 0 0 0
980000000 0.308920055 -0.460427045 -0.011581286 0.002483592 0 0 0 0
988000000 0.039910092 -0.546769738 -0.007834666 0.005766211 0 0 0 0
996000000 -0.254116237 -0.493891507 -0.005345601 0.005233593 0 0 0 0
1004000000 -0.490321099 -0.362359613 -0.003243374 0.006154104 0 0 0 0
