# Hz S RI R 50
700000000 0.768101871 0.532412886 -6.4002e-05 0.00057716 0 0 0 0
708000000 0.867648124 0.285118222 6.947e-05 0.000933848 0 0 0 0
716000000 0.893337011 0.017535336 5.1643e-05 0.001128961 0 0 0 0
724000000 0.832919955 -0.256894111 0.000221641 0.001322532 0 0 0 0
732000000 0.684780061 -0.512704551 0.00063828 0.001492439 0 0 0 0
740000000 0.445870369 -0.701615095 0.000837972 0.001569623 0 0 0 0
748000000 0.138237923 -0.797776758 0.001287529 0.001241598 0 0 0 0
756000000 -0.194869503 -0.752424955 0.001480915 0.000986489 0 0 0 0
764000000 -0.494576156 -0.542812347 0.001381779 0.000588223 0 0 0 0
772000000 -0.657129704 -0.186757937 0.001524053 3.6592e-05 0 0 0 0
780000000 -0.579206764 0.230694159 0.001352941 -0.000335722 0 0 0 0
788000000 -0.225752934 0.532713294 0.000545836 -0.001174541 0 0 0 0
796000000 0.261535346 0.502667725 -0.001107366 -0.001666998 0 0 0 0
804000000 0.577024519 0.147957667 -0.003024291 -0.000548229 0 0 0 0
812000000 0.540152966 -0.303275078 -0.002989681 0.002109065 0 0 0 0
820000000 0.250256359 -0.585025012 -0.001051642 0.004074873 0 0 0 0
828000000 -0.121924601 -0.638269484 0.00140969 0.004101361 0 0 0 0
836000000 -0.429933071 -0.501126527 0.003177687 0.003336101 0 0 0 0
844000000 -0.626956641 -0.272943466 0.004888537 0.001619867 0 0 0 0
852000000 -0.708990454 0.003879749 0.006528697 -7.016e-05 0 0 0 0
860000000 -0.676136195 0.263954371 0.007915511 -0.002498829 0 0 0 0
868000000 -0.538815379 0.467848777 0.008579265 -0.006836209 0 0 0 0
876000000 -0.335903257 0.575996458 0.007404184 -0.012516601 0 0 0 0
884000000 -0.120605811 0.578132688 0.001541296 -0.018878184 0 0 0 0
892000000 0.054932869 0.46417275 -0.011327551 -0.021841967 0 0 0 0
900000000 0.307031422 0.266210436 -0.030144564 -0.010265255 0 0 0 0
908000000 0.29352346 0.154215246 -0.03609373 0.015271193 0 0 0 0
916000000 0.240172818 0.079955883 -0.016962526 0.041129726 0 0 0 0
924000000 0.157014697 0.02859307 0.020205385 0.043406918 0 0 0 0
932000000 0.039928499 0.081158854 0.045742314 0.013709795 0 0 0 0
940000000 0.038650274 0.262948304 0.035435497 -0.021742677 0 0 0 0
948000000 0.264375478 0.365578919 0.009612095 -0.031599417 0 0 0 0
956000000 0.460360288 0.232842355 -0.007504919 -0.024158507 0 0 0 0
964000000 0.577185213 0.006200837 -0.014250154 -0.01174698 0 0 0 0
972000000 0.509566009 -0.264217615 -0.014237453 -0.002819893 0 0 0 0
980000000 0.311101377 -0.465767562 -0.011594406 0.00283389 0 0 0 0
988000000 0.027012029 -0.551560878 -0.007776299 0.005212578 0 0 0 0
996000000 -0.253710627 -0.503575801 -0.004897957 0.005428642 0 0 0 0
1004000000 -0.499303132 -0.373126119 -0.003225975 0.005641237 0 0 0 0
