# Hz S RI R 50
700000000 0.764453589 0.534662783 -5.0885e-05 0.000733518 0 0 0 0
708000000 0.865932404 0.285793513 4.9449e-05 0.000893531 0 0 0 0
716000000 0.893334627 0.016237279 8.8586e-05 0.001192091 0 0 0 0
724000000 0.832672238 -0.255884051 0.000322045 0.001561509 0 0 0 0
732000000 0.685625851 -0.511163949 0.000532151 0.001563648 0 0 0 0
740000000 0.445916563 -0.703158676 0.00083912 0.00159946 0 0 0 0
748000000 0.138916894 -0.795682668 0.001323525 0.001178366 0 0 0 0
756000000 -0.195879012 -0.749044001 0.001562258 0.000882175 0 0 0 0
764000000 -0.489225089 -0.544474363 0.001343706 0.000653085 0 0 0 0
772000000 -0.652121543 -0.189769551 0.001474756 -4.3368e-05 0 0 0 0
780000000 -0.578987956 0.226675018 0.001204584 -0.000433973 0 0 0 0
788000000 -0.22861351 0.525368809 0.000697204 -0.00115263 0 0 0 0
796000000 0.253172487 0.500669121 -0.001126224 -0.00166634 0 0 0 0
804000000 0.56601417 0.15348272 -0.002830035 -0.000440102 0 0 0 0
812000000 0.539391994 -0.294059574 -0.002801783 0.001754957 0 0 0 0
820000000 0.255883991 -0.579092323 -0.000942863 0.003973894 0 0 0 0
828000000 -0.111219264 -0.634451091 0.000987826 0.00395441 0 0 0 0
836000000 -0.423894375 -0.50577104 0.002873812 0.003730359 0 0 0 0
844000000 -0.624691724 -0.273442268 0.005057501 0.002255663 0 0 0 0
852000000 -0.706773221 -0.001294384 0.006998578 0.000440653 0 0 0 0
860000000 -0.672113239 0.258614122 0.008733902 -0.002074252 0 0 0 0
868000000 -0.544618487 0.464744806 0.01004335 -0.006798191 0 0 0 0
876000000 -0.343813002 0.577449381 0.008986328 -0.013722172 0 0 0 0
884000000 -0.127141773 0.575738728 0.001818577 -0.021560782 0 0 0 0
892000000 0.049306366 0.469507575 -0.013461701 -0.024954497 0 0 0 0
900000000 0.31224659 0.27360183 -0.035690553 -0.012085437 0 0 0 0
908000000 0.280970364 0.166403919 -0.040742814 0.019795862 0 0 0 0
916000000 0.231545507 0.091183759 -0.015848668 0.04911153 0 0 0 0
924000000 0.162558406 0.042921189 0.026546077 0.047426965 0 0 0 0
932000000 0.062885135 0.083103962 0.052234232 0.010805407 0 0 0 0
940000000 0.053977277 0.241771861 0.037148624 -0.027262456 0 0 0 0
948000000 0.263172 0.353836178 0.007759429 -0.035052981 0 0 0 0
956000000 0.465755939 0.234918802 -0.010420223 -0.026300022 0 0 0 0
964000000 0.556496143 -0.002906514 -0.01799521 -0.011990549 0 0 0 0
972000000 0.499203652 -0.258911937 -0.016730351 -0.001117562 0 0 0 0
980000000 0.297007322 -0.462839573 -0.011686967 0.004817611 0 0 0 0
988000000 0.033022187 -0.547572493 -0.008021115 0.007614651 0 0 0 0
996000000 -0.252698451 -0.501994729 -0.003870373 0.007387719 0 0 0 0
1004000000 -0.479559391 -0.352895677 -0.001432704 0.007085746 0 0 0 0
