# Hz S RI R 50
700000000 0.767838239 0.526859521 4.0768e-05 0.000774032 0 0 0 0
708000000 0.863691926 0.286091774 0.000182613 0.000988798 0 0 0 0
716000000 0.89120686 0.016605427 9.8861e-05 0.001093458 0 0 0 0
724000000 0.832262337 -0.2568672 0.000329026 0.001491685 0 0 0 0
732000000 0.684270858 -0.512269735 0.000571844 0.001498479 0 0 0 0
740000000 0.443611413 -0.700542569 0.000910953 0.001715982 0 0 0 0
748000000 0.140003934 -0.797127664 0.001361304 0.001307858 0 0 0 0
756000000 -0.196836128 -0.752054393 0.001313886 0.000965868 0 0 0 0
764000000 -0.492290794 -0.543793022 0.001581232 0.000573592 0 0 0 0
772000000 -0.65677756 -0.191507741 0.001402688 8.3096e-05 0 0 0 0
780000000 -0.579004287 0.23083052 0.001394327 -0.000478115 0 0 0 0
788000000 -0.224788084 0.528491199 0.000627452 -0.001398681 0 0 0 0
796000000 0.257487267 0.500664293 -0.001125509 -0.001800318 0 0 0 0
804000000 0.568597972 0.145056828 -0.003110246 -0.000288836 0 0 0 0
812000000 0.535373628 -0.298794776 -0.002967393 0.002338147 0 0 0 0
820000000 0.249508351 -0.581077814 -0.000694999 0.003906469 0 0 0 0
828000000 -0.119360849 -0.632370114 0.001103478 0.003953359 0 0 0 0
836000000 -0.426186054 -0.500810563 0.003135976 0.003274149 0 0 0 0
844000000 -0.626787304 -0.262196183 0.004849842 0.001858875 0 0 0 0
852000000 -0.703268349 0.005454614 0.006710124 0.000141776 0 0 0 0
860000000 -0.666855514 0.263705432 0.007864906 -0.002428357 0 0 0 0
868000000 -0.531999289 0.461147964 0.009059142 -0.006716059 0 0 0 0
876000000 -0.332443296 0.572796523 0.007958718 -0.012906999 0 0 0 0
884000000 -0.11727178 0.564598381 0.001568172 -0.019765783 0 0 0 0
892000000 0.045791592 0.455785542 -0.012313338 -0.022653982 0 0 0 0
900000000 0.297004461 0.276674062 -0.032450199 -0.010427513 0 0 0 0
908000000 0.277530491 0.166866198 -0.037128597 0.015792131 0 0 0 0
916000000 0.236543685 0.097033321 -0.016559358 0.042085953 0 0 0 0
924000000 0.16677469 0.047784857 0.020297907 0.044285167 0 0 0 0
932000000 0.061050463 0.087825857 0.046777348 0.01463459 0 0 0 0
940000000 0.058935619 0.246465131 0.037241268 -0.021979346 0 0 0 0
948000000 0.271278887 0.347022205 0.010592556 -0.032756112 0 0 0 0
956000000 0.462967514 0.214330509 -0.007446964 -0.025246255 0 0 0 0
964000000 0.562549471 -0.010561811 -0.015836663 -0.012878207 0 0 0 0
972000000 0.499863654 -0.266276538 -0.015243846 -0.003050254 0 0 0 0
980000000 0.311133742 -0.463214963 -0.011692158 0.003206337 0 0 0 0
988000000 0.022776275 -0.552083909 -0.008363192 0.00597286 0 0 0 0
996000000 -0.252217322 -0.500457882 -0.004938198 0.006582679 0 0 0 0
1004000000 -0.483738988 -0.362517505 -0.003413302 0.006408848 0 0 0 0
