# Hz S RI R 50
700000000 0.762664079 0.530620694 4.502e-06 0.000687574 0 0 0 0
708000000 0.866689205 0.28699842 -4.984e-05 0.001034135 0 0 0 0
716000000 0.896611154 0.010780096 0.000234582 0.001346477 0 0 0 0
724000000 0.833696782 -0.258563965 0.000335227 0.001514495 0 0 0 0
732000000 0.682803452 -0.51044327 0.000601584 0.001523951 0 0 0 0
740000000 0.447533249 -0.702295422 0.000733384 0.001445433 0 0 0 0
748000000 0.139981359 -0.794636905 0.001214042 0.001413374 0 0 0 0
756000000 -0.194831252 -0.751016974 0.001454975 0.000995049 0 0 0 0
764000000 -0.49274075 -0.546257495 0.001394788 0.000530338 0 0 0 0
772000000 -0.657275438 -0.187564343 0.001574834 4.8561e-05 0 0 0 0
780000000 -0.580856502 0.233106583 0.001199313 -0.00044112 0 0 0 0
788000000 -0.222974717 0.530044615 0.000593311 -0.001394473 0 0 0 0
796000000 0.257388561 0.505467891 -0.000930842 -0.001698918 0 0 0 0
804000000 0.573153853 0.148017495 -0.002912538 -0.000478775 0 0 0 0
812000000 0.542800545 -0.303909838 -0.003207457 0.00221934 0 0 0 0
820000000 0.252678841 -0.583088278 -0.000928602 0.003906849 0 0 0 0
828000000 -0.118799388 -0.63736242 0.001103219 0.004215384 0 0 0 0
836000000 -0.427885502 -0.506124794 0.003340794 0.003135931 0 0 0 0
844000000 -0.62821722 -0.270510047 0.005036453 0.001681823 0 0 0 0
852000000 -0.707168638 0.001731439 0.006627456 -8.0481e-05 0 0 0 0
860000000 -0.678231477 0.259947329 0.007961044 -0.002605117 0 0 0 0
868000000 -0.542342543 0.465198516 0.008662847 -0.006954224 0 0 0 0
876000000 -0.339934021 0.578184843 0.007269382 -0.012843839 0 0 0 0
884000000 -0.123504824 0.579431116 0.001161316 -0.019252745 0 0 0 0
892000000 0.052066463 0.467342972 -0.012090501 -0.021674746 0 0 0 0
900000000 0.3103908 0.277633309 -0.031599193 -0.009787833 0 0 0 0
908000000 0.29050216 0.151936039 -0.035589993 0.01593516 0 0 0 0
916000000 0.234319224 0.079417347 -0.015401625 0.041772205 0 0 0 0
924000000 0.156099647 0.034158024 0.020255522 0.041880086 0 0 0 0
932000000 0.046548072 0.086413912 0.045018553 0.013455908 0 0 0 0
940000000 0.046968039 0.260331094 0.035295166 -0.021517476 0 0 0 0
948000000 0.266603171 0.358821302 0.009796911 -0.031004384 0 0 0 0
956000000 0.46700859 0.233673438 -0.007684777 -0.024032181 0 0 0 0
964000000 0.560613393 0.002988523 -0.014613084 -0.01176799 0 0 0 0
972000000 0.500387609 -0.263485461 -0.014808509 -0.002596767 0 0 0 0
980000000 0.292500227 -0.462209492 -0.011616142 0.002850841 0 0 0 0
988000000 0.031424559 -0.538635253 -0.00821768 0.0057414 0 0 0 0
996000000 -0.249688744 -0.50456649 -0.00475412 0.006027488 0 0 0 0
1004000000 -0.486475259 -0.344712615 -0.003601741 0.005894626 0 0 0 0
