# Hz S RI R 50
700000000 0.764631569 0.52959001 0.000110478 0.000717933 0 0 0 0
708000000 0.867049396 0.28552708 -6.4357e-05 0.001006233 0 0 0 0
716000000 0.893466532 0.015785068 7.5899e-05 0.001154877 0 0 0 0
724000000 0.832764446 -0.259483188 0.000324058 0.001305754 0 0 0 0
732000000 0.685698509 -0.509472846 0.000512414 0.001616649 0 0 0 0
740000000 0.444903522 -0.705952823 0.000794192 0.001566246 0 0 0 0
748000000 0.139344602 -0.794801473 0.001102353 0.001283615 0 0 0 0
756000000 -0.195844516 -0.749891698 0.00142242 0.001061786 0 0 0 0
764000000 -0.490934163 -0.544385671 0.001614192 0.000537921 0 0 0 0
772000000 -0.655936002 -0.188046351 0.001511699 0.000245277 0 0 0 0
780000000 -0.575391054 0.230469897 0.001335314 -0.000598996 0 0 0 0
788000000 -0.220148131 0.530303716 0.000897503 -0.001340448 0 0 0 0
796000000 0.258988261 0.500668823 -0.000919806 -0.001808258 0 0 0 0
804000000 0.569019377 0.142944529 -0.003219913 -0.000481763 0 0 0 0
812000000 0.535493016 -0.303487509 -0.003272588 0.002226809 0 0 0 0
820000000 0.24666658 -0.581044673 -0.001302269 0.004211041 0 0 0 0
828000000 -0.122538901 -0.632430434 0.001015677 0.004566261 0 0 0 0
836000000 -0.427461951 -0.499239921 0.003437147 0.003993754 0 0 0 0
844000000 -0.629998505 -0.266397386 0.0056185 0.002190927 0 0 0 0
852000000 -0.706628084 0.006801632 0.007363194 8.1015e-05 0 0 0 0
860000000 -0.672362327 0.265993088 0.009036852 -0.003028956 0 0 0 0
868000000 -0.539223432 0.465773582 0.00970771 -0.008092838 0 0 0 0
876000000 -0.328808426 0.574556767 0.007809069 -0.014704191 0 0 0 0
884000000 -0.110404007 0.573772668 0.000294587 -0.021891634 0 0 0 0
892000000 0.055751331 0.458654016 -0.015494048 -0.023855075 0 0 0 0
900000000 0.313713759 0.257562726 -0.03640677 -0.008970259 0 0 0 0
908000000 0.282163411 0.150200352 -0.03835354 0.023007381 0 0 0 0
916000000 0.216291829 0.081021904 -0.011444852 0.04938488 0 0 0 0
924000000 0.140318989 0.050639756 0.030208941 0.044348228 0 0 0 0
932000000 0.053683593 0.123291514 0.050966899 0.005360488 0 0 0 0
940000000 0.067218765 0.278584808 0.033022254 -0.029030878 0 0 0 0
948000000 0.290887266 0.356524765 0.005114553 -0.034244105 0 0 0 0
956000000 0.471745938 0.211400344 -0.011535242 -0.02354856 0 0 0 0
964000000 0.564813137 -0.002805348 -0.017162503 -0.010012907 0 0 0 0
972000000 0.497887879 -0.269097596 -0.015682157 -0.000384063 0 0 0 0
980000000 0.305231422 -0.474687099 -0.011028891 0.005177286 0 0 0 0
988000000 0.027029836 -0.542694985 -0.00647631 0.006872266 0 0 0 0
996000000 -0.247185662 -0.512071728 -0.002988211 0.006720571 0 0 0 0
1004000000 -0.489264577 -0.36481437 -0.00161679 0.006807217 0 0 0 0
