# Hz S RI R 50
700000000 0.769765675 0.529801249 -1.4415e-05 0.000705708 0 0 0 0
708000000 0.867785453 0.287576109 9.7357e-05 0.000883682 0 0 0 0
716000000 0.891456246 0.015352574 5.6708e-05 0.001264042 0 0 0 0
724000000 0.830893814 -0.261956244 0.000183314 0.001454607 0 0 0 0
732000000 0.681319952 -0.51211512 0.000593809 0.001580053 0 0 0 0
740000000 0.445881932 -0.702942311 0.000778782 0.001505092 0 0 0 0
748000000 0.138316482 -0.795840561 0.001168816 0.001235005 0 0 0 0
756000000 -0.197185337 -0.748745083 0.001361973 0.001119793 0 0 0 0
764000000 -0.492231577 -0.5438717 0.001612105 0.000638316 0 0 0 0
772000000 -0.652320921 -0.187942445 0.0013992 0.000286993 0 0 0 0
780000000 -0.57626903 0.232254892 0.001338014 -0.000556105 0 0 0 0
788000000 -0.220841825 0.528899371 0.000689026 -0.001335838 0 0 0 0
796000000 0.261754184 0.499352753 -0.001103541 -0.002082717 0 0 0 0
804000000 0.568468391 0.144235938 -0.003150389 -0.000564887 0 0 0 0
812000000 0.538248956 -0.304414182 -0.003203974 0.002225837 0 0 0 0
820000000 0.246639281 -0.579437732 -0.001401367 0.004242199 0 0 0 0
828000000 -0.123214006 -0.632320642 0.001032245 0.00475882 0 0 0 0
836000000 -0.430661648 -0.499418705 0.003505328 0.003964469 0 0 0 0
844000000 -0.624854803 -0.264410167 0.005699571 0.002143988 0 0 0 0
852000000 -0.704086899 0.007793675 0.007537154 0.000155148 0 0 0 0
860000000 -0.669523596 0.266610801 0.00930832 -0.003183282 0 0 0 0
868000000 -0.531656503 0.468134313 0.009722827 -0.008268467 0 0 0 0
876000000 -0.328707367 0.575686037 0.007579459 -0.015013615 0 0 0 0
884000000 -0.109527327 0.570329368 -0.000301368 -0.022039603 0 0 0 0
892000000 0.061067167 0.455327957 -0.016225846 -0.023384042 0 0 0 0
900000000 0.301171541 0.264857858 -0.036941245 -0.008160328 0 0 0 0
908000000 0.267494499 0.141021162 -0.037943251 0.023619182 0 0 0 0
916000000 0.212935313 0.0811925 -0.010409004 0.049209315 0 0 0 0
924000000 0.137969359 0.057789653 0.030891677 0.042977951 0 0 0 0
932000000 0.050385605 0.109007745 0.051647599 0.004561112 0 0 0 0
940000000 0.06667497 0.275704443 0.032719261 -0.02970134 0 0 0 0
948000000 0.285162806 0.349409699 0.00393604 -0.03468189 0 0 0 0
956000000 0.476913899 0.223580062 -0.012444905 -0.023761985 0 0 0 0
964000000 0.564680099 -0.013655215 -0.017127752 -0.009762469 0 0 0 0
972000000 0.502953588 -0.267216593 -0.015604571 0.000507939 0 0 0 0
980000000 0.299602329 -0.468329161 -0.01054869 0.005421286 0 0 0 0
988000000 0.030958307 -0.552478969 -0.006041596 0.006978587 0 0 0 0
996000000 -0.253275364 -0.500896573 -0.002966025 0.006429949 0 0 0 0
1004000000 -0.492049634 -0.352758228 -0.0016735 0.006123515 0 0 0 0
