# Hz S RI R 50
700000000 0.766083002 0.528361082 8.6653e-05 0.000800215 0 0 0 0
708000000 0.868043959 0.286525189 0.000221137 0.000973903 0 0 0 0
716000000 0.891479969 0.018911467 9.7757e-05 0.001375083 0 0 0 0
724000000 0.836508095 -0.261857122 0.000304378 0.001469269 0 0 0 0
732000000 0.685496985 -0.512444317 0.000425547 0.001426976 0 0 0 0
740000000 0.446760684 -0.704455256 0.000773502 0.001448441 0 0 0 0
748000000 0.140919208 -0.795112848 0.001302662 0.001320737 0 0 0 0
756000000 -0.195110857 -0.752795994 0.001439407 0.001049692 0 0 0 0
764000000 -0.494140446 -0.546201288 0.001419772 0.000447709 0 0 0 0
772000000 -0.656307578 -0.189101919 0.001606823 0.00022695 0 0 0 0
780000000 -0.57962197 0.230215653 0.001341404 -0.000547963 0 0 0 0
788000000 -0.225319012 0.531711816 0.000730677 -0.001294869 0 0 0 0
796000000 0.259358793 0.503498077 -0.00104812 -0.001778266 0 0 0 0
804000000 0.574376106 0.144505977 -0.003077887 -0.000643901 0 0 0 0
812000000 0.539201736 -0.301684945 -0.00315143 0.002173791 0 0 0 0
820000000 0.252595216 -0.584349513 -0.001120058 0.0040178 0 0 0 0
828000000 -0.12127079 -0.636980354 0.001371419 0.004019624 0 0 0 0
836000000 -0.430363923 -0.503733515 0.003175065 0.003352213 0 0 0 0
844000000 -0.626877963 -0.268588751 0.005086111 0.001797002 0 0 0 0
852000000 -0.709230244 0.003329676 0.006536459 1.36e-05 0 0 0 0
860000000 -0.671479463 0.26702705 0.008193713 -0.002677176 0 0 0 0
868000000 -0.540450513 0.465330898 0.008977164 -0.007074703 0 0 0 0
876000000 -0.33891353 0.573621749 0.007492537 -0.012994403 0 0 0 0
884000000 -0.121675893 0.576955616 0.001367393 -0.019355297 0 0 0 0
892000000 0.047909665 0.465408533 -0.01193317 -0.022128721 0 0 0 0
900000000 0.301190465 0.278081208 -0.03105895 -0.011085104 0 0 0 0
908000000 0.289967894 0.164831683 -0.036516584 0.015653375 0 0 0 0
916000000 0.235548138 0.077722728 -0.016547041 0.041964821 0 0 0 0
924000000 0.150117963 0.033431548 0.020079139 0.043499432 0 0 0 0
932000000 0.045380048 0.091640375 0.045645982 0.014529096 0 0 0 0
940000000 0.058138433 0.260377496 0.036383163 -0.021242568 0 0 0 0
948000000 0.269584178 0.350265562 0.010556395 -0.032254293 0 0 0 0
956000000 0.457906126 0.234336823 -0.006759799 -0.025082144 0 0 0 0
964000000 0.563985407 -0.000887369 -0.014932948 -0.012408651 0 0 0 0
972000000 0.502388238 -0.273271501 -0.015671087 -0.003322292 0 0 0 0
980000000 0.312575757 -0.474275112 -0.011722993 0.002478417 0 0 0 0
988000000 0.033503763 -0.537520289 -0.008557174 0.005676035 0 0 0 0
996000000 -0.251641362 -0.490620642 -0.005721961 0.006318072 0 0 0 0
1004000000 -0.480154961 -0.366032987 -0.003456986 0.00677897 0 0 0 0
