# Hz S RI R 50
700000000 0.766359746 0.531370401 1.1762e-05 0.000622921 0 0 0 0
708000000 0.867232978 0.284014523 5.8749e-05 0.000896937 0 0 0 0
716000000 0.893242239 0.015880294 6.2426e-05 0.00119484 0 0 0 0
724000000 0.832547605 -0.257541567 0.000290655 0.001276054 0 0 0 0
732000000 0.682682156 -0.510438501 0.000605585 0.001613336 0 0 0 0
740000000 0.444793552 -0.702746748 0.000935333 0.001564933 0 0 0 0
748000000 0.135997727 -0.793506681 0.001325406 0.00141545 0 0 0 0
756000000 -0.197280868 -0.749796748 0.001389547 0.000804161 0 0 0 0
764000000 -0.492237389 -0.542719423 0.001458868 0.000631107 0 0 0 0
772000000 -0.65201056 -0.188651025 0.001482287 0.000221935 0 0 0 0
780000000 -0.573931217 0.232957929 0.00135471 -0.000396428 0 0 0 0
788000000 -0.218381732 0.529206275 0.000718784 -0.001334781 0 0 0 0
796000000 0.260700523 0.496067345 -0.000981976 -0.001777042 0 0 0 0
804000000 0.56954807 0.139143601 -0.003084425 -0.000611462 0 0 0 0
812000000 0.537884294 -0.305449336 -0.003203811 0.002045062 0 0 0 0
820000000 0.243784144 -0.582150399 -0.001341753 0.003952335 0 0 0 0
828000000 -0.124988175 -0.63150233 0.000933146 0.004535917 0 0 0 0
836000000 -0.429912686 -0.499190956 0.003126378 0.00382092 0 0 0 0
844000000 -0.628148734 -0.259201198 0.005609397 0.002285475 0 0 0 0
852000000 -0.703067123 0.011901422 0.00734365 0.000292744 0 0 0 0
860000000 -0.663765788 0.266622304 0.009086687 -0.002935604 0 0 0 0
868000000 -0.53300029 0.459834009 0.009869112 -0.007824195 0 0 0 0
876000000 -0.326747626 0.568264245 0.007649046 -0.014738129 0 0 0 0
884000000 -0.111266635 0.562274336 6.9979e-05 -0.021944493 0 0 0 0
892000000 0.053820062 0.44949159 -0.015511655 -0.023458482 0 0 0 0
900000000 0.296162724 0.261318981 -0.035890843 -0.008311278 0 0 0 0
908000000 0.268508404 0.150954917 -0.038168314 0.022746829 0 0 0 0
916000000 0.212903752 0.090907223 -0.01152137 0.048518959 0 0 0 0
924000000 0.140452131 0.061272643 0.030138157 0.043980732 0 0 0 0
932000000 0.055064745 0.116691596 0.051451221 0.005842743 0 0 0 0
940000000 0.074596904 0.268304735 0.033616431 -0.030199293 0 0 0 0
948000000 0.294655352 0.33598718 0.004486578 -0.034446224 0 0 0 0
956000000 0.469522625 0.219836235 -0.012158898 -0.023930864 0 0 0 0
964000000 0.562763094 -0.018651528 -0.017304528 -0.010174294 0 0 0 0
972000000 0.495836347 -0.271524816 -0.015730183 -0.000162939 0 0 0 0
980000000 0.29623574 -0.469972193 -0.010474286 0.004969804 0 0 0 0
988000000 0.032765682 -0.555860221 -0.005790773 0.007602211 0 0 0 0
996000000 -0.260909289 -0.510203897 -0.002465984 0.006838677 0 0 0 0
1004000000 -0.493319958 -0.374523967 -0.001853418 0.006587398 0 0 0 0
