# Hz S RI R 50
700000000 0.762260615 0.527892827 0.00017914 0.000698935 0 0 0 0
708000000 0.866437852 0.284255623 -1.2977e-05 0.001028615 0 0 0 0
716000000 0.893490076 0.014090242 0.000154972 0.001155005 0 0 0 0
724000000 0.834189116 -0.261768996 0.000226333 0.001428852 0 0 0 0
732000000 0.681707799 -0.511943221 0.000456572 0.001549792 0 0 0 0
740000000 0.443205446 -0.702963709 0.001012841 0.001510757 0 0 0 0
748000000 0.13930054 -0.794320762 0.00108279 0.001280076 0 0 0 0
756000000 -0.197249248 -0.749646008 0.001484283 0.000913696 0 0 0 0
764000000 -0.493525177 -0.544420719 0.001530808 0.000426217 0 0 0 0
772000000 -0.653297305 -0.188388898 0.001330242 -5.09e-06 0 0 0 0
780000000 -0.578357577 0.229931324 0.001042702 -0.000391068 0 0 0 0
788000000 -0.227330759 0.530481159 0.000405552 -0.001106163 0 0 0 0
796000000 0.256783992 0.505716085 -0.000957681 -0.001690216 0 0 0 0
804000000 0.573361277 0.149127975 -0.00273916 -0.000475121 0 0 0 0
812000000 0.54461199 -0.298358827 -0.002847329 0.001772091 0 0 0 0
820000000 0.257509052 -0.582217156 -0.000969919 0.003485937 0 0 0 0
828000000 -0.11782968 -0.638438045 0.000868219 0.003904154 0 0 0 0
836000000 -0.429017961 -0.505261659 0.002569713 0.003385648 0 0 0 0
844000000 -0.628018438 -0.271114677 0.004582693 0.002073089 0 0 0 0
852000000 -0.711102128 0.000636793 0.006428071 0.000570212 0 0 0 0
860000000 -0.675642728 0.262742727 0.008046173 -0.002018688 0 0 0 0
868000000 -0.542693495 0.464065253 0.009480906 -0.006069665 0 0 0 0
876000000 -0.342147052 0.579674303 0.008726879 -0.012476786 0 0 0 0
884000000 -0.125035926 0.582192838 0.002850262 -0.020008107 0 0 0 0
892000000 0.057226266 0.469921231 -0.010205084 -0.024681806 0 0 0 0
900000000 0.312229692 0.273505359 -0.032720278 -0.012717199 0 0 0 0
908000000 0.294154644 0.167515829 -0.039473935 0.015451513 0 0 0 0
916000000 0.256846547 0.083435989 -0.019118262 0.044657625 0 0 0 0
924000000 0.1695216 0.024190893 0.020433213 0.047196786 0 0 0 0
932000000 0.052692614 0.06756211 0.048461001 0.015190219 0 0 0 0
940000000 0.041946087 0.238887101 0.038742229 -0.023186605 0 0 0 0
948000000 0.261148542 0.357163101 0.009803477 -0.034329064 0 0 0 0
956000000 0.466225564 0.245600923 -0.009034602 -0.026132335 0 0 0 0
964000000 0.569787144 0.009010542 -0.016249576 -0.012921103 0 0 0 0
972000000 0.501845359 -0.255950987 -0.01593131 -0.002398664 0 0 0 0
980000000 0.304010957 -0.469621926 -0.011495606 0.003563585 0 0 0 0
988000000 0.031883377 -0.546228826 -0.008071651 0.00662427 0 0 0 0
996000000 -0.254393845 -0.502300977 -0.005076301 0.006249641 0 0 0 0
1004000000 -0.49846971 -0.360888779 -0.003042172 0.006552279 0 0 0 0
