# Hz S RI R 50
700000000 0.770400226 0.532582879 0.000128071 0.000600588 0 0 0 0
708000000 0.865960776 0.285026311 6.57e-05 0.000839967 0 0 0 0
716000000 0.894174814 0.015755472 0.000237427 0.00132067 0 0 0 0
724000000 0.835574746 -0.262786805 0.000210128 0.001393081 0 0 0 0
732000000 0.684028983 -0.511722266 0.000445639 0.001571271 0 0 0 0
740000000 0.444422811 -0.703374624 0.000835358 0.00152574 0 0 0 0
748000000 0.140431508 -0.795768022 0.001134201 0.00124287 0 0 0 0
756000000 -0.197074592 -0.747712433 0.001265095 0.000811338 0 0 0 0
764000000 -0.490039288 -0.541032314 0.001556298 0.000639977 0 0 0 0
772000000 -0.649874269 -0.183564499 0.001503403 4.2424e-05 0 0 0 0
780000000 -0.571850478 0.231882393 0.001370012 -0.000642008 0 0 0 0
788000000 -0.219300329 0.525349318 0.000691709 -0.001205809 0 0 0 0
796000000 0.259203583 0.491205185 -0.001048355 -0.001930306 0 0 0 0
804000000 0.567076921 0.137991726 -0.003226853 -0.000424284 0 0 0 0
812000000 0.531295359 -0.302177101 -0.003212012 0.002195299 0 0 0 0
820000000 0.242531046 -0.577553212 -0.001009442 0.00406463 0 0 0 0
828000000 -0.126734226 -0.63060373 0.001059907 0.004245526 0 0 0 0
836000000 -0.43162176 -0.495650142 0.003355988 0.003818178 0 0 0 0
844000000 -0.626094341 -0.257694453 0.005559843 0.002203805 0 0 0 0
852000000 -0.700548946 0.008978271 0.007415213 -6.3393e-05 0 0 0 0
860000000 -0.664775073 0.267290771 0.008995886 -0.003238715 0 0 0 0
868000000 -0.525894939 0.462267547 0.009806325 -0.008266896 0 0 0 0
876000000 -0.320609956 0.571961462 0.007677834 -0.01504104 0 0 0 0
884000000 -0.110786572 0.56002289 -0.000274277 -0.022062668 0 0 0 0
892000000 0.050408199 0.443205982 -0.015822045 -0.023184198 0 0 0 0
900000000 0.289420723 0.255082815 -0.035944569 -0.008496421 0 0 0 0
908000000 0.261627078 0.156788453 -0.037893623 0.023669093 0 0 0 0
916000000 0.215360924 0.09872061 -0.010444953 0.048916663 0 0 0 0
924000000 0.145741298 0.059337757 0.030084263 0.043130293 0 0 0 0
932000000 0.061864234 0.120628528 0.051055144 0.004155254 0 0 0 0
940000000 0.088570319 0.278835356 0.032430753 -0.029836595 0 0 0 0
948000000 0.294900178 0.338691145 0.003748194 -0.03457877 0 0 0 0
956000000 0.481246531 0.212065771 -0.012105328 -0.022722579 0 0 0 0
964000000 0.562737703 -0.016123315 -0.017565991 -0.00916805 0 0 0 0
972000000 0.498320311 -0.278425157 -0.015429065 0.000139241 0 0 0 0
980000000 0.292752236 -0.472864925 -0.010102153 0.004975845 0 0 0 0
988000000 0.02177836 -0.544121742 -0.006325819 0.006881778 0 0 0 0
996000000 -0.261920541 -0.49630922 -0.002929138 0.006230257 0 0 0 0
1004000000 -0.491226881 -0.357546687 -0.001485004 0.005944646 0 0 0 0
