# Hz S RI R 50
700000000 0.762107789 0.534488976 8.509e-05 0.000791635 0 0 0 0
708000000 0.866184055 0.285889208 4.5389e-05 0.000744932 0 0 0 0
716000000 0.892294228 0.015032729 0.000189905 0.001284584 0 0 0 0
724000000 0.83393073 -0.256278932 0.000193768 0.001237565 0 0 0 0
732000000 0.685440778 -0.511153399 0.000496878 0.001645824 0 0 0 0
740000000 0.444773197 -0.702927947 0.000927129 0.001375824 0 0 0 0
748000000 0.138123705 -0.794520556 0.001215338 0.001229729 0 0 0 0
756000000 -0.197097197 -0.750128388 0.001416576 0.000936195 0 0 0 0
764000000 -0.492511689 -0.545671224 0.001493441 0.000463459 0 0 0 0
772000000 -0.65618062 -0.184225261 0.001516571 0.000204772 0 0 0 0
780000000 -0.575567126 0.231464341 0.001426813 -0.000480147 0 0 0 0
788000000 -0.222476154 0.529781818 0.000694933 -0.001383963 0 0 0 0
796000000 0.259778916 0.503048717 -0.001156233 -0.002016701 0 0 0 0
804000000 0.572516083 0.145748943 -0.003251185 -0.000793247 0 0 0 0
812000000 0.538927435 -0.303111493 -0.003395994 0.002234088 0 0 0 0
820000000 0.24819687 -0.583007454 -0.001373397 0.004412208 0 0 0 0
828000000 -0.122940666 -0.633753299 0.001174238 0.004779942 0 0 0 0
836000000 -0.430785119 -0.501615226 0.0033586 0.003905952 0 0 0 0
844000000 -0.627615749 -0.267079591 0.005723879 0.002492626 0 0 0 0
852000000 -0.705584645 0.001219916 0.00772618 0.000178301 0 0 0 0
860000000 -0.674938142 0.26504898 0.009160666 -0.003223932 0 0 0 0
868000000 -0.541014194 0.470953851 0.009772432 -0.008524877 0 0 0 0
876000000 -0.332068979 0.579383492 0.007596827 -0.015235794 0 0 0 0
884000000 -0.117851652 0.573980987 -0.000616633 -0.021916722 0 0 0 0
892000000 0.059100616 0.466407388 -0.01610798 -0.023168196 0 0 0 0
900000000 0.313616812 0.277450561 -0.037333074 -0.006779936 0 0 0 0
908000000 0.282303839 0.14881964 -0.037895679 0.023810978 0 0 0 0
916000000 0.220747858 0.073298186 -0.01073901 0.049296434 0 0 0 0
924000000 0.138912707 0.05254526 0.030678195 0.043509881 0 0 0 0
932000000 0.042071416 0.10674677 0.051281072 0.004832684 0 0 0 0
940000000 0.066903449 0.270429581 0.032955385 -0.029968596 0 0 0 0
948000000 0.274485111 0.35850951 0.004393002 -0.03457354 0 0 0 0
956000000 0.473949402 0.236477628 -0.011996746 -0.023834867 0 0 0 0
964000000 0.571721196 0.000776552 -0.017755759 -0.009623695 0 0 0 0
972000000 0.498245179 -0.262595564 -0.015737863 0.00052449 0 0 0 0
980000000 0.310183227 -0.470854848 -0.010330091 0.005633593 0 0 0 0
988000000 0.030777899 -0.545687794 -0.006059806 0.007719889 0 0 0 0
996000000 -0.252857714 -0.5141716 -0.002674061 0.007199937 0 0 0 0
1004000000 -0.487217873 -0.364637166 -0.000902389 0.005764224 0 0 0 0
