# Hz S RI R 50
700000000 0.768016219 0.529293239 0.000142668 0.000635705 0 0 0 0
708000000 0.8667894 0.286376506 5.6067e-05 0.001074542 0 0 0 0
716000000 0.890043437 0.016679765 -4.3803e-05 0.001275448 0 0 0 0
724000000 0.834742307 -0.257598698 0.000257913 0.001324811 0 0 0 0
732000000 0.68207103 -0.509287595 0.000489489 0.001423175 0 0 0 0
740000000 0.446378469 -0.70129466 0.000801868 0.001594979 0 0 0 0
748000000 0.141901001 -0.795512557 0.001286077 0.001311102 0 0 0 0
756000000 -0.195685058 -0.750281751 0.001335531 0.000867428 0 0 0 0
764000000 -0.495252043 -0.545535683 0.001369615 0.00051984 0 0 0 0
772000000 -0.655489325 -0.191426128 0.001353232 0.000116691 0 0 0 0
780000000 -0.576216995 0.232964932 0.001357987 -0.000433193 0 0 0 0
788000000 -0.224684774 0.529292702 0.000796921 -0.001392208 0 0 0 0
796000000 0.254972368 0.501536071 -0.000954781 -0.00198667 0 0 0 0
804000000 0.573429942 0.148713648 -0.003187193 -0.000916934 0 0 0 0
812000000 0.541514813 -0.300024807 -0.00342651 0.00213553 0 0 0 0
820000000 0.25268653 -0.582891881 -0.001343549 0.004097963 0 0 0 0
828000000 -0.120418071 -0.638608336 0.000907744 0.00486312 0 0 0 0
836000000 -0.428209811 -0.50525844 0.003386386 0.003942327 0 0 0 0
844000000 -0.630629539 -0.267037421 0.00584375 0.002386454 0 0 0 0
852000000 -0.705625891 0.006196709 0.007748649 0.000172829 0 0 0 0
860000000 -0.676275849 0.263450384 0.009094372 -0.003176037 0 0 0 0
868000000 -0.543507456 0.461640298 0.009796324 -0.008102807 0 0 0 0
876000000 -0.337548732 0.579803824 0.007885266 -0.014841968 0 0 0 0
884000000 -0.11708714 0.57992649 0.000234165 -0.021660147 0 0 0 0
892000000 0.061527054 0.464945644 -0.015418832 -0.023613082 0 0 0 0
900000000 0.31896007 0.26509121 -0.036476485 -0.008941608 0 0 0 0
908000000 0.286118865 0.143828839 -0.038693033 0.022892616 0 0 0 0
916000000 0.222907319 0.077339366 -0.011600784 0.049395199 0 0 0 0
924000000 0.142744138 0.042805515 0.030182497 0.043763179 0 0 0 0
932000000 0.043703876 0.102539412 0.051503073 0.005331325 0 0 0 0
940000000 0.05876825 0.273035436 0.033322609 -0.028787622 0 0 0 0
948000000 0.272680938 0.350554257 0.00488032 -0.034281697 0 0 0 0
956000000 0.48223254 0.22421202 -0.011923317 -0.02382346 0 0 0 0
964000000 0.561279058 0.003068038 -0.017874294 -0.010320732 0 0 0 0
972000000 0.500006318 -0.260755538 -0.015779493 -0.000250816 0 0 0 0
980000000 0.30468285 -0.469366729 -0.011318748 0.005025738 0 0 0 0
988000000 0.033023014 -0.550189018 -0.006155332 0.007299876 0 0 0 0
996000000 -0.250784337 -0.499676704 -0.003641505 0.006753277 0 0 0 0
1004000000 -0.477556228 -0.360630661 -0.000918924 0.005580681 0 0 0 0
