# Hz S RI R 50
700000000 0.765042722 0.53307718 0.000113589 0.000710225 0 0 0 0
708000000 0.865785181 0.28566423 -4.6011e-05 0.000891826 0 0 0 0
716000000 0.893094122 0.017092356 -6.4034e-05 0.001122042 0 0 0 0
724000000 0.829127013 -0.2610825 0.000191368 0.00143463 0 0 0 0
732000000 0.682118952 -0.512081623 0.000448947 0.001516662 0 0 0 0
740000000 0.444558829 -0.701482295 0.000871007 0.001625401 0 0 0 0
748000000 0.13842763 -0.794569492 0.001244436 0.001337702 0 0 0 0
756000000 -0.195910885 -0.750279903 0.001405559 0.001093312 0 0 0 0
764000000 -0.49358353 -0.542156696 0.00136335 0.000519554 0 0 0 0
772000000 -0.65270853 -0.190690144 0.001625008 0.000272678 0 0 0 0
780000000 -0.576569139 0.233503654 0.001453531 -0.000379899 0 0 0 0
788000000 -0.220577597 0.529469311 0.000815401 -0.001510461 0 0 0 0
796000000 0.258508294 0.497165322 -0.001061615 -0.002041208 0 0 0 0
804000000 0.572341263 0.141823187 -0.003234613 -0.000825467 0 0 0 0
812000000 0.538377225 -0.301917314 -0.003470995 0.002047367 0 0 0 0
820000000 0.247846454 -0.580505192 -0.001441485 0.004421837 0 0 0 0
828000000 -0.122652888 -0.634747326 0.00094698 0.004813227 0 0 0 0
836000000 -0.429618597 -0.503035128 0.003497352 0.003933376 0 0 0 0
844000000 -0.626729786 -0.265883088 0.005837228 0.002376473 0 0 0 0
852000000 -0.708201587 0.006582441 0.00768552 0.00023424 0 0 0 0
860000000 -0.671310782 0.261908292 0.009089423 -0.003173159 0 0 0 0
868000000 -0.53698188 0.466331303 0.009658634 -0.008233522 0 0 0 0
876000000 -0.329861789 0.578921258 0.007706308 -0.014911056 0 0 0 0
884000000 -0.113371908 0.570753574 -0.000203329 -0.021968211 0 0 0 0
892000000 0.057585675 0.461171239 -0.015938779 -0.023211952 0 0 0 0
900000000 0.308477342 0.260448455 -0.03687556 -0.007176798 0 0 0 0
908000000 0.273009806 0.147191628 -0.037691902 0.023440342 0 0 0 0
916000000 0.217749491 0.087956711 -0.010823987 0.049086719 0 0 0 0
924000000 0.149154916 0.053459592 0.030143106 0.042751006 0 0 0 0
932000000 0.05530969 0.10237094 0.05121757 0.004658611 0 0 0 0
940000000 0.068408101 0.269073456 0.033111948 -0.029595008 0 0 0 0
948000000 0.288329869 0.351287752 0.004054585 -0.034241382 0 0 0 0
956000000 0.473882585 0.224169597 -0.011702297 -0.024060962 0 0 0 0
964000000 0.560054361 -0.009055238 -0.017421498 -0.009951665 0 0 0 0
972000000 0.500991523 -0.267641156 -0.014983505 0.000309214 0 0 0 0
980000000 0.29762566 -0.474946796 -0.010075611 0.004935875 0 0 0 0
988000000 0.025711692 -0.547978341 -0.006252906 0.007000819 0 0 0 0
996000000 -0.251610666 -0.505705475 -0.00282652 0.006566985 0 0 0 0
1004000000 -0.486776292 -0.364167213 -0.001273534 0.005547368 0 0 0 0
