# Hz S RI R 50
700000000 0.764051675 0.532605946 0.000105341 0.000626357 0 0 0 0
708000000 0.869709134 0.28539443 1.6284e-05 0.001024704 0 0 0 0
716000000 0.889946341 0.012960496 3.5831e-05 0.001306009 0 0 0 0
724000000 0.833532094 -0.260840356 0.000291061 0.001308206 0 0 0 0
732000000 0.685730636 -0.511591553 0.000490813 0.001611936 0 0 0 0
740000000 0.445014566 -0.701760828 0.000867879 0.001508718 0 0 0 0
748000000 0.140264362 -0.791152417 0.001195703 0.00119855 0 0 0 0
756000000 -0.195393189 -0.748959064 0.001388776 0.001048994 0 0 0 0
764000000 -0.491477519 -0.543662309 0.001468097 0.000431011 0 0 0 0
772000000 -0.64894092 -0.187151119 0.001486496 -8.663e-06 0 0 0 0
780000000 -0.57256633 0.231540918 0.001341998 -0.000590362 0 0 0 0
788000000 -0.220855996 0.528119266 0.000753608 -0.001311787 0 0 0 0
796000000 0.262147814 0.496299952 -0.001140275 -0.001951713 0 0 0 0
804000000 0.568791568 0.141352385 -0.003130028 -0.000403985 0 0 0 0
812000000 0.532897651 -0.301275044 -0.00310838 0.001965427 0 0 0 0
820000000 0.245729178 -0.580383479 -0.001197342 0.004150328 0 0 0 0
828000000 -0.122364856 -0.63261944 0.000927848 0.004631513 0 0 0 0
836000000 -0.426274746 -0.498604387 0.003422019 0.003799284 0 0 0 0
844000000 -0.630176544 -0.262586534 0.00571749 0.002363717 0 0 0 0
852000000 -0.700630009 0.009502836 0.007411857 0.000167428 0 0 0 0
860000000 -0.670991003 0.264681637 0.009091002 -0.003017778 0 0 0 0
868000000 -0.527883768 0.463423639 0.009834177 -0.008239922 0 0 0 0
876000000 -0.321785539 0.572573363 0.007636024 -0.014824244 0 0 0 0
884000000 -0.112523078 0.563630998 -0.000239768 -0.02161546 0 0 0 0
892000000 0.052306044 0.451288819 -0.015857955 -0.023041484 0 0 0 0
900000000 0.299725055 0.264233738 -0.035333033 -0.007914463 0 0 0 0
908000000 0.271381586 0.155118614 -0.038046248 0.022881472 0 0 0 0
916000000 0.212292864 0.094880469 -0.01108951 0.048723712 0 0 0 0
924000000 0.144154921 0.064625591 0.029680406 0.042950082 0 0 0 0
932000000 0.055785439 0.115758717 0.051504012 0.005767647 0 0 0 0
940000000 0.076030537 0.266944825 0.033005669 -0.029264498 0 0 0 0
948000000 0.294177353 0.346273541 0.005484156 -0.034273579 0 0 0 0
956000000 0.464656114 0.226089209 -0.012555716 -0.024133924 0 0 0 0
964000000 0.562561452 -0.013094631 -0.017978046 -0.009909774 0 0 0 0
972000000 0.499524027 -0.263233006 -0.015992853 5.3303e-05 0 0 0 0
980000000 0.292930364 -0.467085301 -0.010573286 0.005372686 0 0 0 0
988000000 0.035818103 -0.542572796 -0.006228489 0.007100571 0 0 0 0
996000000 -0.253137469 -0.496825367 -0.003044747 0.006175644 0 0 0 0
1004000000 -0.487366795 -0.349913269 -0.001895301 0.006314187 0 0 0 0
