# Hz S RI R 50
700000000 0.766575336 0.531079232 0.000152049 0.00054099 0 0 0 0
708000000 0.868223965 0.287164896 7.5401e-05 0.000889158 0 0 0 0
716000000 0.891655564 0.015570942 0.000167064 0.001321936 0 0 0 0
724000000 0.830381214 -0.261861652 0.0001875 0.001369628 0 0 0 0
732000000 0.683260977 -0.509880185 0.000341352 0.001647838 0 0 0 0
740000000 0.446887224 -0.703222692 0.00072341 0.00153746 0 0 0 0
748000000 0.138668775 -0.7946105 0.001042188 0.001236484 0 0 0 0
756000000 -0.196063414 -0.752108037 0.001242323 0.001018955 0 0 0 0
764000000 -0.494164943 -0.545930445 0.001460043 0.000687492 0 0 0 0
772000000 -0.655634045 -0.190212875 0.001474249 0.000152552 0 0 0 0
780000000 -0.57881087 0.227695703 0.001331166 -0.000478829 0 0 0 0
788000000 -0.224762454 0.529390513 0.000834625 -0.001499354 0 0 0 0
796000000 0.254082769 0.501628696 -0.001093647 -0.001972445 0 0 0 0
804000000 0.571518898 0.149902105 -0.003280849 -0.000570438 0 0 0 0
812000000 0.542279303 -0.296514987 -0.003249254 0.002310138 0 0 0 0
820000000 0.253445923 -0.579869091 -0.001271501 0.0041623 0 0 0 0
828000000 -0.119165718 -0.635021567 0.00103592 0.004607501 0 0 0 0
836000000 -0.426686197 -0.505445778 0.0035588 0.003900801 0 0 0 0
844000000 -0.628475964 -0.270796597 0.005598907 0.002214238 0 0 0 0
852000000 -0.710655272 0.000550079 0.007584424 0.000123851 0 0 0 0
860000000 -0.677452027 0.263316214 0.009060609 -0.003056039 0 0 0 0
868000000 -0.541571617 0.462574988 0.00971462 -0.008304038 0 0 0 0
876000000 -0.338271677 0.580660164 0.007600439 -0.014927815 0 0 0 0
884000000 -0.115047059 0.580685853 -0.000239165 -0.021722914 0 0 0 0
892000000 0.0614384 0.466256648 -0.015921683 -0.022971838 0 0 0 0
900000000 0.315185964 0.263948321 -0.035174291 -0.007106444 0 0 0 0
908000000 0.283053517 0.144472479 -0.037415321 0.022812725 0 0 0 0
916000000 0.225206211 0.076615937 -0.010365157 0.048090837 0 0 0 0
924000000 0.144413203 0.0426853 0.029470928 0.042248565 0 0 0 0
932000000 0.046716861 0.096784114 0.05082016 0.005622362 0 0 0 0
940000000 0.05779872 0.266081154 0.032890282 -0.02894799 0 0 0 0
948000000 0.270350933 0.350526005 0.004995547 -0.033583793 0 0 0 0
956000000 0.464873939 0.241896942 -0.012134248 -0.023610014 0 0 0 0
964000000 0.567545473 -0.003311033 -0.017103521 -0.010461158 0 0 0 0
972000000 0.497500896 -0.261663049 -0.015485649 -0.000237593 0 0 0 0
980000000 0.314366161 -0.467277884 -0.010646617 0.005017793 0 0 0 0
988000000 0.035280101 -0.545580983 -0.006450892 0.007032174 0 0 0 0
996000000 -0.268392413 -0.504700839 -0.003063432 0.006681687 0 0 0 0
1004000000 -0.492468118 -0.363080561 -0.00181852 0.006238189 0 0 0 0
