# Hz S RI R 50
700000000 0.767237961 0.530921339 0.000137361 0.000691464 0 0 0 0
708000000 0.86487317 0.285903155 7.99e-05 0.000909687 0 0 0 0
716000000 0.892199277 0.01164245 0.000211682 0.001151637 0 0 0 0
724000000 0.835010409 -0.261475145 0.000390644 0.001547473 0 0 0 0
732000000 0.68205589 -0.512311339 0.000615149 0.001388163 0 0 0 0
740000000 0.442824661 -0.703415751 0.000855047 0.001402436 0 0 0 0
748000000 0.138066053 -0.797240793 0.00133982 0.001250928 0 0 0 0
756000000 -0.198340609 -0.749687373 0.00127026 0.000883935 0 0 0 0
764000000 -0.491852998 -0.54485929 0.001408676 0.000625139 0 0 0 0
772000000 -0.653395533 -0.191773116 0.001370337 -9.1324e-05 0 0 0 0
780000000 -0.580468356 0.229499042 0.00110432 -0.000363636 0 0 0 0
788000000 -0.230361297 0.531276106 0.000419927 -0.001075458 0 0 0 0
796000000 0.257342606 0.507214128 -0.000928884 -0.001750691 0 0 0 0
804000000 0.571815013 0.153864294 -0.002711947 -0.00034524 0 0 0 0
812000000 0.545318365 -0.297237843 -0.002706014 0.001983508 0 0 0 0
820000000 0.256944745 -0.580288231 -0.000885174 0.003805645 0 0 0 0
828000000 -0.115019425 -0.635172069 0.001011132 0.003787164 0 0 0 0
836000000 -0.424128592 -0.505770564 0.00292801 0.00315282 0 0 0 0
844000000 -0.629478991 -0.271259665 0.004483669 0.002058115 0 0 0 0
852000000 -0.707783997 -0.002922736 0.006220738 0.000234242 0 0 0 0
860000000 -0.676677346 0.262163579 0.007859049 -0.002015547 0 0 0 0
868000000 -0.547492742 0.465629756 0.009039263 -0.006035247 0 0 0 0
876000000 -0.340140163 0.578953742 0.008473909 -0.012188998 0 0 0 0
884000000 -0.120015516 0.57969731 0.003050129 -0.019656369 0 0 0 0
892000000 0.055100813 0.468875944 -0.010685582 -0.024086421 0 0 0 0
900000000 0.315482169 0.287115186 -0.031286831 -0.013955315 0 0 0 0
908000000 0.29156515 0.159304961 -0.039824705 0.014505378 0 0 0 0
916000000 0.243304342 0.088955208 -0.019677562 0.043451566 0 0 0 0
924000000 0.174848198 0.030605975 0.019661845 0.047377448 0 0 0 0
932000000 0.053421434 0.073705635 0.048269368 0.016437605 0 0 0 0
940000000 0.043632525 0.242900818 0.039629273 -0.022258931 0 0 0 0
948000000 0.249256372 0.348618626 0.010511822 -0.034573219 0 0 0 0
956000000 0.45636934 0.248473525 -0.008699161 -0.026373565 0 0 0 0
964000000 0.569468855 0.00497616 -0.016467044 -0.013153111 0 0 0 0
972000000 0.507920861 -0.251905828 -0.016271296 -0.003039188 0 0 0 0
980000000 0.313004672 -0.470430821 -0.012213023 0.003487668 0 0 0 0
988000000 0.045310169 -0.557034492 -0.007853426 0.006838866 0 0 0 0
996000000 -0.251093953 -0.508073687 -0.005449119 0.006869049 0 0 0 0
1004000000 -0.482895165 -0.361412405 -0.003097624 0.006545591 0 0 0 0
