# Hz S RI R 50
700000000 0.76370579 0.529337167 0.000106281 0.00058431 0 0 0 0
708000000 0.868649482 0.288615554 8.2847e-05 0.000991413 0 0 0 0
716000000 0.891278028 0.01567069 7.0649e-05 0.001207608 0 0 0 0
724000000 0.829025924 -0.260263592 0.00023325 0.001500929 0 0 0 0
732000000 0.682716071 -0.514289319 0.000403506 0.001592449 0 0 0 0
740000000 0.447906434 -0.702897071 0.000844235 0.001429476 0 0 0 0
748000000 0.138998582 -0.796198785 0.00117226 0.001327299 0 0 0 0
756000000 -0.197388008 -0.750465631 0.00138042 0.000998869 0 0 0 0
764000000 -0.493077069 -0.545109212 0.001538606 0.000464088 0 0 0 0
772000000 -0.651934266 -0.18680723 0.001442104 4.4284e-05 0 0 0 0
780000000 -0.579078316 0.232832193 0.00149569 -0.000438349 0 0 0 0
788000000 -0.220668137 0.529713034 0.000799027 -0.001523419 0 0 0 0
796000000 0.260754376 0.498865425 -0.00107714 -0.002053231 0 0 0 0
804000000 0.569464385 0.145341187 -0.003287077 -0.000635849 0 0 0 0
812000000 0.536378562 -0.303881078 -0.003389381 0.002242812 0 0 0 0
820000000 0.248878136 -0.581995069 -0.001481961 0.004249434 0 0 0 0
828000000 -0.1222267 -0.63326615 0.001023687 0.004568778 0 0 0 0
836000000 -0.431281656 -0.500930726 0.003455651 0.00402452 0 0 0 0
844000000 -0.627359032 -0.262570858 0.005635297 0.00239011 0 0 0 0
852000000 -0.705780386 0.004687221 0.007652757 7.8978e-05 0 0 0 0
860000000 -0.670877218 0.265470206 0.009234156 -0.003025686 0 0 0 0
868000000 -0.535265862 0.469754964 0.009824292 -0.008218007 0 0 0 0
876000000 -0.328730791 0.580329298 0.008012769 -0.014931579 0 0 0 0
884000000 -0.110236756 0.568966627 2.3082e-05 -0.022154442 0 0 0 0
892000000 0.05868506 0.459071695 -0.015760155 -0.023723648 0 0 0 0
900000000 0.310696393 0.259445995 -0.036314032 -0.008507511 0 0 0 0
908000000 0.275486171 0.151782363 -0.038594823 0.023355476 0 0 0 0
916000000 0.219970375 0.085070639 -0.010670308 0.049517009 0 0 0 0
924000000 0.146984055 0.049753945 0.030432529 0.043369859 0 0 0 0
932000000 0.048825789 0.111222326 0.051252238 0.004929069 0 0 0 0
940000000 0.066473737 0.268352419 0.033300798 -0.028859451 0 0 0 0
948000000 0.282532244 0.350829154 0.004683992 -0.034549627 0 0 0 0
956000000 0.473908454 0.219829633 -0.01241835 -0.023587444 0 0 0 0
964000000 0.563828885 -0.009579487 -0.017729265 -0.00960813 0 0 0 0
972000000 0.500685214 -0.266055136 -0.01603217 0.000362079 0 0 0 0
980000000 0.303696185 -0.461768805 -0.010359001 0.005041942 0 0 0 0
988000000 0.036856725 -0.549006283 -0.005980012 0.007328862 0 0 0 0
996000000 -0.258758932 -0.510562479 -0.002947062 0.005931515 0 0 0 0
1004000000 -0.4922885 -0.363386154 -0.000955817 0.005769842 0 0 0 0
