# Hz S RI R 50
700000000 0.76502037 0.53006637 6.3302e-05 0.000673052 0 0 0 0
708000000 0.866592049 0.286813467 7.8903e-05 0.000941685 0 0 0 0
716000000 0.892306387 0.013388785 0.000217099 0.001029778 0 0 0 0
724000000 0.829566061 -0.26118189 0.000292255 0.001300814 0 0 0 0
732000000 0.680534064 -0.512133359 0.000456733 0.001488773 0 0 0 0
740000000 0.444680184 -0.703996121 0.000874022 0.001489129 0 0 0 0
748000000 0.137676715 -0.793232798 0.001184989 0.00148125 0 0 0 0
756000000 -0.197090134 -0.749816894 0.001486508 0.000802683 0 0 0 0
764000000 -0.491823047 -0.544025659 0.00143244 0.000553079 0 0 0 0
772000000 -0.654615819 -0.189992964 0.00131891 0.000210996 0 0 0 0
780000000 -0.579038381 0.230991378 0.001053208 -0.000494262 0 0 0 0
788000000 -0.223314732 0.530225634 0.000421252 -0.001127326 0 0 0 0
796000000 0.254728615 0.503618836 -0.001034177 -0.001384112 0 0 0 0
804000000 0.571760594 0.150868907 -0.002855563 -0.000528978 0 0 0 0
812000000 0.544046163 -0.29782772 -0.002758755 0.002095489 0 0 0 0
820000000 0.254620641 -0.581353545 -0.000786874 0.003773448 0 0 0 0
828000000 -0.117480613 -0.637007176 0.00093468 0.003856619 0 0 0 0
836000000 -0.426616966 -0.506606101 0.002752997 0.003060135 0 0 0 0
844000000 -0.629383921 -0.270206928 0.004410496 0.001843154 0 0 0 0
852000000 -0.70787388 0.002963677 0.006218244 0.000355597 0 0 0 0
860000000 -0.676813185 0.26535049 0.007728722 -0.002077328 0 0 0 0
868000000 -0.542695522 0.463662952 0.008934956 -0.006045306 0 0 0 0
876000000 -0.335817277 0.579860985 0.008688681 -0.011964764 0 0 0 0
884000000 -0.120456241 0.579179823 0.003061607 -0.019443079 0 0 0 0
892000000 0.050731796 0.466198623 -0.010408983 -0.023123687 0 0 0 0
900000000 0.315569221 0.27340117 -0.031412839 -0.013439721 0 0 0 0
908000000 0.288177043 0.154701739 -0.03984712 0.013760074 0 0 0 0
916000000 0.242819651 0.089523725 -0.019920745 0.044071339 0 0 0 0
924000000 0.172776728 0.039546024 0.019824357 0.048071973 0 0 0 0
932000000 0.059348594 0.069190733 0.048767063 0.016337601 0 0 0 0
940000000 0.040277194 0.257160842 0.039952009 -0.022306732 0 0 0 0
948000000 0.261378437 0.357537835 0.010799142 -0.034200713 0 0 0 0
956000000 0.471319198 0.2467366 -0.009088577 -0.026253316 0 0 0 0
964000000 0.565893292 -0.000462408 -0.016498019 -0.01306199 0 0 0 0
972000000 0.503277003 -0.266814887 -0.015758316 -0.002723508 0 0 0 0
980000000 0.316470801 -0.464441984 -0.011407699 0.003919958 0 0 0 0
988000000 0.032614942 -0.553619205 -0.008208815 0.00637303 0 0 0 0
996000000 -0.25666359 -0.506631255 -0.004696596 0.006967285 0 0 0 0
1004000000 -0.477435767 -0.359409838 -0.003115795 0.006848829 0 0 0 0
