# Hz S RI R 50
700000000 0.76726222 0.534539759 6.7174e-05 0.000715727 0 0 0 0
708000000 0.866051912 0.286083638 -2.6095e-05 0.001055581 0 0 0 0
716000000 0.891962289 0.0148016 0.000124334 0.001160723 0 0 0 0
724000000 0.830581009 -0.256034195 0.000280339 0.001322717 0 0 0 0
732000000 0.681070327 -0.51304847 0.000734406 0.001530739 0 0 0 0
740000000 0.445346653 -0.703675448 0.000794804 0.001387843 0 0 0 0
748000000 0.137409955 -0.796573936 0.001310732 0.001283945 0 0 0 0
756000000 -0.200306251 -0.750045716 0.001516631 0.000758501 0 0 0 0
764000000 -0.493602335 -0.541550278 0.001345662 0.000532419 0 0 0 0
772000000 -0.657762289 -0.19048579 0.001208523 -9.425e-06 0 0 0 0
780000000 -0.578820705 0.228885665 0.001231682 -0.000500751 0 0 0 0
788000000 -0.227797523 0.531608223 0.000612981 -0.001146621 0 0 0 0
796000000 0.258031874 0.506227731 -0.001101907 -0.001662576 0 0 0 0
804000000 0.571069657 0.152087807 -0.002609003 -0.000223147 0 0 0 0
812000000 0.544400036 -0.29900369 -0.002790051 0.002010259 0 0 0 0
820000000 0.256101489 -0.580181479 -0.000599168 0.003752226 0 0 0 0
828000000 -0.115461401 -0.639192819 0.001263757 0.003899133 0 0 0 0
836000000 -0.427846908 -0.504304945 0.002752397 0.003198463 0 0 0 0
844000000 -0.629930138 -0.269606977 0.004589401 0.001814763 0 0 0 0
852000000 -0.707429051 0.002897119 0.005964734 0.000174922 0 0 0 0
860000000 -0.676012754 0.263294994 0.007893893 -0.002077948 0 0 0 0
868000000 -0.545024931 0.463142335 0.008985135 -0.00612261 0 0 0 0
876000000 -0.334757924 0.576308608 0.008454972 -0.012157684 0 0 0 0
884000000 -0.120133027 0.582377851 0.00304699 -0.019544042 0 0 0 0
892000000 0.052977357 0.463201671 -0.010232203 -0.023238196 0 0 0 0
900000000 0.307576596 0.277508914 -0.031284373 -0.013341549 0 0 0 0
908000000 0.284232646 0.165202945 -0.039952959 0.014388555 0 0 0 0
916000000 0.244609117 0.090632095 -0.019336599 0.043679017 0 0 0 0
924000000 0.168468162 0.022668525 0.020173702 0.047475151 0 0 0 0
932000000 0.050955556 0.071730054 0.048594102 0.01590777 0 0 0 0
940000000 0.044879116 0.25540924 0.039003916 -0.023189691 0 0 0 0
948000000 0.263011485 0.347936809 0.010772125 -0.0342778 0 0 0 0
956000000 0.460593074 0.229964315 -0.008785934 -0.025867512 0 0 0 0
964000000 0.567158162 -0.008823411 -0.016389101 -0.01238653 0 0 0 0
972000000 0.504273772 -0.266783118 -0.015993913 -0.001777071 0 0 0 0
980000000 0.303766578 -0.472472339 -0.011770445 0.003503809 0 0 0 0
988000000 0.037390302 -0.547154128 -0.007776197 0.006507056 0 0 0 0
996000000 -0.25883916 -0.505122721 -0.004487328 0.00692022 0 0 0 0
1004000000 -0.493731409 -0.34565556 -0.003653382 0.006589519 0 0 0 0
