# Hz S RI R 50
700000000 0.768460154 0.533021926 0.000110474 0.000724542 0 0 0 0
708000000 0.866266191 0.283520698 5.7121e-05 0.000841743 0 0 0 0
716000000 0.893761038 0.011419984 6.9549e-05 0.001203909 0 0 0 0
724000000 0.834234416 -0.259404033 0.000422676 0.001482259 0 0 0 0
732000000 0.682462871 -0.512497246 0.00064631 0.001447861 0 0 0 0
740000000 0.442806214 -0.701161444 0.000967501 0.001569429 0 0 0 0
748000000 0.13773176 -0.795571267 0.00129547 0.001309468 0 0 0 0
756000000 -0.198334768 -0.749333739 0.001427063 0.000746113 0 0 0 0
764000000 -0.493941128 -0.543243706 0.001355532 0.000364747 0 0 0 0
772000000 -0.652106165 -0.186662152 0.001316379 -6.9401e-05 0 0 0 0
780000000 -0.573295354 0.233416914 0.00126581 -0.000462058 0 0 0 0
788000000 -0.222688823 0.527612566 0.000339597 -0.001137707 0 0 0 0
796000000 0.258194386 0.501722753 -0.000763679 -0.001417235 0 0 0 0
804000000 0.571190476 0.143911093 -0.002516382 -0.000624332 0 0 0 0
812000000 0.538448274 -0.298885703 -0.002428334 0.001956043 0 0 0 0
820000000 0.250831365 -0.580880522 -0.000756089 0.003349126 0 0 0 0
828000000 -0.120003499 -0.634007096 0.000763827 0.003436579 0 0 0 0
836000000 -0.427523881 -0.502638339 0.002412577 0.003104577 0 0 0 0
844000000 -0.62773627 -0.264979451 0.00430772 0.001969208 0 0 0 0
852000000 -0.708652853 0.001353832 0.005798014 0.000652826 0 0 0 0
860000000 -0.67122364 0.263560056 0.007645663 -0.001301624 0 0 0 0
868000000 -0.535994529 0.468160212 0.009322256 -0.005108166 0 0 0 0
876000000 -0.333600759 0.572670042 0.009579068 -0.01135376 0 0 0 0
884000000 -0.119674213 0.568792581 0.004576134 -0.019323479 0 0 0 0
892000000 0.046347334 0.457992613 -0.008584517 -0.025471847 0 0 0 0
900000000 0.300436794 0.273568987 -0.031442947 -0.015080435 0 0 0 0
908000000 0.28291583 0.16979219 -0.0405684 0.012526755 0 0 0 0
916000000 0.247395515 0.095026567 -0.021651359 0.042779605 0 0 0 0
924000000 0.172978714 0.02710607 0.01775016 0.048133522 0 0 0 0
932000000 0.044254783 0.07712467 0.046558413 0.01863804 0 0 0 0
940000000 0.046260543 0.251081258 0.039664339 -0.019601622 0 0 0 0
948000000 0.259287983 0.360040634 0.012531569 -0.03263146 0 0 0 0
956000000 0.45250225 0.23058632 -0.005253077 -0.026318769 0 0 0 0
964000000 0.56116563 0.007145266 -0.014702332 -0.014773622 0 0 0 0
972000000 0.508477926 -0.255038112 -0.016229866 -0.00416218 0 0 0 0
980000000 0.308234989 -0.465207248 -0.013193421 0.001566588 0 0 0 0
988000000 0.033813297 -0.54534024 -0.009688569 0.00523842 0 0 0 0
996000000 -0.254292696 -0.51008588 -0.005917272 0.006986065 0 0 0 0
1004000000 -0.49774897 -0.361380219 -0.003709656 0.007808444 0 0 0 0
