# Hz S RI R 50
700000000 0.766410589 0.533623874 8.2502e-05 0.000695157 0 0 0 0
708000000 0.864942073 0.286141097 -5.5189e-05 0.000985333 0 0 0 0
716000000 0.893107056 0.009802687 0.000164658 0.001075311 0 0 0 0
724000000 0.83004117 -0.259055852 0.000299581 0.001343481 0 0 0 0
732000000 0.681985557 -0.510284543 0.000579153 0.001575038 0 0 0 0
740000000 0.442355394 -0.702545464 0.000949995 0.001413342 0 0 0 0
748000000 0.137312293 -0.795876264 0.001322085 0.001222007 0 0 0 0
756000000 -0.197821184 -0.750444054 0.001225153 0.000923779 0 0 0 0
764000000 -0.493502736 -0.542582452 0.001347961 0.000526165 0 0 0 0
772000000 -0.657630443 -0.185257628 0.00146976 9.6931e-05 0 0 0 0
780000000 -0.579660952 0.232098594 0.001020131 -0.000361946 0 0 0 0
788000000 -0.221398785 0.529388308 0.000570374 -0.001003764 0 0 0 0
796000000 0.260653465 0.502942979 -0.000890213 -0.001646791 0 0 0 0
804000000 0.571495831 0.145047917 -0.002800079 -0.000303221 0 0 0 0
812000000 0.538714349 -0.30227977 -0.00273787 0.002035247 0 0 0 0
820000000 0.251435518 -0.58097124 -0.001049907 0.003607079 0 0 0 0
828000000 -0.119092412 -0.637563884 0.000862218 0.003750383 0 0 0 0
836000000 -0.428219765 -0.503267168 0.002567705 0.003410809 0 0 0 0
844000000 -0.627731263 -0.26600489 0.004352703 0.002258869 0 0 0 0
852000000 -0.706654906 0.001551082 0.006039832 0.000593754 0 0 0 0
860000000 -0.671983063 0.264956384 0.007962116 -0.001500755 0 0 0 0
868000000 -0.542766213 0.470203548 0.009606651 -0.005793291 0 0 0 0
876000000 -0.335757732 0.576538085 0.009124891 -0.012368924 0 0 0 0
884000000 -0.118341498 0.56894958 0.003478648 -0.020038343 0 0 0 0
892000000 0.046848542 0.457358241 -0.010020677 -0.024745145 0 0 0 0
900000000 0.293153196 0.273670077 -0.031783919 -0.013261646 0 0 0 0
908000000 0.278687685 0.1747341 -0.03985051 0.014297045 0 0 0 0
916000000 0.243992298 0.097781375 -0.019309032 0.043610379 0 0 0 0
924000000 0.161809921 0.030397504 0.018653953 0.04674609 0 0 0 0
932000000 0.047156922 0.080978758 0.047358337 0.016251889 0 0 0 0
940000000 0.043118909 0.250083416 0.037982705 -0.020660901 0 0 0 0
948000000 0.265484541 0.353851675 0.010920418 -0.032467067 0 0 0 0
956000000 0.464286416 0.234787479 -0.006646407 -0.025839364 0 0 0 0
964000000 0.561831057 0.002055186 -0.015086677 -0.013201998 0 0 0 0
972000000 0.504355072 -0.266935914 -0.015358385 -0.003991973 0 0 0 0
980000000 0.305093675 -0.475115865 -0.011122477 0.002738643 0 0 0 0
988000000 0.035139348 -0.554557919 -0.008091728 0.005819944 0 0 0 0
996000000 -0.26556614 -0.500543355 -0.00552806 0.006411235 0 0 0 0
1004000000 -0.484622925 -0.355142742 -0.002604688 0.005975881 0 0 0 0
