# Hz S RI R 50
700000000 0.763410925 0.533656835 7.1819e-05 0.000715608 0 0 0 0
708000000 0.866201102 0.287008285 0.000109657 0.001126556 0 0 0 0
716000000 0.892739176 0.017000529 0.000184827 0.001257419 0 0 0 0
724000000 0.835871934 -0.260062813 0.000499901 0.001591051 0 0 0 0
732000000 0.684980452 -0.507192075 0.000762272 0.001632912 0 0 0 0
740000000 0.450172215 -0.700198888 0.001177439 0.001619615 0 0 0 0
748000000 0.145401805 -0.795450568 0.001406497 0.001541433 0 0 0 0
756000000 -0.189028695 -0.75516808 0.001771046 0.001076177 0 0 0 0
764000000 -0.487748652 -0.556011199 0.0018384 0.000468484 0 0 0 0
772000000 -0.656253218 -0.204186782 0.002071311 -0.000265984 0 0 0 0
780000000 -0.593899667 0.213858544 0.001974608 -0.001045319 0 0 0 0
788000000 -0.258914172 0.524975597 0.001129888 -0.00225982 0 0 0 0
796000000 0.22752057 0.527342915 -0.001399421 -0.003582031 0 0 0 0
804000000 0.564701914 0.190384224 -0.00467554 -0.002239064 0 0 0 0
812000000 0.562208652 -0.264312297 -0.005901221 0.001780636 0 0 0 0
820000000 0.289788812 -0.564822137 -0.003926997 0.005145499 0 0 0 0
828000000 -0.081343062 -0.640116512 -0.000647388 0.006558741 0 0 0 0
836000000 -0.397613525 -0.525389909 0.002682868 0.006522994 0 0 0 0
844000000 -0.609450161 -0.299388647 0.005961691 0.005081342 0 0 0 0
852000000 -0.70577687 -0.035413302 0.008697493 0.002791152 0 0 0 0
860000000 -0.688242733 0.232211336 0.011443633 -0.000398377 0 0 0 0
868000000 -0.571182608 0.432556211 0.013577649 -0.006145996 0 0 0 0
876000000 -0.383599072 0.558968722 0.012852494 -0.014282761 0 0 0 0
884000000 -0.18232043 0.591080904 0.006750457 -0.023866564 0 0 0 0
892000000 -0.001127835 0.524544179 -0.008639696 -0.030450876 0 0 0 0
900000000 0.303839027 0.355877518 -0.034132327 -0.023570917 0 0 0 0
908000000 0.349191218 0.239011898 -0.049681626 0.006092887 0 0 0 0
916000000 0.328165352 0.111464321 -0.037250421 0.044112421 0 0 0 0
924000000 0.256738036 -0.00105032 0.005315969 0.062776237 0 0 0 0
932000000 0.116220027 -0.009626454 0.051175672 0.038935985 0 0 0 0
940000000 0.03700589 0.143030583 0.057813987 -0.011455877 0 0 0 0
948000000 0.18903172 0.291727453 0.027355531 -0.040676169 0 0 0 0
956000000 0.388902485 0.234380811 -0.003746617 -0.037651136 0 0 0 0
964000000 0.514219462 0.036773607 -0.017173146 -0.020289242 0 0 0 0
972000000 0.481333196 -0.215575501 -0.019254889 -0.00755896 0 0 0 0
980000000 0.311836302 -0.427736401 -0.015314609 0.001346417 0 0 0 0
988000000 0.040941044 -0.504956722 -0.012173809 0.006018665 0 0 0 0
996000000 -0.221700981 -0.4791736 -0.007652955 0.007395082 0 0 0 0
1004000000 -0.453603744 -0.359328627 -0.005210365 0.008171734 0 0 0 0
