# Hz S RI R 50
700000000 0.763697385 0.5389086 3.3635e-05 0.000702261 0 0 0 0
708000000 0.865849733 0.293925821 -5.9622e-05 0.001049783 0 0 0 0
716000000 0.897326946 0.020550087 0.00013669 0.001378774 0 0 0 0
724000000 0.839461326 -0.252186983 0.00013912 0.00142756 0 0 0 0
732000000 0.689243614 -0.508360266 0.000693067 0.001510874 0 0 0 0
740000000 0.451275318 -0.699803709 0.000947388 0.001394029 0 0 0 0
748000000 0.146787077 -0.794837772 0.000914001 0.001164835 0 0 0 0
756000000 -0.189259588 -0.750876188 0.001229998 0.000975233 0 0 0 0
764000000 -0.488425254 -0.544248998 0.001037731 0.000634085 0 0 0 0
772000000 -0.647308468 -0.187780544 0.001458859 0.000420073 0 0 0 0
780000000 -0.570443809 0.231639087 0.001123333 -0.000133194 0 0 0 0
788000000 -0.213165313 0.531389296 0.000614458 -0.000976305 0 0 0 0
796000000 0.271942973 0.494663268 -0.001215232 -0.001375736 0 0 0 0
804000000 0.576446533 0.135889008 -0.002980667 0.000376208 0 0 0 0
812000000 0.539439916 -0.30471152 -0.002645308 0.003061473 0 0 0 0
820000000 0.244176998 -0.583388447 0.000131511 0.004806296 0 0 0 0
828000000 -0.126525551 -0.6284886 0.002635568 0.004306193 0 0 0 0
836000000 -0.429896265 -0.495847523 0.005080209 0.002625692 0 0 0 0
844000000 -0.627634346 -0.257845848 0.007111666 0.000247 0 0 0 0
852000000 -0.697139143 0.012826805 0.008468743 -0.002975327 0 0 0 0
860000000 -0.660912096 0.27008903 0.008545184 -0.006955771 0 0 0 0
868000000 -0.527239143 0.464522927 0.007112736 -0.0125113 0 0 0 0
876000000 -0.32126531 0.567723155 0.001779676 -0.018459016 0 0 0 0
884000000 -0.102158069 0.55367726 -0.009743973 -0.021294888 0 0 0 0
892000000 0.060564115 0.429110586 -0.026086568 -0.014036229 0 0 0 0
900000000 0.303947955 0.226896882 -0.035999223 0.011724714 0 0 0 0
908000000 0.242411255 0.130279242 -0.019291002 0.03980406 0 0 0 0
916000000 0.178457856 0.105501517 0.017306046 0.044752854 0 0 0 0
924000000 0.130917355 0.079873263 0.045443005 0.017089674 0 0 0 0
932000000 0.051544051 0.145766839 0.040531866 -0.022695215 0 0 0 0
940000000 0.088600724 0.308080524 0.008870075 -0.037748243 0 0 0 0
948000000 0.320598483 0.366581112 -0.013043286 -0.024736857 0 0 0 0
956000000 0.519719123 0.221681639 -0.016907934 -0.009743828 0 0 0 0
964000000 0.597760558 -0.032496374 -0.014825602 -0.000476048 0 0 0 0
972000000 0.503368437 -0.298853188 -0.010221301 0.00470507 0 0 0 0
980000000 0.304771333 -0.489784568 -0.005656096 0.006266198 0 0 0 0
988000000 0.037980277 -0.567577779 -0.002317214 0.006769252 0 0 0 0
996000000 -0.263473182 -0.520533025 -0.000526381 0.004512987 0 0 0 0
1004000000 -0.506648004 -0.370522886 -0.000453706 0.004070332 0 0 0 0
