# Hz S RI R 50
700000000 0.764866471 0.530847728 9.7191e-05 0.000642629 0 0 0 0
708000000 0.865310072 0.284465193 1.7498e-05 0.000864798 0 0 0 0
716000000 0.888921082 0.014573089 0.000177836 0.001184204 0 0 0 0
724000000 0.831589043 -0.262409955 0.000239252 0.001359696 0 0 0 0
732000000 0.679618954 -0.51279062 0.000476146 0.001403155 0 0 0 0
740000000 0.441675603 -0.700319051 0.000730764 0.001498621 0 0 0 0
748000000 0.134713068 -0.790666699 0.001011479 0.001183466 0 0 0 0
756000000 -0.200952485 -0.742315351 0.001172292 0.000790882 0 0 0 0
764000000 -0.493816673 -0.530710935 0.00126264 0.000887262 0 0 0 0
772000000 -0.645718216 -0.171468913 0.001452173 0.000394114 0 0 0 0
780000000 -0.55373317 0.244661629 0.001046758 -0.000426928 0 0 0 0
788000000 -0.189188063 0.521210968 0.000336531 -0.001159938 0 0 0 0
796000000 0.284338831 0.463264316 -0.001161808 -0.001353444 0 0 0 0
804000000 0.560632169 0.092313319 -0.003273418 -4.8606e-05 0 0 0 0
812000000 0.493569552 -0.331873416 -0.002997536 0.002869147 0 0 0 0
820000000 0.192964538 -0.577663242 -0.00043729 0.004895669 0 0 0 0
828000000 -0.164656594 -0.59700191 0.002331355 0.004922535 0 0 0 0
836000000 -0.445262342 -0.449037879 0.004998111 0.003621785 0 0 0 0
844000000 -0.619139671 -0.205863013 0.007316996 0.001121373 0 0 0 0
852000000 -0.667868256 0.054955966 0.008928841 -0.002372458 0 0 0 0
860000000 -0.613551735 0.294990867 0.009582954 -0.006733177 0 0 0 0
868000000 -0.464869946 0.460134178 0.008091645 -0.012953222 0 0 0 0
876000000 -0.260276585 0.527653455 0.001871273 -0.019456969 0 0 0 0
884000000 -0.08209858 0.486220329 -0.010545434 -0.022347688 0 0 0 0
892000000 0.036243956 0.359623283 -0.027218563 -0.013968294 0 0 0 0
900000000 0.229692846 0.188317567 -0.036924544 0.012673716 0 0 0 0
908000000 0.170357272 0.135342717 -0.018823502 0.039732187 0 0 0 0
916000000 0.115270934 0.137171939 0.017727445 0.043787021 0 0 0 0
924000000 0.078895598 0.161040827 0.044591564 0.015205208 0 0 0 0
932000000 0.072224088 0.240410476 0.035373259 -0.022656464 0 0 0 0
940000000 0.184411063 0.355026096 0.007379486 -0.031031584 0 0 0 0
948000000 0.415031701 0.330133646 -0.00854881 -0.021418245 0 0 0 0
956000000 0.546888351 0.135503977 -0.012590582 -0.011379617 0 0 0 0
964000000 0.576918601 -0.095335774 -0.012718273 -0.002763244 0 0 0 0
972000000 0.470238924 -0.328098773 -0.01029736 0.002208581 0 0 0 0
980000000 0.252511382 -0.505291998 -0.005743774 0.004608263 0 0 0 0
988000000 -0.0160945 -0.55914843 -0.003480596 0.005072733 0 0 0 0
996000000 -0.291175335 -0.490012794 -0.001481141 0.004273724 0 0 0 0
1004000000 -0.513951063 -0.3451626 -0.001591039 0.00406272 0 0 0 0
