# Hz S RI R 50
700000000 0.764939069 0.530587136 -8.88e-07 0.000662748 0 0 0 0
708000000 0.862095296 0.286815643 9.0488e-05 0.001137802 0 0 0 0
716000000 0.889412999 0.014364047 0.000172224 0.00122556 0 0 0 0
724000000 0.830229282 -0.262519538 0.000240198 0.001351596 0 0 0 0
732000000 0.679598152 -0.510088324 0.00074889 0.001340994 0 0 0 0
740000000 0.439781308 -0.698239862 0.00090817 0.001169472 0 0 0 0
748000000 0.133757814 -0.789706647 0.001143613 0.001024583 0 0 0 0
756000000 -0.199710577 -0.740295052 0.001091263 0.000872172 0 0 0 0
764000000 -0.490301966 -0.529359817 0.001105073 0.000293439 0 0 0 0
772000000 -0.640851199 -0.172310099 0.001133855 0.000127194 0 0 0 0
780000000 -0.546570062 0.239315509 0.000379876 -0.000269965 0 0 0 0
788000000 -0.185005858 0.512383222 -0.000171798 -0.000423583 0 0 0 0
796000000 0.278731435 0.449898719 -0.001437263 -0.00012411 0 0 0 0
804000000 0.54261893 0.084418937 -0.002279734 0.001492348 0 0 0 0
812000000 0.47158131 -0.328545063 -0.001350506 0.003305279 0 0 0 0
820000000 0.179286524 -0.559799373 0.001085154 0.004231702 0 0 0 0
828000000 -0.169845521 -0.57412219 0.003124925 0.003415356 0 0 0 0
836000000 -0.439338237 -0.423475354 0.005111041 0.001778835 0 0 0 0
844000000 -0.596887946 -0.184976398 0.006612845 -0.00041393 0 0 0 0
852000000 -0.63519442 0.065133497 0.007756032 -0.003416708 0 0 0 0
860000000 -0.571718633 0.288780063 0.007295696 -0.007247139 0 0 0 0
868000000 -0.422485888 0.43110013 0.00544282 -0.012495807 0 0 0 0
876000000 -0.243512481 0.474361479 -0.000308858 -0.017373604 0 0 0 0
884000000 -0.09662266 0.417979776 -0.01179771 -0.018099607 0 0 0 0
892000000 -0.030558375 0.310739964 -0.024652851 -0.00859202 0 0 0 0
900000000 0.144600868 0.202594667 -0.028513835 0.013940244 0 0 0 0
908000000 0.11056628 0.200805798 -0.011183884 0.034409407 0 0 0 0
916000000 0.105089202 0.210350751 0.018833613 0.033499456 0 0 0 0
924000000 0.11202529 0.227048024 0.036985803 0.007559405 0 0 0 0
932000000 0.127228945 0.295109331 0.025374878 -0.020121999 0 0 0 0
940000000 0.258420467 0.365364521 0.004198995 -0.023293202 0 0 0 0
948000000 0.477706551 0.291243255 -0.005938714 -0.015207586 0 0 0 0
956000000 0.568947613 0.08726032 -0.008626946 -0.008899375 0 0 0 0
964000000 0.573892474 -0.147708848 -0.009170737 -0.003412004 0 0 0 0
972000000 0.450246304 -0.370122969 -0.008866827 0.00085569 0 0 0 0
980000000 0.224688634 -0.530803859 -0.006379133 0.002403914 0 0 0 0
988000000 -0.043456796 -0.553983151 -0.004651061 0.004052303 0 0 0 0
996000000 -0.311961948 -0.483804166 -0.002909612 0.003902437 0 0 0 0
1004000000 -0.525513589 -0.310946702 -0.00290273 0.004189252 0 0 0 0
