# Hz S RI R 50
700000000 0.760440826 0.533117353 2.256e-05 0.000745982 0 0 0 0
708000000 0.86319971 0.285830885 -1.1117e-05 0.001027692 0 0 0 0
716000000 0.891186177 0.015290266 6.6174e-05 0.001200932 0 0 0 0
724000000 0.832083702 -0.260044813 0.0004193 0.001400741 0 0 0 0
732000000 0.682550013 -0.510257184 0.000527216 0.001310195 0 0 0 0
740000000 0.443186283 -0.70079863 0.000821707 0.001361001 0 0 0 0
748000000 0.138274446 -0.791761577 0.000927074 0.001016047 0 0 0 0
756000000 -0.197939604 -0.745144903 0.000975176 0.000818796 0 0 0 0
764000000 -0.490536391 -0.537317931 0.00106785 0.000519798 0 0 0 0
772000000 -0.643456161 -0.177541226 0.00117239 0.000163032 0 0 0 0
780000000 -0.55965209 0.239152953 0.000916519 -0.000302713 0 0 0 0
788000000 -0.195794656 0.524742603 0.000320714 -0.00074444 0 0 0 0
796000000 0.275120884 0.476707041 -0.001086899 -0.000653692 0 0 0 0
804000000 0.561666309 0.109202474 -0.002589375 0.00064042 0 0 0 0
812000000 0.505973577 -0.320920288 -0.002061108 0.003004095 0 0 0 0
820000000 0.205774247 -0.575761437 0.000620886 0.004393002 0 0 0 0
828000000 -0.1547084 -0.602662026 0.002848657 0.00382609 0 0 0 0
836000000 -0.441794991 -0.458315163 0.004680185 0.002348699 0 0 0 0
844000000 -0.615520894 -0.217450901 0.006575916 0.000498305 0 0 0 0
852000000 -0.672181963 0.04515434 0.007857182 -0.002749616 0 0 0 0
860000000 -0.621486127 0.288463681 0.008502984 -0.006631385 0 0 0 0
868000000 -0.475458234 0.457818925 0.006946525 -0.0122355 0 0 0 0
876000000 -0.274782538 0.537590265 0.001242936 -0.018151026 0 0 0 0
884000000 -0.084497548 0.495570063 -0.010529671 -0.020305076 0 0 0 0
892000000 0.03965849 0.375040858 -0.025928467 -0.012164204 0 0 0 0
900000000 0.231643408 0.20400457 -0.033921688 0.013192675 0 0 0 0
908000000 0.176264122 0.142643228 -0.015326708 0.037844896 0 0 0 0
916000000 0.121608957 0.126517042 0.019368216 0.039157904 0 0 0 0
924000000 0.087146207 0.146391049 0.040854044 0.009685588 0 0 0 0
932000000 0.061867073 0.235626056 0.029018273 -0.021511508 0 0 0 0
940000000 0.180404096 0.349955052 0.00574349 -0.025835661 0 0 0 0
948000000 0.420344769 0.339149087 -0.00670322 -0.017903804 0 0 0 0
956000000 0.568356156 0.149424597 -0.010316356 -0.009821027 0 0 0 0
964000000 0.581853687 -0.095183521 -0.010384494 -0.003841297 0 0 0 0
972000000 0.481988161 -0.336210787 -0.009276605 0.001219167 0 0 0 0
980000000 0.254380226 -0.5210343 -0.006099963 0.003852832 0 0 0 0
988000000 -0.027803193 -0.565873503 -0.003762264 0.004317448 0 0 0 0
996000000 -0.301232576 -0.494807988 -0.002587405 0.003549346 0 0 0 0
1004000000 -0.521839916 -0.345413327 -0.002225581 0.003666382 0 0 0 0
