# Hz S RI R 50
700000000 0.760536789 0.531755208 -4.8349e-05 0.000758942 0 0 0 0
708000000 0.86118716 0.286823958 1.5537e-05 0.00094616 0 0 0 0
716000000 0.891051352 0.017843078 0.000243019 0.001309963 0 0 0 0
724000000 0.829371988 -0.256276875 0.000298743 0.001244259 0 0 0 0
732000000 0.680601537 -0.509485781 0.000637667 0.001445271 0 0 0 0
740000000 0.441332638 -0.698649704 0.000824164 0.001250012 0 0 0 0
748000000 0.135235115 -0.791625142 0.001122972 0.001186305 0 0 0 0
756000000 -0.19803825 -0.742050349 0.001255482 0.000831257 0 0 0 0
764000000 -0.494093745 -0.533606052 0.0009673 0.000566705 0 0 0 0
772000000 -0.643953859 -0.176471725 0.001117408 -4.8361e-05 0 0 0 0
780000000 -0.556600272 0.240659639 0.000657224 -0.000318178 0 0 0 0
788000000 -0.190678671 0.520851433 2.4527e-05 -0.000712297 0 0 0 0
796000000 0.280258536 0.466213464 -0.001235581 -0.000616612 0 0 0 0
804000000 0.559207558 0.096729435 -0.002480148 0.000947916 0 0 0 0
812000000 0.490501224 -0.330174237 -0.001710154 0.003130979 0 0 0 0
820000000 0.19487302 -0.574729204 0.000842321 0.004059555 0 0 0 0
828000000 -0.162529945 -0.596578657 0.002872724 0.003416488 0 0 0 0
836000000 -0.442311435 -0.444728016 0.00471536 0.002371443 0 0 0 0
844000000 -0.61213237 -0.207508221 0.006634087 -3.7597e-05 0 0 0 0
852000000 -0.663574397 0.050701811 0.007715485 -0.003037797 0 0 0 0
860000000 -0.605636894 0.29027155 0.008066114 -0.006985574 0 0 0 0
868000000 -0.459706485 0.455532014 0.006447026 -0.012132818 0 0 0 0
876000000 -0.261664122 0.519735932 0.00080256 -0.017808068 0 0 0 0
884000000 -0.082139655 0.475795269 -0.010861651 -0.019722849 0 0 0 0
892000000 0.024941133 0.350174784 -0.025439251 -0.011100655 0 0 0 0
900000000 0.209687605 0.195529371 -0.032233074 0.013306579 0 0 0 0
908000000 0.162413641 0.144671201 -0.013912906 0.036403015 0 0 0 0
916000000 0.111807405 0.141168981 0.01941633 0.036751486 0 0 0 0
924000000 0.068155683 0.161709457 0.039190642 0.008283785 0 0 0 0
932000000 0.070730224 0.276162952 0.026488583 -0.020022546 0 0 0 0
940000000 0.210291981 0.36961165 0.005341229 -0.023947369 0 0 0 0
948000000 0.439066767 0.338668227 -0.005607005 -0.017021426 0 0 0 0
956000000 0.563086688 0.124474652 -0.00933718 -0.010132678 0 0 0 0
964000000 0.58242774 -0.118137255 -0.010084306 -0.003989989 0 0 0 0
972000000 0.469939976 -0.348436325 -0.009193402 0.000856668 0 0 0 0
980000000 0.246334642 -0.518524587 -0.005832029 0.003020329 0 0 0 0
988000000 -0.033853918 -0.569019198 -0.004045161 0.00440798 0 0 0 0
996000000 -0.302125692 -0.490237653 -0.003150615 0.003590241 0 0 0 0
1004000000 -0.523730099 -0.336101531 -0.001584087 0.003984397 0 0 0 0
