# Hz S RI R 50
700000000 0.7662189 0.532571911 -7.1194e-05 0.000648835 0 0 0 0
708000000 0.864772558 0.287119269 8.0926e-05 0.001042212 0 0 0 0
716000000 0.890605449 0.017019011 0.000181692 0.001282179 0 0 0 0
724000000 0.826883554 -0.262202769 0.000137425 0.001365669 0 0 0 0
732000000 0.680143654 -0.509791433 0.000428891 0.001381391 0 0 0 0
740000000 0.441392749 -0.698598861 0.000741247 0.001303071 0 0 0 0
748000000 0.134654581 -0.790092647 0.00089792 0.001203727 0 0 0 0
756000000 -0.201922908 -0.742542922 0.001035499 0.001036807 0 0 0 0
764000000 -0.492168307 -0.529201447 0.001365194 0.00061041 0 0 0 0
772000000 -0.646601438 -0.166317939 0.001567094 0.0003068 0 0 0 0
780000000 -0.545784354 0.248341307 0.001257786 -0.00058131 0 0 0 0
788000000 -0.174313098 0.517419397 0.000513879 -0.001488644 0 0 0 0
796000000 0.289218693 0.448602825 -0.001568524 -0.001655709 0 0 0 0
804000000 0.552017092 0.075943395 -0.003661748 9.6617e-05 0 0 0 0
812000000 0.476065546 -0.339904695 -0.003191634 0.003615549 0 0 0 0
820000000 0.173889815 -0.571300506 -0.000131062 0.005732095 0 0 0 0
828000000 -0.177204355 -0.580346107 0.003112065 0.005393639 0 0 0 0
836000000 -0.450360983 -0.427793323 0.00594173 0.003741005 0 0 0 0
844000000 -0.610656619 -0.187223479 0.008368392 0.000635322 0 0 0 0
852000000 -0.648594141 0.067694388 0.009630357 -0.003274193 0 0 0 0
860000000 -0.583638548 0.295635133 0.009888845 -0.008375319 0 0 0 0
868000000 -0.436125785 0.449684172 0.00709878 -0.014793892 0 0 0 0
876000000 -0.248191222 0.504758179 -0.000334079 -0.020929269 0 0 0 0
884000000 -0.078912988 0.455872178 -0.014352037 -0.021795332 0 0 0 0
892000000 0.018832502 0.336599379 -0.030178708 -0.00982494 0 0 0 0
900000000 0.198974192 0.186966329 -0.033584699 0.018371131 0 0 0 0
908000000 0.137207031 0.136972948 -0.011645546 0.042150471 0 0 0 0
916000000 0.08317162 0.149281278 0.024977564 0.038296539 0 0 0 0
924000000 0.056575559 0.194932416 0.043182145 0.004557237 0 0 0 0
932000000 0.084743276 0.309897422 0.026321129 -0.024986671 0 0 0 0
940000000 0.247157245 0.388643741 0.00285257 -0.024869054 0 0 0 0
948000000 0.45987758 0.322560608 -0.006621148 -0.016504373 0 0 0 0
956000000 0.576607108 0.115912124 -0.009553442 -0.009885016 0 0 0 0
964000000 0.583552479 -0.137201413 -0.010491169 -0.002660698 0 0 0 0
972000000 0.458725541 -0.362894624 -0.009072975 0.000836065 0 0 0 0
980000000 0.234493732 -0.516370356 -0.006396835 0.003725677 0 0 0 0
988000000 -0.030167348 -0.556909143 -0.004408137 0.005075313 0 0 0 0
996000000 -0.312624603 -0.489584118 -0.002480921 0.00409466 0 0 0 0
1004000000 -0.517281949 -0.328323721 -0.001729357 0.004182266 0 0 0 0
