# Hz S RI R 50
700000000 0.762344181 0.532378435 -2.5465e-05 0.000575842 0 0 0 0
708000000 0.865980565 0.284222453 0.000125996 0.000994921 0 0 0 0
716000000 0.891623854 0.01416635 7.3944e-05 0.001171301 0 0 0 0
724000000 0.830486416 -0.258543789 0.000300726 0.001290595 0 0 0 0
732000000 0.679486334 -0.511615693 0.00045456 0.001298093 0 0 0 0
740000000 0.442275077 -0.698394298 0.000872207 0.001323802 0 0 0 0
748000000 0.132153004 -0.78884387 0.001048041 0.001205633 0 0 0 0
756000000 -0.201069161 -0.740083456 0.001252308 0.000918859 0 0 0 0
764000000 -0.494787037 -0.530596613 0.001140632 0.000803158 0 0 0 0
772000000 -0.643538415 -0.170103415 0.001306855 0.000435897 0 0 0 0
780000000 -0.552809178 0.246128708 0.001304333 -0.000259978 0 0 0 0
788000000 -0.183079063 0.52110666 0.000327934 -0.0011297 0 0 0 0
796000000 0.286755949 0.455054372 -0.00128724 -0.001472448 0 0 0 0
804000000 0.555338084 0.087810322 -0.003328413 0.000380135 0 0 0 0
812000000 0.484647303 -0.332619249 -0.002679976 0.00334412 0 0 0 0
820000000 0.183722883 -0.573906838 -0.000201622 0.005148314 0 0 0 0
828000000 -0.171150296 -0.590187132 0.002719209 0.004892529 0 0 0 0
836000000 -0.445769011 -0.43681389 0.005274146 0.003231571 0 0 0 0
844000000 -0.613331675 -0.1977849 0.007702525 0.000705406 0 0 0 0
852000000 -0.655451655 0.059034943 0.009094283 -0.002922948 0 0 0 0
860000000 -0.600250601 0.294350445 0.009379477 -0.00768763 0 0 0 0
868000000 -0.452534347 0.453383088 0.00708538 -0.013869917 0 0 0 0
876000000 -0.258095055 0.517779648 0.000536055 -0.019878081 0 0 0 0
884000000 -0.082117125 0.471415311 -0.012556659 -0.021238276 0 0 0 0
892000000 0.019450405 0.349421262 -0.028332026 -0.011261298 0 0 0 0
900000000 0.206502676 0.192214652 -0.034536074 0.015525969 0 0 0 0
908000000 0.15852715 0.135565698 -0.014068373 0.040697246 0 0 0 0
916000000 0.113947905 0.147021844 0.022147027 0.039331614 0 0 0 0
924000000 0.069810919 0.174094229 0.042633105 0.008173263 0 0 0 0
932000000 0.066152878 0.277718037 0.028171679 -0.02307284 0 0 0 0
940000000 0.207346752 0.379999041 0.004142432 -0.025625616 0 0 0 0
948000000 0.438718974 0.328803211 -0.006671758 -0.016897326 0 0 0 0
956000000 0.569409728 0.117763228 -0.009754656 -0.009654665 0 0 0 0
964000000 0.581670761 -0.116963855 -0.010027999 -0.003506928 0 0 0 0
972000000 0.463939011 -0.344715505 -0.009329525 0.000788642 0 0 0 0
980000000 0.252542495 -0.516445159 -0.006578741 0.004145584 0 0 0 0
988000000 -0.033352375 -0.551585495 -0.004115202 0.004531964 0 0 0 0
996000000 -0.292962133 -0.487646996 -0.002450331 0.003775461 0 0 0 0
1004000000 -0.513308703 -0.337078332 -0.002472215 0.003793204 0 0 0 0
