# Hz S RI R 50
700000000 0.761774361 0.52541697 -0.000122847 0.000647778 0 0 0 0
708000000 0.862759411 0.284412592 -6.9224e-05 0.000980825 0 0 0 0
716000000 0.890548169 0.011260901 0.000102142 0.001265986 0 0 0 0
724000000 0.825736403 -0.262794464 7.8466e-05 0.001525442 0 0 0 0
732000000 0.679171741 -0.510669827 0.000335694 0.001653356 0 0 0 0
740000000 0.44052568 -0.700502097 0.000710437 0.00151841 0 0 0 0
748000000 0.132895022 -0.789459228 0.001020478 0.001529772 0 0 0 0
756000000 -0.200630336 -0.739575803 0.001343068 0.001410985 0 0 0 0
764000000 -0.494952797 -0.526469588 0.001745618 0.001318119 0 0 0 0
772000000 -0.646024048 -0.165921404 0.002336964 0.000645006 0 0 0 0
780000000 -0.550227165 0.248821303 0.002497525 -0.000884482 0 0 0 0
788000000 -0.180537626 0.524370789 0.001540824 -0.00279082 0 0 0 0
796000000 0.290498852 0.46312201 -0.001781026 -0.004073467 0 0 0 0
804000000 0.56552416 0.088564246 -0.006062894 -0.001316016 0 0 0 0
812000000 0.492962568 -0.33864665 -0.006194181 0.004410521 0 0 0 0
820000000 0.191591903 -0.582376837 -0.001700775 0.008074266 0 0 0 0
828000000 -0.167368397 -0.603286683 0.003488877 0.008182245 0 0 0 0
836000000 -0.451666533 -0.451293617 0.007798939 0.005700405 0 0 0 0
844000000 -0.624519228 -0.208888083 0.010992599 0.001527714 0 0 0 0
852000000 -0.671575665 0.058095701 0.012592389 -0.004301039 0 0 0 0
860000000 -0.617258012 0.30008921 0.012060452 -0.010922767 0 0 0 0
868000000 -0.470378875 0.473799824 0.007725409 -0.019159717 0 0 0 0
876000000 -0.257165968 0.548233389 -0.00292608 -0.025454401 0 0 0 0
884000000 -0.057492125 0.503308951 -0.020866716 -0.023772114 0 0 0 0
892000000 0.072604052 0.355695396 -0.03752787 -0.005776343 0 0 0 0
900000000 0.24881123 0.164180785 -0.034872483 0.028670089 0 0 0 0
908000000 0.161367163 0.093975014 -0.003348533 0.047809258 0 0 0 0
916000000 0.088740885 0.104595988 0.031911361 0.036213409 0 0 0 0
924000000 0.026277715 0.167561754 0.045087963 0.002016887 0 0 0 0
932000000 0.046447187 0.295803964 0.029657293 -0.027249637 0 0 0 0
940000000 0.203420743 0.397955447 0.00237987 -0.031736999 0 0 0 0
948000000 0.449367076 0.337162405 -0.011685967 -0.019686168 0 0 0 0
956000000 0.577817201 0.132704153 -0.01386264 -0.009171181 0 0 0 0
964000000 0.587044239 -0.1043903 -0.012176971 -0.001793693 0 0 0 0
972000000 0.474762648 -0.334590345 -0.010480159 0.003652133 0 0 0 0
980000000 0.248624041 -0.513489365 -0.006220772 0.005494609 0 0 0 0
988000000 -0.020616734 -0.564997553 -0.003327251 0.006450796 0 0 0 0
996000000 -0.297221839 -0.494572371 -0.000876245 0.004851096 0 0 0 0
1004000000 -0.519582331 -0.340304911 -0.0003149 0.004462979 0 0 0 0
