# Hz S RI R 50
700000000 0.764873266 0.528709053 -0.000145926 0.000457793 0 0 0 0
708000000 0.861802816 0.286179006 -0.000143599 0.00086646 0 0 0 0
716000000 0.889964163 0.014563408 -0.00010114 0.001295263 0 0 0 0
724000000 0.830552101 -0.255141764 0.000119683 0.001366642 0 0 0 0
732000000 0.680255472 -0.507716655 0.00032962 0.001676361 0 0 0 0
740000000 0.441503107 -0.698040306 0.00066624 0.001813248 0 0 0 0
748000000 0.135261476 -0.79123789 0.000832049 0.001594463 0 0 0 0
756000000 -0.198018148 -0.744095504 0.001296196 0.001316534 0 0 0 0
764000000 -0.492486059 -0.536463558 0.001836012 0.001197559 0 0 0 0
772000000 -0.651746213 -0.177673667 0.002205555 0.000563376 0 0 0 0
780000000 -0.567649841 0.236611574 0.002338466 -0.000943346 0 0 0 0
788000000 -0.20997624 0.527670919 0.001369811 -0.002748074 0 0 0 0
796000000 0.275082945 0.490964144 -0.001918695 -0.003837569 0 0 0 0
804000000 0.570576727 0.128999099 -0.006099266 -0.000889267 0 0 0 0
812000000 0.530034482 -0.309438109 -0.005661261 0.004734598 0 0 0 0
820000000 0.234900355 -0.581331431 -0.001173894 0.008184696 0 0 0 0
828000000 -0.133675456 -0.625578343 0.003776674 0.007573712 0 0 0 0
836000000 -0.434099316 -0.486514031 0.007781661 0.004957696 0 0 0 0
844000000 -0.62723726 -0.250629454 0.01067556 0.000715048 0 0 0 0
852000000 -0.699666559 0.021329931 0.01196758 -0.004681101 0 0 0 0
860000000 -0.657744705 0.281843125 0.01115746 -0.010815298 0 0 0 0
868000000 -0.520353198 0.482292354 0.007031971 -0.018356811 0 0 0 0
876000000 -0.304806917 0.583151757 -0.003080938 -0.024217395 0 0 0 0
884000000 -0.077358126 0.563973009 -0.01958023 -0.0228642 0 0 0 0
892000000 0.094768241 0.41273275 -0.036239568 -0.006602964 0 0 0 0
900000000 0.306295335 0.185278505 -0.035584896 0.028692658 0 0 0 0
908000000 0.217979446 0.090868704 -0.004510021 0.048471491 0 0 0 0
916000000 0.145227849 0.074817441 0.031672008 0.036962576 0 0 0 0
924000000 0.064639136 0.101012371 0.04668419 0.002919953 0 0 0 0
932000000 0.019737657 0.21041572 0.032482691 -0.028421979 0 0 0 0
940000000 0.128284156 0.364495754 0.002942491 -0.034449461 0 0 0 0
948000000 0.38805595 0.363236725 -0.013391781 -0.021437413 0 0 0 0
956000000 0.554309368 0.175338506 -0.015098652 -0.009729324 0 0 0 0
964000000 0.59538877 -0.075260199 -0.014689688 -0.000854034 0 0 0 0
972000000 0.496259957 -0.313202887 -0.010997097 0.004334884 0 0 0 0
980000000 0.281710058 -0.497636735 -0.006238927 0.00726379 0 0 0 0
988000000 -0.002927729 -0.565574228 -0.002772889 0.007684336 0 0 0 0
996000000 -0.289180517 -0.500360906 -0.000300927 0.005913192 0 0 0 0
1004000000 -0.505462586 -0.344648331 0.000795926 0.004684783 0 0 0 0
