# Hz S RI R 50
700000000 0.759263038 0.534610927 -7.6371e-05 0.000561901 0 0 0 0
708000000 0.863802552 0.288176745 -0.000192552 0.000867492 0 0 0 0
716000000 0.890624165 0.016448577 -6.6742e-05 0.001119179 0 0 0 0
724000000 0.83128196 -0.256043553 9.8527e-05 0.001495109 0 0 0 0
732000000 0.681457281 -0.509625077 0.000507411 0.001544321 0 0 0 0
740000000 0.446275919 -0.700981736 0.000821301 0.001642734 0 0 0 0
748000000 0.140007972 -0.788801014 0.000997588 0.00153111 0 0 0 0
756000000 -0.194857493 -0.748546302 0.001125775 0.001413447 0 0 0 0
764000000 -0.488988071 -0.546217322 0.001585383 0.00112296 0 0 0 0
772000000 -0.651021718 -0.187112748 0.002096805 0.000472043 0 0 0 0
780000000 -0.578190505 0.229655459 0.002114301 -0.000856537 0 0 0 0
788000000 -0.230482488 0.532478272 0.001077985 -0.002579967 0 0 0 0
796000000 0.253515273 0.509172201 -0.002149473 -0.003198602 0 0 0 0
804000000 0.573330521 0.157040446 -0.005783688 -0.000406541 0 0 0 0
812000000 0.549467444 -0.293070614 -0.004894285 0.005206268 0 0 0 0
820000000 0.259904265 -0.579066634 -0.000253197 0.007850338 0 0 0 0
828000000 -0.110681399 -0.640331327 0.00466493 0.006908285 0 0 0 0
836000000 -0.424997836 -0.511718153 0.00811173 0.003945778 0 0 0 0
844000000 -0.626085281 -0.276923 0.01033157 -0.000532126 0 0 0 0
852000000 -0.711514294 -0.002582628 0.011133627 -0.005507856 0 0 0 0
860000000 -0.680439531 0.264229893 0.009748298 -0.011191175 0 0 0 0
868000000 -0.546001434 0.474421858 0.005212401 -0.017548186 0 0 0 0
876000000 -0.33739826 0.599752306 -0.004130692 -0.022469872 0 0 0 0
884000000 -0.098706066 0.599116683 -0.019165262 -0.02014533 0 0 0 0
892000000 0.097568944 0.461001694 -0.033966187 -0.004949687 0 0 0 0
900000000 0.335656404 0.221804812 -0.032453171 0.026494067 0 0 0 0
908000000 0.257529675 0.103900082 -0.003534381 0.046436056 0 0 0 0
916000000 0.185465157 0.080198295 0.031570039 0.035414312 0 0 0 0
924000000 0.12601529 0.053633149 0.045688807 0.003039202 0 0 0 0
932000000 0.035416871 0.126979961 0.032079681 -0.02916802 0 0 0 0
940000000 0.073428727 0.301467508 0.002058912 -0.036060951 0 0 0 0
948000000 0.320405066 0.370808482 -0.015158557 -0.02185449 0 0 0 0
956000000 0.503846466 0.219667449 -0.017192913 -0.008908547 0 0 0 0
964000000 0.587724983 -0.02429936 -0.015329299 0.000302639 0 0 0 0
972000000 0.499171435 -0.285828948 -0.010738602 0.005995757 0 0 0 0
980000000 0.303788006 -0.484372586 -0.005406343 0.008665499 0 0 0 0
988000000 0.023955533 -0.553409636 -0.001851998 0.008102917 0 0 0 0
996000000 -0.271648794 -0.504040181 0.000502725 0.006396623 0 0 0 0
1004000000 -0.49868223 -0.361980199 0.001386559 0.005109848 0 0 0 0
