# Hz S RI R 50
700000000 0.768002629 0.530214369 -0.00010302 0.000668574 0 0 0 0
708000000 0.864033639 0.290060251 -3.3746e-05 0.000981463 0 0 0 0
716000000 0.88770163 0.018587039 0.000127479 0.001224965 0 0 0 0
724000000 0.835664153 -0.259621411 0.000408801 0.001363882 0 0 0 0
732000000 0.68451333 -0.506179273 0.000660995 0.001288566 0 0 0 0
740000000 0.446430504 -0.698352992 0.000817711 0.001223515 0 0 0 0
748000000 0.141134455 -0.791441738 0.001176121 0.000942217 0 0 0 0
756000000 -0.192996561 -0.748672783 0.001117643 0.000570194 0 0 0 0
764000000 -0.490635275 -0.543589472 0.000872021 0.000289668 0 0 0 0
772000000 -0.653431892 -0.185492336 0.000583074 0.000135984 0 0 0 0
780000000 -0.576651751 0.234763562 0.000478242 -0.00033077 0 0 0 0
788000000 -0.221668571 0.532377362 -0.000434621 -0.000177673 0 0 0 0
796000000 0.265742182 0.505175173 -0.001351279 0.000429372 0 0 0 0
804000000 0.578187286 0.139333412 -0.001512899 0.001894958 0 0 0 0
812000000 0.538809478 -0.305370181 -0.000144304 0.003543833 0 0 0 0
820000000 0.243412196 -0.585315704 0.001983162 0.003575514 0 0 0 0
828000000 -0.128728598 -0.632740616 0.003633646 0.002442384 0 0 0 0
836000000 -0.434234291 -0.496232062 0.004883148 0.000986656 0 0 0 0
844000000 -0.630157411 -0.259199887 0.005926061 -0.001341427 0 0 0 0
852000000 -0.702404916 0.014962105 0.006736903 -0.003878435 0 0 0 0
860000000 -0.666633069 0.273234844 0.006381467 -0.00740291 0 0 0 0
868000000 -0.534932434 0.467941373 0.004293789 -0.012022581 0 0 0 0
876000000 -0.32974565 0.581757366 -0.001487331 -0.016025615 0 0 0 0
884000000 -0.110503636 0.585575461 -0.01191791 -0.0163883 0 0 0 0
892000000 0.075915813 0.47309947 -0.024360835 -0.006892921 0 0 0 0
900000000 0.350074559 0.259769856 -0.027512753 0.017757298 0 0 0 0
908000000 0.315926373 0.110451728 -0.007030967 0.035400085 0 0 0 0
916000000 0.217925235 0.009148305 0.022598668 0.029918311 0 0 0 0
924000000 0.074437849 -0.00493079 0.035413321 0.0026437 0 0 0 0
932000000 -0.038657896 0.143676161 0.02207726 -0.020839828 0 0 0 0
940000000 0.053290084 0.349115818 0.003055671 -0.023591358 0 0 0 0
948000000 0.331766426 0.398066163 -0.007851679 -0.015766019 0 0 0 0
956000000 0.510593473 0.237387448 -0.010005656 -0.007913055 0 0 0 0
964000000 0.595650315 -0.016676288 -0.009826572 -0.001092009 0 0 0 0
972000000 0.514472901 -0.286260336 -0.007944661 0.00224838 0 0 0 0
980000000 0.297068208 -0.493380337 -0.004837819 0.003493107 0 0 0 0
988000000 0.03342384 -0.5680781 -0.003015425 0.003956145 0 0 0 0
996000000 -0.26145634 -0.521492719 -0.001654561 0.004022074 0 0 0 0
1004000000 -0.50872302 -0.369252502 -0.00138576 0.002928797 0 0 0 0
