# Hz S RI R 50
700000000 0.769047439 0.525875806 2.999e-06 0.00068063 0 0 0 0
708000000 0.868532121 0.284752607 -2.7991e-05 0.00094025 0 0 0 0
716000000 0.891859591 0.013819228 5.8943e-05 0.001409521 0 0 0 0
724000000 0.82968086 -0.261718899 0.000225599 0.001498329 0 0 0 0
732000000 0.682074129 -0.514582574 0.00043214 0.001495769 0 0 0 0
740000000 0.441179454 -0.705934762 0.000808278 0.001607655 0 0 0 0
748000000 0.135335803 -0.794668197 0.000923503 0.001100988 0 0 0 0
756000000 -0.202852576 -0.748625397 0.001146127 0.001073793 0 0 0 0
764000000 -0.49548608 -0.537556946 0.001221786 0.0005735 0 0 0 0
772000000 -0.657016515 -0.177051365 0.001371157 0.000111948 0 0 0 0
780000000 -0.563795387 0.246315747 0.001166857 -0.000480558 0 0 0 0
788000000 -0.195388764 0.532826781 0.00034258 -0.001464485 0 0 0 0
796000000 0.28700748 0.480821847 -0.001430381 -0.001568275 0 0 0 0
804000000 0.575284421 0.108523346 -0.003778555 0.000164849 0 0 0 0
812000000 0.518163681 -0.331224322 -0.003076222 0.00352371 0 0 0 0
820000000 0.21426931 -0.590183079 0.000133591 0.005462273 0 0 0 0
828000000 -0.153093144 -0.623282909 0.003094243 0.004864653 0 0 0 0
836000000 -0.445209741 -0.479914963 0.005718761 0.003454471 0 0 0 0
844000000 -0.634420692 -0.232048064 0.007754099 0.000609224 0 0 0 0
852000000 -0.697865843 0.035323128 0.009115042 -0.003158563 0 0 0 0
860000000 -0.652813494 0.288672894 0.009452082 -0.007671943 0 0 0 0
868000000 -0.505512177 0.477793931 0.00743563 -0.013802898 0 0 0 0
876000000 -0.30000028 0.578193485 0.000860602 -0.019936751 0 0 0 0
884000000 -0.082644 0.561462819 -0.011996299 -0.02221621 0 0 0 0
892000000 0.087861053 0.428291827 -0.02900524 -0.012778316 0 0 0 0
900000000 0.318168342 0.216233968 -0.03645816 0.015321127 0 0 0 0
908000000 0.252953737 0.073630154 -0.016674056 0.043467164 0 0 0 0
916000000 0.143933221 0.030906599 0.022134225 0.044610228 0 0 0 0
924000000 0.04073853 0.063539654 0.046410635 0.012022225 0 0 0 0
932000000 -0.009278846 0.207864314 0.036163248 -0.024098547 0 0 0 0
940000000 0.111756369 0.368152767 0.006712781 -0.033869285 0 0 0 0
948000000 0.370529949 0.367326498 -0.011278969 -0.021891258 0 0 0 0
956000000 0.537018954 0.185801044 -0.014475625 -0.009674997 0 0 0 0
964000000 0.587253451 -0.0582419 -0.013089019 -0.001441089 0 0 0 0
972000000 0.496118843 -0.30333352 -0.01042247 0.00350703 0 0 0 0
980000000 0.278337717 -0.503825426 -0.005508414 0.005442188 0 0 0 0
988000000 0.003673949 -0.555583 -0.002668062 0.005807356 0 0 0 0
996000000 -0.284577876 -0.501648008 -0.00107837 0.004602643 0 0 0 0
1004000000 -0.503035068 -0.355074405 -0.000557386 0.003630387 0 0 0 0
