# Hz S RI R 50
700000000 0.763588964 0.528626918 -7.4049e-05 0.000574178 0 0 0 0
708000000 0.86381632 0.287913888 -0.000241564 0.000861983 0 0 0 0
716000000 0.889396667 0.019633552 -0.000124265 0.001130121 0 0 0 0
724000000 0.830992698 -0.252562671 8.1673e-05 0.001353597 0 0 0 0
732000000 0.681285142 -0.505691111 0.000418417 0.00148132 0 0 0 0
740000000 0.44456017 -0.695169627 0.00065053 0.001621268 0 0 0 0
748000000 0.137978866 -0.788623511 0.000994039 0.001494509 0 0 0 0
756000000 -0.194245636 -0.743569254 0.001183166 0.001366918 0 0 0 0
764000000 -0.487927526 -0.536031603 0.001578837 0.000969193 0 0 0 0
772000000 -0.643871903 -0.177851811 0.002143238 0.000581944 0 0 0 0
780000000 -0.556690275 0.234015122 0.002275107 -0.000546765 0 0 0 0
788000000 -0.201950371 0.515645325 0.001169711 -0.002093208 0 0 0 0
796000000 0.267447292 0.469243109 -0.0012737 -0.003256434 0 0 0 0
804000000 0.548543572 0.111666202 -0.005269536 -0.001118926 0 0 0 0
812000000 0.496703565 -0.312576711 -0.005341185 0.003739058 0 0 0 0
820000000 0.205077111 -0.562878966 -0.00129161 0.007099033 0 0 0 0
828000000 -0.150038868 -0.595339238 0.003140936 0.007099242 0 0 0 0
836000000 -0.429908514 -0.450939506 0.006785187 0.005053607 0 0 0 0
844000000 -0.606352806 -0.216356188 0.009871551 0.001559295 0 0 0 0
852000000 -0.659193575 0.039529167 0.011583031 -0.003322305 0 0 0 0
860000000 -0.608895242 0.278894871 0.011450696 -0.009410917 0 0 0 0
868000000 -0.468080461 0.443627238 0.008409364 -0.01701715 0 0 0 0
876000000 -0.276668965 0.51677072 -0.000635168 -0.02377884 0 0 0 0
884000000 -0.093310989 0.475887119 -0.016888381 -0.024225257 0 0 0 0
892000000 0.016507687 0.356479316 -0.034599438 -0.010249554 0 0 0 0
900000000 0.204900249 0.196020945 -0.037970468 0.023681333 0 0 0 0
908000000 0.146852627 0.164945766 -0.011381137 0.047642476 0 0 0 0
916000000 0.117871239 0.178134769 0.027757568 0.042120989 0 0 0 0
924000000 0.117945767 0.186975017 0.048360437 0.007477082 0 0 0 0
932000000 0.110882982 0.247312292 0.032660968 -0.028309712 0 0 0 0
940000000 0.203928589 0.332613825 0.003688538 -0.031725019 0 0 0 0
948000000 0.415514141 0.313520818 -0.009647218 -0.020490568 0 0 0 0
956000000 0.545893967 0.124344132 -0.013544944 -0.010905832 0 0 0 0
964000000 0.575160801 -0.10301721 -0.013799601 -0.002560369 0 0 0 0
972000000 0.46862021 -0.332510232 -0.011209556 0.003337767 0 0 0 0
980000000 0.249428614 -0.505993306 -0.007029646 0.005526955 0 0 0 0
988000000 -0.02712517 -0.558742165 -0.003769534 0.00628533 0 0 0 0
996000000 -0.295326501 -0.488547116 -0.001704748 0.005153288 0 0 0 0
1004000000 -0.527564525 -0.341881155 -0.000131691 0.00525197 0 0 0 0
