# Hz S RI R 50
700000000 0.768249988 0.528240144 -3.3294e-05 0.000448925 0 0 0 0
708000000 0.863227009 0.286502003 2.0304e-05 0.000874682 0 0 0 0
716000000 0.891495406 0.015417017 5.1526e-05 0.001032178 0 0 0 0
724000000 0.829512834 -0.256895303 0.000143009 0.001476841 0 0 0 0
732000000 0.68043226 -0.51037079 0.000281428 0.001263923 0 0 0 0
740000000 0.444025039 -0.699767649 0.000605376 0.001363314 0 0 0 0
748000000 0.133530572 -0.791676878 0.000802301 0.001372189 0 0 0 0
756000000 -0.197005271 -0.74605149 0.001015225 0.001357624 0 0 0 0
764000000 -0.494248867 -0.538135707 0.001188994 0.001125205 0 0 0 0
772000000 -0.652076482 -0.178472638 0.001691114 0.000892151 0 0 0 0
780000000 -0.57074958 0.24050948 0.002142191 -8.3816e-05 0 0 0 0
788000000 -0.212508752 0.532214283 0.00143609 -0.001544972 0 0 0 0
796000000 0.272266268 0.495795011 -0.000671804 -0.002659444 0 0 0 0
804000000 0.576462328 0.130489617 -0.003947788 -0.001286721 0 0 0 0
812000000 0.536016643 -0.313732266 -0.004235344 0.002741401 0 0 0 0
820000000 0.237252637 -0.588692605 -0.001136056 0.005410298 0 0 0 0
828000000 -0.133981212 -0.633028805 0.002185144 0.005298625 0 0 0 0
836000000 -0.43957597 -0.494949162 0.004781141 0.003919356 0 0 0 0
844000000 -0.633832991 -0.257961004 0.007262909 0.001328282 0 0 0 0
852000000 -0.707062482 0.017843177 0.008780925 -0.001997231 0 0 0 0
860000000 -0.670206248 0.279488056 0.009362296 -0.006242161 0 0 0 0
868000000 -0.530270576 0.48219943 0.008271451 -0.012272316 0 0 0 0
876000000 -0.317997127 0.591462373 0.002570725 -0.018902396 0 0 0 0
884000000 -0.087617494 0.582426667 -0.009443785 -0.021717725 0 0 0 0
892000000 0.094564169 0.455758094 -0.025451501 -0.014215077 0 0 0 0
900000000 0.339762926 0.216784715 -0.033822245 0.01170301 0 0 0 0
908000000 0.28218773 0.082842215 -0.018792228 0.036092765 0 0 0 0
916000000 0.171961292 0.024851486 0.013888229 0.039880745 0 0 0 0
924000000 0.054188087 0.041688192 0.037301942 0.016683816 0 0 0 0
932000000 -0.018051568 0.176451638 0.035392537 -0.014776729 0 0 0 0
940000000 0.084492444 0.358778089 0.01094628 -0.02852912 0 0 0 0
948000000 0.344133287 0.392688989 -0.005504265 -0.021091315 0 0 0 0
956000000 0.534883618 0.215711176 -0.010500949 -0.011980628 0 0 0 0
964000000 0.595431387 -0.044757071 -0.011262581 -0.004602984 0 0 0 0
972000000 0.517189502 -0.300561964 -0.010965175 0.000396182 0 0 0 0
980000000 0.298499017 -0.501748919 -0.006528882 0.003152932 0 0 0 0
988000000 0.015001731 -0.571192502 -0.005113581 0.004568727 0 0 0 0
996000000 -0.273055404 -0.512781679 -0.003158928 0.004407322 0 0 0 0
1004000000 -0.505818605 -0.364337474 -0.002116331 0.004494164 0 0 0 0
