# Hz S RI R 50
700000000 0.769345164 0.530032575 2.5323e-05 0.00056006 0 0 0 0
708000000 0.865304768 0.28305909 4.8398e-05 0.000871277 0 0 0 0
716000000 0.891648113 0.015505326 0.000147067 0.000952869 0 0 0 0
724000000 0.832345068 -0.259600967 7.7894e-05 0.001195822 0 0 0 0
732000000 0.67847985 -0.511246442 0.000320976 0.001319488 0 0 0 0
740000000 0.440514385 -0.701691448 0.000777474 0.001245395 0 0 0 0
748000000 0.135281354 -0.791895508 0.000763369 0.001189381 0 0 0 0
756000000 -0.202007547 -0.745783865 0.00095128 0.001133087 0 0 0 0
764000000 -0.495205283 -0.534118831 0.001092504 0.001308467 0 0 0 0
772000000 -0.648194134 -0.174744054 0.001643151 0.000778676 0 0 0 0
780000000 -0.56291306 0.242976114 0.001881686 0.000160196 0 0 0 0
788000000 -0.198086768 0.529528975 0.001755345 -0.001306007 0 0 0 0
796000000 0.283531934 0.481805771 -0.000227703 -0.002568793 0 0 0 0
804000000 0.573515415 0.11401657 -0.003503072 -0.001327309 0 0 0 0
812000000 0.520523428 -0.323977202 -0.003807791 0.002355707 0 0 0 0
820000000 0.21840839 -0.589582979 -0.001299019 0.004670624 0 0 0 0
828000000 -0.149668708 -0.625859618 0.001813285 0.005028869 0 0 0 0
836000000 -0.449300169 -0.481654584 0.004386291 0.003986774 0 0 0 0
844000000 -0.635452806 -0.241717487 0.006824261 0.001706703 0 0 0 0
852000000 -0.701981961 0.032335482 0.008481888 -0.001419932 0 0 0 0
860000000 -0.65338546 0.291261702 0.009530344 -0.005592857 0 0 0 0
868000000 -0.511773347 0.483360975 0.008602196 -0.011565011 0 0 0 0
876000000 -0.294566094 0.579268991 0.003656712 -0.018472427 0 0 0 0
884000000 -0.073439486 0.55664277 -0.008290332 -0.022178843 0 0 0 0
892000000 0.090638123 0.426454603 -0.025066863 -0.015078196 0 0 0 0
900000000 0.325252115 0.205370128 -0.034998226 0.01066732 0 0 0 0
908000000 0.248070433 0.080539561 -0.019463932 0.035238638 0 0 0 0
916000000 0.146637409 0.029714792 0.011797419 0.039264686 0 0 0 0
924000000 0.031346715 0.072109237 0.035498458 0.018169546 0 0 0 0
932000000 -0.01309862 0.221849471 0.034759994 -0.012706938 0 0 0 0
940000000 0.122395351 0.382548063 0.013139449 -0.026326892 0 0 0 0
948000000 0.379970073 0.377139478 -0.00413016 -0.021703867 0 0 0 0
956000000 0.543274879 0.198318764 -0.010254583 -0.01313045 0 0 0 0
964000000 0.59305495 -0.072024032 -0.011598043 -0.004715432 0 0 0 0
972000000 0.49834302 -0.308005839 -0.01017884 0.00048161 0 0 0 0
980000000 0.274246126 -0.492281287 -0.007132597 0.003162365 0 0 0 0
988000000 -0.000568249 -0.557195246 -0.004809438 0.004586298 0 0 0 0
996000000 -0.281389057 -0.504518568 -0.003176936 0.004650577 0 0 0 0
1004000000 -0.503527402 -0.356963425 -0.002248306 0.004174979 0 0 0 0
