# Hz S RI R 50
700000000 0.765387594 0.529481709 3.7669e-05 0.000570475 0 0 0 0
708000000 0.861414611 0.283462256 -2.7348e-05 0.000896424 0 0 0 0
716000000 0.88750863 0.016266904 2.3944e-05 0.001199724 0 0 0 0
724000000 0.829255461 -0.265943497 0.000118698 0.001316845 0 0 0 0
732000000 0.679748654 -0.51086378 0.000335917 0.001486232 0 0 0 0
740000000 0.439250558 -0.700728178 0.000551362 0.001365904 0 0 0 0
748000000 0.13089241 -0.792133748 0.000820716 0.001177984 0 0 0 0
756000000 -0.205514088 -0.741622984 0.001025452 0.001244614 0 0 0 0
764000000 -0.499207288 -0.528923988 0.000984832 0.001082927 0 0 0 0
772000000 -0.64928615 -0.16664046 0.001385359 0.000597028 0 0 0 0
780000000 -0.557527005 0.255747705 0.001681144 5.517e-06 0 0 0 0
788000000 -0.179452538 0.536250531 0.001106368 -0.001193235 0 0 0 0
796000000 0.300174862 0.474359184 -0.000426128 -0.001636607 0 0 0 0
804000000 0.583048641 0.091811127 -0.002834287 -0.000504055 0 0 0 0
812000000 0.512327611 -0.34455046 -0.002741938 0.002309482 0 0 0 0
820000000 0.204544141 -0.598984122 -0.000532683 0.003780231 0 0 0 0
828000000 -0.166064828 -0.622668087 0.001567408 0.003792296 0 0 0 0
836000000 -0.461259722 -0.472778797 0.003712246 0.00268035 0 0 0 0
844000000 -0.640997886 -0.219143658 0.005736832 0.000836981 0 0 0 0
852000000 -0.701175153 0.048875436 0.007270037 -0.001323778 0 0 0 0
860000000 -0.647081315 0.307339191 0.008200109 -0.00461624 0 0 0 0
868000000 -0.495055019 0.493873417 0.007805828 -0.009860171 0 0 0 0
876000000 -0.276296108 0.581712782 0.004051184 -0.016000362 0 0 0 0
884000000 -0.051748368 0.550891816 -0.005836479 -0.020218245 0 0 0 0
892000000 0.109591431 0.405703932 -0.021437264 -0.015688156 0 0 0 0
900000000 0.325849384 0.171101078 -0.032930925 0.006159458 0 0 0 0
908000000 0.241876229 0.051666226 -0.020445285 0.031343996 0 0 0 0
916000000 0.100049547 0.011280869 0.009203547 0.037282988 0 0 0 0
924000000 -0.01343782 0.099343597 0.03220079 0.018093409 0 0 0 0
932000000 -0.007362135 0.276570916 0.032453995 -0.009974505 0 0 0 0
940000000 0.153691127 0.400180459 0.013457193 -0.023730963 0 0 0 0
948000000 0.412314414 0.365006476 -0.002230473 -0.020353987 0 0 0 0
956000000 0.556754887 0.180301681 -0.00893752 -0.013548127 0 0 0 0
964000000 0.598219931 -0.073639549 -0.010833466 -0.005263538 0 0 0 0
972000000 0.492392241 -0.316681832 -0.01012263 -0.00040407 0 0 0 0
980000000 0.281976461 -0.508483767 -0.00700085 0.003289599 0 0 0 0
988000000 0.00286465 -0.55604732 -0.005310677 0.004358998 0 0 0 0
996000000 -0.27771756 -0.503437221 -0.003169325 0.003870941 0 0 0 0
1004000000 -0.513074278 -0.341127574 -0.002545116 0.004073901 0 0 0 0
