# Hz S RI R 50
700000000 0.761030972 0.532226622 8.5758e-05 0.000615885 0 0 0 0
708000000 0.86327809 0.287074536 4.7871e-05 0.000958372 0 0 0 0
716000000 0.890959501 0.01617394 0.000189499 0.001260213 0 0 0 0
724000000 0.828083753 -0.261643916 0.000425904 0.0011091 0 0 0 0
732000000 0.68072921 -0.509997427 0.000441114 0.00132452 0 0 0 0
740000000 0.441510558 -0.7016927 0.000702219 0.001308919 0 0 0 0
748000000 0.132200881 -0.792262434 0.000920283 0.000994147 0 0 0 0
756000000 -0.200599923 -0.743739962 0.001056662 0.000754564 0 0 0 0
764000000 -0.497480422 -0.532612621 0.001075202 0.000585045 0 0 0 0
772000000 -0.651091158 -0.170720443 0.000954839 0.000293159 0 0 0 0
780000000 -0.564173877 0.252550959 0.0007819 0.000211163 0 0 0 0
788000000 -0.192614182 0.540778517 0.000230851 -0.000195605 0 0 0 0
796000000 0.294922143 0.485654711 -0.000534937 -7.6223e-05 0 0 0 0
804000000 0.58762753 0.107479423 -0.001132401 0.000899547 0 0 0 0
812000000 0.526964664 -0.337401598 -0.000465278 0.002089055 0 0 0 0
820000000 0.217130273 -0.599844813 0.000932998 0.002506454 0 0 0 0
828000000 -0.157058522 -0.636298835 0.002081283 0.0019415 0 0 0 0
836000000 -0.455534607 -0.486235648 0.00318081 0.001025851 0 0 0 0
844000000 -0.646364808 -0.238832041 0.004229472 -0.000440424 0 0 0 0
852000000 -0.711333513 0.038079965 0.00494446 -0.001819182 0 0 0 0
860000000 -0.667740225 0.29908958 0.005701892 -0.004063726 0 0 0 0
868000000 -0.521999895 0.501954913 0.005482817 -0.007724772 0 0 0 0
876000000 -0.301243573 0.604900836 0.003167831 -0.012262684 0 0 0 0
884000000 -0.065166369 0.590341806 -0.003900487 -0.015916209 0 0 0 0
892000000 0.124591447 0.452654659 -0.016272151 -0.013756152 0 0 0 0
900000000 0.377675175 0.191735357 -0.026801772 0.003925906 0 0 0 0
908000000 0.298285394 0.022925799 -0.018776057 0.025324974 0 0 0 0
916000000 0.121652364 -0.053575448 0.006385606 0.033069826 0 0 0 0
924000000 -0.049946371 0.049561295 0.027879972 0.01587036 0 0 0 0
932000000 -0.060061272 0.255244493 0.026738839 -0.008744087 0 0 0 0
940000000 0.119033224 0.407005667 0.011932126 -0.019382238 0 0 0 0
948000000 0.37352854 0.402744799 -0.000479387 -0.01746397 0 0 0 0
956000000 0.554668128 0.198983535 -0.006473614 -0.011576157 0 0 0 0
964000000 0.610821068 -0.048411477 -0.009185587 -0.00477341 0 0 0 0
972000000 0.515015363 -0.302993774 -0.008356161 -0.000496645 0 0 0 0
980000000 0.297644376 -0.506985843 -0.005891724 0.001978665 0 0 0 0
988000000 0.013097269 -0.5650177 -0.00487966 0.003446197 0 0 0 0
996000000 -0.271283984 -0.512216567 -0.003164791 0.002866325 0 0 0 0
1004000000 -0.503751873 -0.35668382 -0.002448567 0.002874884 0 0 0 0
