# Hz S RI R 50
700000000 0.767114341 0.531847238 8.2257e-05 0.000648754 0 0 0 0
708000000 0.86167407 0.288632303 4.2421e-05 0.001066585 0 0 0 0
716000000 0.888310253 0.013730675 0.000102402 0.001179685 0 0 0 0
724000000 0.827223837 -0.261163711 0.000411942 0.00117275 0 0 0 0
732000000 0.679162144 -0.509392917 0.000557159 0.001129333 0 0 0 0
740000000 0.440647482 -0.700070202 0.000853045 0.001158478 0 0 0 0
748000000 0.132485345 -0.791072249 0.000983378 0.000909047 0 0 0 0
756000000 -0.205867633 -0.743526816 0.000885655 0.000739538 0 0 0 0
764000000 -0.499722987 -0.528954029 0.000991551 0.000543537 0 0 0 0
772000000 -0.651206254 -0.164542153 0.000965493 0.000308634 0 0 0 0
780000000 -0.558212995 0.25786361 0.00073606 4.6745e-05 0 0 0 0
788000000 -0.179855406 0.540021955 0.00031802 -2.8266e-05 0 0 0 0
796000000 0.307587653 0.474218755 -0.000581375 0.000160999 0 0 0 0
804000000 0.587425649 0.087890625 -0.001064548 0.00126144 0 0 0 0
812000000 0.513094425 -0.354614377 -0.000119722 0.002094503 0 0 0 0
820000000 0.199159592 -0.605548083 0.001368249 0.002095759 0 0 0 0
828000000 -0.170467391 -0.627893865 0.002199253 0.001471566 0 0 0 0
836000000 -0.467432528 -0.473487526 0.003242019 0.000364931 0 0 0 0
844000000 -0.647552907 -0.226859927 0.003768369 -0.000944094 0 0 0 0
852000000 -0.708411276 0.049496468 0.004501766 -0.002137047 0 0 0 0
860000000 -0.65650624 0.311274856 0.004952111 -0.004228339 0 0 0 0
868000000 -0.509125471 0.504645824 0.004567802 -0.007144034 0 0 0 0
876000000 -0.281555563 0.610423684 0.002387965 -0.011028585 0 0 0 0
884000000 -0.045008774 0.58745402 -0.003559884 -0.013960442 0 0 0 0
892000000 0.145384505 0.433477938 -0.013742341 -0.012109261 0 0 0 0
900000000 0.387832552 0.165476605 -0.023091005 0.001465953 0 0 0 0
908000000 0.270225077 -0.03103022 -0.018003828 0.021373385 0 0 0 0
916000000 0.059888388 -0.067021071 0.004043678 0.029719853 0 0 0 0
924000000 -0.089406289 0.077133953 0.023575369 0.01531112 0 0 0 0
932000000 -0.054434526 0.307512015 0.024263819 -0.00629759 0 0 0 0
940000000 0.151830613 0.453153401 0.012518579 -0.016314594 0 0 0 0
948000000 0.417561799 0.400660604 0.001196343 -0.016564173 0 0 0 0
956000000 0.580843508 0.187109306 -0.006084012 -0.012013914 0 0 0 0
964000000 0.603739261 -0.069906666 -0.008223057 -0.005683025 0 0 0 0
972000000 0.504891157 -0.31708309 -0.008466489 -0.000304763 0 0 0 0
980000000 0.278784811 -0.500722527 -0.005633942 0.001233081 0 0 0 0
988000000 0.011314521 -0.568781137 -0.0040002 0.00287211 0 0 0 0
996000000 -0.264074563 -0.505961298 -0.003187341 0.003022035 0 0 0 0
1004000000 -0.495043098 -0.355974525 -0.002088279 0.003300346 0 0 0 0
