# Hz S RI R 50
700000000 0.764725089 0.529038369 0.000127717 0.000747249 0 0 0 0
708000000 0.863910615 0.285826444 1.9811e-05 0.000966239 0 0 0 0
716000000 0.889827191 0.016923746 0.000238495 0.001323087 0 0 0 0
724000000 0.828888773 -0.261096596 0.000279642 0.001253492 0 0 0 0
732000000 0.679030001 -0.5127424 0.000513717 0.001312811 0 0 0 0
740000000 0.441290199 -0.701952099 0.00078767 0.001269348 0 0 0 0
748000000 0.134426966 -0.793679535 0.000907991 0.000891604 0 0 0 0
756000000 -0.199279054 -0.746637821 0.00095284 0.00078688 0 0 0 0
764000000 -0.493622213 -0.540502607 0.000774764 0.000283669 0 0 0 0
772000000 -0.6558972 -0.181935653 0.000626426 0.000364205 0 0 0 0
780000000 -0.574238181 0.24131684 0.00036179 0.000285566 0 0 0 0
788000000 -0.206873446 0.53851509 -3.6275e-05 0.000238931 0 0 0 0
796000000 0.277202695 0.500513017 -0.000384609 0.000771963 0 0 0 0
804000000 0.585307002 0.128041043 -0.000493036 0.001445635 0 0 0 0
812000000 0.536581516 -0.319064408 0.000375176 0.002236159 0 0 0 0
820000000 0.239536494 -0.597475588 0.001748142 0.001989733 0 0 0 0
828000000 -0.136181771 -0.640498518 0.002386256 0.000984296 0 0 0 0
836000000 -0.446671307 -0.500014364 0.002831142 0.000147817 0 0 0 0
844000000 -0.642664253 -0.255245268 0.003316686 -0.001077604 0 0 0 0
852000000 -0.717947363 0.018767526 0.003952119 -0.002575886 0 0 0 0
860000000 -0.678860127 0.28769344 0.004161367 -0.004079223 0 0 0 0
868000000 -0.542006433 0.489970862 0.004138772 -0.006434729 0 0 0 0
876000000 -0.324940264 0.608838558 0.002211851 -0.009800966 0 0 0 0
884000000 -0.090571746 0.606736838 -0.002720314 -0.012757833 0 0 0 0
892000000 0.111596398 0.483585089 -0.01185127 -0.011555375 0 0 0 0
900000000 0.390727907 0.240949645 -0.022788217 -0.000530172 0 0 0 0
908000000 0.343484401 0.052871681 -0.018613526 0.018700636 0 0 0 0
916000000 0.192778483 -0.062272988 0.001076803 0.029256647 0 0 0 0
924000000 -0.010314618 -0.016866344 0.022459015 0.017755782 0 0 0 0
932000000 -0.077446289 0.200103968 0.025725549 -0.003997082 0 0 0 0
940000000 0.068126253 0.390406906 0.014338018 -0.016671812 0 0 0 0
948000000 0.335526168 0.411953657 0.001634557 -0.017991658 0 0 0 0
956000000 0.541078448 0.218335911 -0.006631325 -0.013380032 0 0 0 0
964000000 0.604101181 -0.034372057 -0.009553076 -0.006211058 0 0 0 0
972000000 0.525463879 -0.30622673 -0.009623043 -0.000928581 0 0 0 0
980000000 0.302534759 -0.491336941 -0.007171787 0.003028878 0 0 0 0
988000000 0.025814205 -0.566136479 -0.004891848 0.005042846 0 0 0 0
996000000 -0.266705155 -0.514955639 -0.002175302 0.004277098 0 0 0 0
1004000000 -0.499746918 -0.375079602 -0.002257471 0.003347767 0 0 0 0
