# Hz S RI R 50
700000000 0.76688975 0.527355194 0.00015876 0.000716242 0 0 0 0
708000000 0.86515671 0.282097876 2.5037e-05 0.000977355 0 0 0 0
716000000 0.894071698 0.012217407 0.000278232 0.001219591 0 0 0 0
724000000 0.832116425 -0.266533762 0.000573115 0.001162602 0 0 0 0
732000000 0.679905593 -0.511447191 0.000599456 0.001377099 0 0 0 0
740000000 0.442954182 -0.703431367 0.000750181 0.001054033 0 0 0 0
748000000 0.135101377 -0.795029997 0.00090293 0.001092695 0 0 0 0
756000000 -0.201074585 -0.749045252 0.0010344 0.000714055 0 0 0 0
764000000 -0.497811585 -0.539128661 0.000616498 0.000412501 0 0 0 0
772000000 -0.659489929 -0.179486662 0.000731139 0.000285799 0 0 0 0
780000000 -0.572737097 0.241901457 0.000191491 6.9048e-05 0 0 0 0
788000000 -0.210923686 0.536743521 -8.388e-05 0.000501079 0 0 0 0
796000000 0.275550603 0.497463554 -0.000486 0.001013751 0 0 0 0
804000000 0.58283931 0.131193891 -0.000225569 0.001609191 0 0 0 0
812000000 0.537475228 -0.320650219 0.000657211 0.001939348 0 0 0 0
820000000 0.239898353 -0.594562411 0.002055336 0.001741514 0 0 0 0
828000000 -0.136696904 -0.641231656 0.00251405 0.000759729 0 0 0 0
836000000 -0.446437358 -0.50345534 0.00298831 -0.000137723 0 0 0 0
844000000 -0.644333124 -0.264760047 0.003326782 -0.001513283 0 0 0 0
852000000 -0.718399882 0.017069049 0.003587755 -0.002858235 0 0 0 0
860000000 -0.683618009 0.279721915 0.003737943 -0.004403151 0 0 0 0
868000000 -0.546968042 0.489027887 0.003025966 -0.00689507 0 0 0 0
876000000 -0.331438452 0.610364794 0.001132112 -0.00971014 0 0 0 0
884000000 -0.090620614 0.615455985 -0.003772748 -0.011433154 0 0 0 0
892000000 0.117018103 0.493335723 -0.011673823 -0.009662747 0 0 0 0
900000000 0.393584549 0.248366311 -0.020665552 0.00087926 0 0 0 0
908000000 0.344377756 0.055486779 -0.01607453 0.017563953 0 0 0 0
916000000 0.195090547 -0.057648412 0.00185845 0.026656957 0 0 0 0
924000000 0.013322022 -0.022959476 0.021728536 0.016922011 0 0 0 0
932000000 -0.079069569 0.166607692 0.025888439 -0.004751631 0 0 0 0
940000000 0.053233489 0.380348742 0.01380475 -0.018125014 0 0 0 0
948000000 0.322016239 0.404494047 0.000430434 -0.018461318 0 0 0 0
956000000 0.537643253 0.248864531 -0.008453132 -0.012585449 0 0 0 0
964000000 0.606721103 -0.026002477 -0.010177183 -0.004493092 0 0 0 0
972000000 0.5189628 -0.284947276 -0.009078798 0.000587114 0 0 0 0
980000000 0.307033628 -0.482313275 -0.005512807 0.003043409 0 0 0 0
988000000 0.01615701 -0.560465514 -0.003456494 0.00360091 0 0 0 0
996000000 -0.267004668 -0.505429744 -0.002814803 0.002701457 0 0 0 0
1004000000 -0.495087772 -0.360704213 -0.002352976 0.002772383 0 0 0 0
