# Hz S RI R 50
700000000 0.769350051 0.529028594 5.0729e-05 0.000624794 0 0 0 0
708000000 0.863745629 0.283708572 -2.9702e-05 0.000836784 0 0 0 0
716000000 0.891005635 0.011620201 -0.000101804 0.001081456 0 0 0 0
724000000 0.826764643 -0.260326504 7.1953e-05 0.001495038 0 0 0 0
732000000 0.677482426 -0.512443542 0.000186874 0.001650639 0 0 0 0
740000000 0.440286844 -0.70173335 0.000547806 0.001495947 0 0 0 0
748000000 0.135099396 -0.791565895 0.001060439 0.001458574 0 0 0 0
756000000 -0.197947949 -0.744477272 0.001158683 0.001133544 0 0 0 0
764000000 -0.489340901 -0.536055564 0.001423913 0.001152586 0 0 0 0
772000000 -0.644057631 -0.183654487 0.001822582 0.00057898 0 0 0 0
780000000 -0.563547492 0.229913428 0.001941203 -0.000341862 0 0 0 0
788000000 -0.210818305 0.516362607 0.001344464 -0.001682779 0 0 0 0
796000000 0.26092559 0.47817856 -0.000469571 -0.002599888 0 0 0 0
804000000 0.556499421 0.130813807 -0.003590277 -0.001396379 0 0 0 0
812000000 0.517781138 -0.305579721 -0.004039513 0.002392722 0 0 0 0
820000000 0.233475059 -0.571464598 -0.001265047 0.00534482 0 0 0 0
828000000 -0.129687041 -0.617186427 0.001962037 0.005169455 0 0 0 0
836000000 -0.428452044 -0.480394333 0.004745352 0.004017237 0 0 0 0
844000000 -0.619670808 -0.251107096 0.007110399 0.001433312 0 0 0 0
852000000 -0.687481284 0.016927368 0.00867711 -0.001957734 0 0 0 0
860000000 -0.649006009 0.272937297 0.00931911 -0.005958455 0 0 0 0
868000000 -0.508950471 0.460808575 0.008155182 -0.01150193 0 0 0 0
876000000 -0.301451295 0.561763167 0.003379717 -0.018238494 0 0 0 0
884000000 -0.093919932 0.545014977 -0.008029628 -0.022114729 0 0 0 0
892000000 0.061042074 0.409527748 -0.024462407 -0.016411133 0 0 0 0
900000000 0.263988107 0.204571813 -0.036609079 0.009117328 0 0 0 0
908000000 0.191376104 0.136784076 -0.022451249 0.03666184 0 0 0 0
916000000 0.145157545 0.135885715 0.011702054 0.044338759 0 0 0 0
924000000 0.132414504 0.146609917 0.039823547 0.021646037 0 0 0 0
932000000 0.100999392 0.183031082 0.040403593 -0.014892225 0 0 0 0
940000000 0.147318229 0.286643505 0.014941298 -0.031432073 0 0 0 0
948000000 0.359760582 0.325331538 -0.005760251 -0.025225127 0 0 0 0
956000000 0.505424499 0.175235614 -0.012765351 -0.01456938 0 0 0 0
964000000 0.568277955 -0.057638414 -0.014343518 -0.004695431 0 0 0 0
972000000 0.483904421 -0.295659124 -0.012395611 0.001490973 0 0 0 0
980000000 0.274590998 -0.490692585 -0.006990761 0.005343308 0 0 0 0
988000000 -0.005131921 -0.542080819 -0.005214891 0.006177644 0 0 0 0
996000000 -0.276286989 -0.475181013 -0.002115026 0.005678771 0 0 0 0
1004000000 -0.511961042 -0.338791221 -0.00078442 0.00513779 0 0 0 0
