# Hz S RI R 50
700000000 0.768156111 0.529692232 7.5415e-05 0.000513055 0 0 0 0
708000000 0.865170121 0.283057242 -1.6842e-05 0.000765892 0 0 0 0
716000000 0.888062417 0.00921019 -0.000164633 0.001060738 0 0 0 0
724000000 0.826832294 -0.264121443 6.7765e-05 0.00130795 0 0 0 0
732000000 0.677288651 -0.512210488 0.000300137 0.001563314 0 0 0 0
740000000 0.440694332 -0.702286839 0.000737323 0.001723582 0 0 0 0
748000000 0.134456187 -0.788358807 0.001019203 0.001554865 0 0 0 0
756000000 -0.201026991 -0.746016144 0.001213404 0.001317315 0 0 0 0
764000000 -0.487652152 -0.53809148 0.001603547 0.001165344 0 0 0 0
772000000 -0.647800803 -0.182185411 0.002190899 0.000704935 0 0 0 0
780000000 -0.565868079 0.232502788 0.00239264 -0.000375063 0 0 0 0
788000000 -0.212838038 0.519233942 0.001785861 -0.002228119 0 0 0 0
796000000 0.263044446 0.485322833 -0.001000361 -0.003822204 0 0 0 0
804000000 0.560952126 0.131804257 -0.004746656 -0.001879597 0 0 0 0
812000000 0.519565761 -0.306411981 -0.00531478 0.003194304 0 0 0 0
820000000 0.231373101 -0.574596643 -0.001684085 0.006358611 0 0 0 0
828000000 -0.130531072 -0.617899775 0.002184995 0.00655335 0 0 0 0
836000000 -0.429749459 -0.483695387 0.005746541 0.004882598 0 0 0 0
844000000 -0.623434841 -0.247183069 0.008573858 0.001721957 0 0 0 0
852000000 -0.693488538 0.019936479 0.010222299 -0.002270541 0 0 0 0
860000000 -0.652467012 0.273899972 0.010429994 -0.007525927 0 0 0 0
868000000 -0.514882683 0.468993693 0.008513529 -0.014180554 0 0 0 0
876000000 -0.308789163 0.572884798 0.002051973 -0.020817181 0 0 0 0
884000000 -0.090365976 0.55324167 -0.011609614 -0.023533236 0 0 0 0
892000000 0.073242336 0.414276629 -0.028792988 -0.014138312 0 0 0 0
900000000 0.285641312 0.203500449 -0.037966609 0.013722268 0 0 0 0
908000000 0.203875109 0.113083258 -0.018771778 0.04114421 0 0 0 0
916000000 0.145011365 0.134023323 0.017288142 0.044643495 0 0 0 0
924000000 0.119171671 0.129081919 0.043794322 0.018448201 0 0 0 0
932000000 0.093402795 0.181274116 0.040416449 -0.018292341 0 0 0 0
940000000 0.131495103 0.291234105 0.013039197 -0.035236623 0 0 0 0
948000000 0.337193042 0.334773838 -0.008448276 -0.026899484 0 0 0 0
956000000 0.499321609 0.182381153 -0.015349969 -0.014430155 0 0 0 0
964000000 0.565459311 -0.039889179 -0.015842041 -0.003478919 0 0 0 0
972000000 0.484202951 -0.287402987 -0.013125144 0.003847506 0 0 0 0
980000000 0.279541581 -0.481904059 -0.007132362 0.006892201 0 0 0 0
988000000 0.007174592 -0.551064729 -0.004148187 0.007589211 0 0 0 0
996000000 -0.280136257 -0.483393549 -0.001481262 0.006469511 0 0 0 0
1004000000 -0.505682945 -0.341853737 2.9366e-05 0.005668629 0 0 0 0
