# Hz S RI R 50
700000000 0.765984296 0.528315782 2.5284e-05 0.000610337 0 0 0 0
708000000 0.867581903 0.283629417 -6.3891e-05 0.001049465 0 0 0 0
716000000 0.892056226 0.012351231 0.00012437 0.001227644 0 0 0 0
724000000 0.835126817 -0.262373507 0.000475016 0.001522596 0 0 0 0
732000000 0.680748641 -0.512903749 0.000675404 0.001462655 0 0 0 0
740000000 0.441003531 -0.705833137 0.000921954 0.001275385 0 0 0 0
748000000 0.133731484 -0.793982863 0.001082957 0.001116746 0 0 0 0
756000000 -0.201637655 -0.747239649 0.00123964 0.000764331 0 0 0 0
764000000 -0.4983581 -0.535892486 0.00134434 0.000722749 0 0 0 0
772000000 -0.654123902 -0.179372981 0.001216241 4.4318e-05 0 0 0 0
780000000 -0.569320559 0.244152411 0.001179093 -0.000525097 0 0 0 0
788000000 -0.204708784 0.536380112 0.000305224 -0.001225644 0 0 0 0
796000000 0.28011769 0.491263836 -0.001528654 -0.001160982 0 0 0 0
804000000 0.582076907 0.119451791 -0.002886412 0.000401595 0 0 0 0
812000000 0.528544723 -0.325276732 -0.002593537 0.003400321 0 0 0 0
820000000 0.226306676 -0.593543469 0.000260928 0.004785673 0 0 0 0
828000000 -0.145985931 -0.630850613 0.0029643 0.004237708 0 0 0 0
836000000 -0.446392923 -0.48594278 0.005019383 0.002650782 0 0 0 0
844000000 -0.637312471 -0.246741339 0.00707247 0.000209943 0 0 0 0
852000000 -0.70306611 0.02600645 0.008288943 -0.002879809 0 0 0 0
860000000 -0.66144073 0.284761846 0.008505851 -0.0067376 0 0 0 0
868000000 -0.520013749 0.479456245 0.007037741 -0.012322999 0 0 0 0
876000000 -0.305367588 0.586284399 0.001669107 -0.018232708 0 0 0 0
884000000 -0.087987646 0.571131229 -0.010030142 -0.021065454 0 0 0 0
892000000 0.091442994 0.445591062 -0.026053741 -0.01335967 0 0 0 0
900000000 0.328207343 0.232548519 -0.03556025 0.012043039 0 0 0 0
908000000 0.275813251 0.088751308 -0.017924366 0.039279423 0 0 0 0
916000000 0.169221103 0.033571891 0.018214419 0.042308114 0 0 0 0
924000000 0.065790399 0.04332339 0.042886421 0.014390323 0 0 0 0
932000000 -0.000599774 0.173382475 0.036372736 -0.020306024 0 0 0 0
940000000 0.087838925 0.351884365 0.008308058 -0.032657448 0 0 0 0
948000000 0.34461987 0.376710861 -0.009203477 -0.02259461 0 0 0 0
956000000 0.512285828 0.212808325 -0.013859914 -0.010792141 0 0 0 0
964000000 0.588891685 -0.038611147 -0.013591365 -0.001642444 0 0 0 0
972000000 0.507028937 -0.295737534 -0.010063386 0.003495776 0 0 0 0
980000000 0.29692316 -0.489491015 -0.005492758 0.005337206 0 0 0 0
988000000 0.012665515 -0.554840266 -0.003241199 0.005372244 0 0 0 0
996000000 -0.26567614 -0.509928643 -0.002122059 0.004045682 0 0 0 0
1004000000 -0.504024088 -0.359781593 -0.001356479 0.004221631 0 0 0 0
