# Hz S RI R 50
700000000 0.765552997 0.52710098 -1.0989e-05 0.00044195 0 0 0 0
708000000 0.863105297 0.284052252 -5.0128e-05 0.001013793 0 0 0 0
716000000 0.889446556 0.014243688 -0.000196422 0.000977116 0 0 0 0
724000000 0.82643646 -0.260035693 4.3635e-05 0.001575373 0 0 0 0
732000000 0.679567277 -0.512275397 0.00024552 0.001598154 0 0 0 0
740000000 0.441024541 -0.702195107 0.000781659 0.001668073 0 0 0 0
748000000 0.13599801 -0.789990484 0.000866422 0.001488993 0 0 0 0
756000000 -0.196427613 -0.744486987 0.001369658 0.001486465 0 0 0 0
764000000 -0.490015894 -0.538079857 0.00175416 0.001301916 0 0 0 0
772000000 -0.646596193 -0.180270642 0.00209913 0.000707891 0 0 0 0
780000000 -0.564388811 0.232475996 0.002382396 -0.000421458 0 0 0 0
788000000 -0.20979844 0.521483719 0.001597591 -0.002184208 0 0 0 0
796000000 0.261122435 0.483484327 -0.001219452 -0.003532103 0 0 0 0
804000000 0.561135411 0.126781985 -0.004922084 -0.001463026 0 0 0 0
812000000 0.520797729 -0.305477231 -0.005185858 0.003613925 0 0 0 0
820000000 0.230557814 -0.573955953 -0.001331336 0.00672701 0 0 0 0
828000000 -0.133630573 -0.618311643 0.002719161 0.006695406 0 0 0 0
836000000 -0.432281136 -0.481799513 0.006237586 0.004570774 0 0 0 0
844000000 -0.623446404 -0.244927704 0.008711776 0.001207758 0 0 0 0
852000000 -0.691692233 0.024492915 0.010096878 -0.003047662 0 0 0 0
860000000 -0.651963114 0.276064753 0.010069241 -0.008027338 0 0 0 0
868000000 -0.5099352 0.465481281 0.007690927 -0.014611509 0 0 0 0
876000000 -0.302973061 0.562265634 0.000586054 -0.020728746 0 0 0 0
884000000 -0.084704816 0.541015505 -0.01290343 -0.02248799 0 0 0 0
892000000 0.071255862 0.403330743 -0.029515637 -0.01243006 0 0 0 0
900000000 0.271177083 0.191347941 -0.035746663 0.016470305 0 0 0 0
908000000 0.183845564 0.120193131 -0.016182718 0.042293194 0 0 0 0
916000000 0.131922334 0.131612107 0.020468415 0.043593123 0 0 0 0
924000000 0.121980555 0.145723193 0.044944982 0.014902561 0 0 0 0
932000000 0.097100235 0.182807773 0.039643 -0.021294631 0 0 0 0
940000000 0.14470373 0.293349087 0.009706773 -0.035274799 0 0 0 0
948000000 0.353122651 0.323181152 -0.010273045 -0.025223597 0 0 0 0
956000000 0.508208274 0.17200756 -0.015867194 -0.012830964 0 0 0 0
964000000 0.568211913 -0.06287714 -0.016272002 -0.002109958 0 0 0 0
972000000 0.478004366 -0.300818979 -0.012509318 0.004259128 0 0 0 0
980000000 0.271136075 -0.487429827 -0.006624427 0.007353195 0 0 0 0
988000000 -0.009589205 -0.557052791 -0.003294789 0.008061241 0 0 0 0
996000000 -0.291329234 -0.488109737 -0.001119739 0.006365736 0 0 0 0
1004000000 -0.496485024 -0.351547449 -1.677e-06 0.004349471 0 0 0 0
