# Hz S RI R 50
700000000 0.763638198 0.528812468 -6.957e-06 0.000711677 0 0 0 0
708000000 0.865852832 0.282824307 -2.9262e-05 0.000834344 0 0 0 0
716000000 0.890135943 0.013551003 -7.446e-05 0.001168132 0 0 0 0
724000000 0.832983016 -0.259221851 0.000149349 0.001408582 0 0 0 0
732000000 0.680739998 -0.510144591 0.00057813 0.001388957 0 0 0 0
740000000 0.439400374 -0.701158225 0.000704659 0.001452755 0 0 0 0
748000000 0.135851278 -0.790830075 0.001273855 0.001333239 0 0 0 0
756000000 -0.196262374 -0.743335306 0.001372331 0.000739566 0 0 0 0
764000000 -0.489708125 -0.533729791 0.001369509 0.000849055 0 0 0 0
772000000 -0.645356774 -0.182914718 0.001470852 0.00019457 0 0 0 0
780000000 -0.559044957 0.235555797 0.001222635 -0.000581063 0 0 0 0
788000000 -0.196059018 0.521812498 0.000571006 -0.001506094 0 0 0 0
796000000 0.273600161 0.469655901 -0.001555367 -0.001713358 0 0 0 0
804000000 0.556128859 0.107759654 -0.003747446 0.000247131 0 0 0 0
812000000 0.500194907 -0.317977339 -0.003343724 0.003667837 0 0 0 0
820000000 0.207804247 -0.573434174 -0.000102457 0.005714429 0 0 0 0
828000000 -0.151761308 -0.602199733 0.002997116 0.005336709 0 0 0 0
836000000 -0.438726007 -0.459636032 0.005823005 0.003678498 0 0 0 0
844000000 -0.615566611 -0.223732739 0.007882309 0.000742967 0 0 0 0
852000000 -0.674141347 0.040986783 0.00948262 -0.003101964 0 0 0 0
860000000 -0.625527501 0.277749121 0.009656261 -0.00761096 0 0 0 0
868000000 -0.483918517 0.454487711 0.007481424 -0.013858896 0 0 0 0
876000000 -0.283840477 0.535761117 0.000847702 -0.020046597 0 0 0 0
884000000 -0.094696924 0.503751277 -0.011773137 -0.021959237 0 0 0 0
892000000 0.038261964 0.381574571 -0.027942469 -0.012887387 0 0 0 0
900000000 0.241243153 0.199384391 -0.036085698 0.014275187 0 0 0 0
908000000 0.181421935 0.14048618 -0.018268676 0.041252072 0 0 0 0
916000000 0.140366539 0.141131758 0.018918052 0.044297669 0 0 0 0
924000000 0.107664443 0.146906509 0.046252321 0.015161469 0 0 0 0
932000000 0.086583934 0.208502694 0.037012763 -0.023768313 0 0 0 0
940000000 0.157915756 0.324071049 0.007476197 -0.032648529 0 0 0 0
948000000 0.375674545 0.332829028 -0.00905295 -0.022348636 0 0 0 0
956000000 0.524985611 0.162885546 -0.012214899 -0.011293508 0 0 0 0
964000000 0.56749463 -0.074950709 -0.013149121 -0.002850216 0 0 0 0
972000000 0.470138221 -0.316994816 -0.010868525 0.003027759 0 0 0 0
980000000 0.258797019 -0.49024412 -0.006601514 0.006067394 0 0 0 0
988000000 -0.00366042 -0.550320804 -0.003332632 0.006263936 0 0 0 0
996000000 -0.280907869 -0.487437248 -0.001277955 0.004788674 0 0 0 0
1004000000 -0.509653389 -0.330325216 -0.001067606 0.004132618 0 0 0 0
