# Hz S RI R 50
700000000 0.764321565 0.526396095 -4.563e-06 0.000689855 0 0 0 0
708000000 0.865705311 0.280984848 -6.924e-05 0.000952523 0 0 0 0
716000000 0.888116836 0.0090488 0.000253111 0.001165078 0 0 0 0
724000000 0.830216526 -0.266540586 0.00040242 0.00137972 0 0 0 0
732000000 0.676619231 -0.513718307 0.000497336 0.001317023 0 0 0 0
740000000 0.436919182 -0.70309621 0.000713235 0.001506393 0 0 0 0
748000000 0.131455525 -0.791623353 0.001273964 0.001227841 0 0 0 0
756000000 -0.204811379 -0.740829169 0.001212847 0.000802117 0 0 0 0
764000000 -0.495654195 -0.52706778 0.001215691 0.000643115 0 0 0 0
772000000 -0.645592153 -0.166247412 0.001578346 0.00024866 0 0 0 0
780000000 -0.547045767 0.248550251 0.001374806 -0.000662663 0 0 0 0
788000000 -0.177889987 0.520273804 0.000282851 -0.001481034 0 0 0 0
796000000 0.288112521 0.454557746 -0.0015985 -0.001509217 0 0 0 0
804000000 0.559767723 0.078127779 -0.003721579 0.000220928 0 0 0 0
812000000 0.481606632 -0.339468955 -0.00313967 0.003781053 0 0 0 0
820000000 0.182278126 -0.580381035 8.8946e-05 0.005452326 0 0 0 0
828000000 -0.174385786 -0.59339565 0.002953335 0.005142561 0 0 0 0
836000000 -0.452131122 -0.440783917 0.005842762 0.003337353 0 0 0 0
844000000 -0.617003798 -0.197669938 0.007969374 0.000578931 0 0 0 0
852000000 -0.665694892 0.062285978 0.009507469 -0.003336021 0 0 0 0
860000000 -0.604393661 0.297719657 0.009226627 -0.008044783 0 0 0 0
868000000 -0.453253179 0.461747646 0.006982791 -0.014009967 0 0 0 0
876000000 -0.255293995 0.525469064 0.000304148 -0.019960198 0 0 0 0
884000000 -0.072828285 0.477799117 -0.012560707 -0.021353924 0 0 0 0
892000000 0.03816916 0.345424115 -0.028179515 -0.011898822 0 0 0 0
900000000 0.22143884 0.189259186 -0.03642055 0.014804846 0 0 0 0
908000000 0.153884842 0.129096478 -0.01649424 0.0412197 0 0 0 0
916000000 0.106982916 0.138777151 0.020346418 0.043387886 0 0 0 0
924000000 0.078667841 0.171930417 0.045803118 0.012446926 0 0 0 0
932000000 0.078914985 0.264036238 0.035356063 -0.024740578 0 0 0 0
940000000 0.194978728 0.369600325 0.005945803 -0.032375838 0 0 0 0
948000000 0.423419207 0.33983758 -0.010008935 -0.020734505 0 0 0 0
956000000 0.549569964 0.130948111 -0.013140786 -0.010149866 0 0 0 0
964000000 0.575760066 -0.113083109 -0.012096307 -0.001973132 0 0 0 0
972000000 0.469359636 -0.337017267 -0.009785801 0.002797931 0 0 0 0
980000000 0.243479192 -0.507915496 -0.005065156 0.00507014 0 0 0 0
988000000 -0.020192144 -0.546776533 -0.003211917 0.005522691 0 0 0 0
996000000 -0.299990236 -0.481452554 -0.001701471 0.004168203 0 0 0 0
1004000000 -0.520742952 -0.318348079 -0.001435134 0.003868703 0 0 0 0
