# Hz S RI R 50
700000000 0.765847682 0.53360033 5.6046e-05 0.000677721 0 0 0 0
708000000 0.866212368 0.282525718 -1.9072e-05 0.000862613 0 0 0 0
716000000 0.889545798 0.014423221 4.0346e-05 0.001193027 0 0 0 0
724000000 0.832969188 -0.263875186 0.000361349 0.001472145 0 0 0 0
732000000 0.681679129 -0.510803639 0.000687843 0.001551552 0 0 0 0
740000000 0.443446099 -0.702068567 0.000748547 0.001404362 0 0 0 0
748000000 0.138911291 -0.794321358 0.000940138 0.00111664 0 0 0 0
756000000 -0.196377381 -0.747394979 0.001199647 0.00101617 0 0 0 0
764000000 -0.489730089 -0.54205513 0.001280807 0.000492471 0 0 0 0
772000000 -0.647113859 -0.188535973 0.001462314 0.000135679 0 0 0 0
780000000 -0.570430278 0.232530996 0.001327301 -0.00056707 0 0 0 0
788000000 -0.215848788 0.523139417 0.000242285 -0.001406125 0 0 0 0
796000000 0.261709868 0.488696068 -0.00142283 -0.001607629 0 0 0 0
804000000 0.564674258 0.13619031 -0.003663501 0.000284024 0 0 0 0
812000000 0.525058507 -0.305825203 -0.003111643 0.003830152 0 0 0 0
820000000 0.234899878 -0.575251102 0.000239888 0.005522302 0 0 0 0
828000000 -0.132195711 -0.620041251 0.003121871 0.004795127 0 0 0 0
836000000 -0.430871725 -0.481586903 0.005667704 0.003164936 0 0 0 0
844000000 -0.624054133 -0.247029379 0.007816733 0.000515263 0 0 0 0
852000000 -0.691526412 0.019692419 0.009047985 -0.003002498 0 0 0 0
860000000 -0.648248136 0.275065541 0.009206545 -0.007402291 0 0 0 0
868000000 -0.516899228 0.462998956 0.007348047 -0.013292914 0 0 0 0
876000000 -0.310659199 0.562134087 0.001180954 -0.019385777 0 0 0 0
884000000 -0.102749623 0.548687636 -0.01121484 -0.021478336 0 0 0 0
892000000 0.057822383 0.421540766 -0.027215842 -0.01349262 0 0 0 0
900000000 0.280722647 0.228208392 -0.037015523 0.012666914 0 0 0 0
908000000 0.224966794 0.126124069 -0.019017534 0.040848303 0 0 0 0
916000000 0.164721459 0.108859747 0.018850117 0.044683888 0 0 0 0
924000000 0.12703225 0.101836025 0.044841531 0.01438853 0 0 0 0
932000000 0.06662669 0.167763605 0.03560904 -0.022099476 0 0 0 0
940000000 0.117344431 0.311351031 0.007652902 -0.03137901 0 0 0 0
948000000 0.351759582 0.347564399 -0.00846581 -0.022731548 0 0 0 0
956000000 0.50383991 0.195891797 -0.013138344 -0.012016741 0 0 0 0
964000000 0.577964067 -0.052289362 -0.013384313 -0.002909731 0 0 0 0
972000000 0.496202707 -0.302989751 -0.010954834 0.002337597 0 0 0 0
980000000 0.282520562 -0.494661122 -0.006475996 0.005242575 0 0 0 0
988000000 0.001466471 -0.559475362 -0.003576948 0.005748273 0 0 0 0
996000000 -0.280528932 -0.500753343 -0.001605735 0.004929737 0 0 0 0
1004000000 -0.50215137 -0.347311913 -0.001426839 0.004269029 0 0 0 0
