# Hz S RI R 50
700000000 0.763505518 0.528157651 3.1512e-05 0.000716656 0 0 0 0
708000000 0.865440547 0.283920556 5.9713e-05 0.001010125 0 0 0 0
716000000 0.889018714 0.009110013 5.0001e-05 0.001303733 0 0 0 0
724000000 0.827782511 -0.257118463 0.000278935 0.001536273 0 0 0 0
732000000 0.678176105 -0.512729227 0.000373341 0.001482552 0 0 0 0
740000000 0.437028348 -0.701638996 0.000811666 0.00125051 0 0 0 0
748000000 0.130775868 -0.789482295 0.001168917 0.001329693 0 0 0 0
756000000 -0.201270073 -0.738656282 0.001220896 0.001126024 0 0 0 0
764000000 -0.49556443 -0.526665449 0.00149391 0.00076033 0 0 0 0
772000000 -0.643579363 -0.167961448 0.001389209 0.000128345 0 0 0 0
780000000 -0.548476099 0.249303758 0.001322412 -0.000526383 0 0 0 0
788000000 -0.175673559 0.519244194 0.000521631 -0.00150434 0 0 0 0
796000000 0.292291641 0.449342608 -0.001534761 -0.001684433 0 0 0 0
804000000 0.553812503 0.076968826 -0.003689559 -1.5436e-05 0 0 0 0
812000000 0.474635958 -0.342049509 -0.003343353 0.003542504 0 0 0 0
820000000 0.171676531 -0.570673108 -0.000106309 0.005402591 0 0 0 0
828000000 -0.178363844 -0.579850792 0.002617785 0.005281907 0 0 0 0
836000000 -0.451019167 -0.425916969 0.005478652 0.003957851 0 0 0 0
844000000 -0.609042763 -0.18651168 0.00808181 0.000831114 0 0 0 0
852000000 -0.650909006 0.069930769 0.009437389 -0.00279531 0 0 0 0
860000000 -0.586676955 0.298938691 0.009810502 -0.007493868 0 0 0 0
868000000 -0.436850696 0.452911108 0.007699329 -0.014011522 0 0 0 0
876000000 -0.247686758 0.501502096 0.00104416 -0.020234089 0 0 0 0
884000000 -0.078847967 0.454904943 -0.012329366 -0.022045068 0 0 0 0
892000000 0.012847862 0.334487587 -0.028052721 -0.012517 0 0 0 0
900000000 0.198238804 0.19341214 -0.036190547 0.014045323 0 0 0 0
908000000 0.137364134 0.15269342 -0.017437405 0.040017511 0 0 0 0
916000000 0.100016772 0.151372551 0.019215259 0.04248939 0 0 0 0
924000000 0.06846363 0.180083751 0.043467063 0.013231289 0 0 0 0
932000000 0.083734296 0.283781558 0.033788502 -0.021406512 0 0 0 0
940000000 0.227157726 0.371769726 0.007468731 -0.029378542 0 0 0 0
948000000 0.445359706 0.317905187 -0.007046969 -0.020403295 0 0 0 0
956000000 0.571800351 0.1324272 -0.011368234 -0.011804793 0 0 0 0
964000000 0.580773591 -0.128657713 -0.012380544 -0.003689607 0 0 0 0
972000000 0.458765 -0.352903753 -0.010222891 0.002046874 0 0 0 0
980000000 0.247631996 -0.51425606 -0.006738189 0.004738599 0 0 0 0
988000000 -0.02799125 -0.561340034 -0.003775414 0.00523183 0 0 0 0
996000000 -0.302752882 -0.490616708 -0.002005173 0.00456407 0 0 0 0
1004000000 -0.515091657 -0.321484237 -0.001367391 0.004739239 0 0 0 0
