# Hz S RI R 50
700000000 0.764798998 0.524730145 -7.3622e-05 0.000554359 0 0 0 0
708000000 0.864589393 0.28204748 -2.6893e-05 0.001094599 0 0 0 0
716000000 0.887116611 0.012516466 4.94e-07 0.001129372 0 0 0 0
724000000 0.831787168 -0.263539403 0.000348288 0.001563541 0 0 0 0
732000000 0.67898184 -0.512019574 0.000457856 0.001682688 0 0 0 0
740000000 0.439852893 -0.702179789 0.000661483 0.001453052 0 0 0 0
748000000 0.133232265 -0.791802167 0.000875525 0.001267564 0 0 0 0
756000000 -0.203284367 -0.740909099 0.001085061 0.001187036 0 0 0 0
764000000 -0.497590243 -0.532665967 0.0013467 0.00085097 0 0 0 0
772000000 -0.649676203 -0.167595282 0.001605402 0.000295017 0 0 0 0
780000000 -0.5579952 0.248872682 0.001600086 -0.00075828 0 0 0 0
788000000 -0.18899247 0.530629456 0.000627351 -0.002160251 0 0 0 0
796000000 0.29211983 0.471380919 -0.00189596 -0.002758183 0 0 0 0
804000000 0.572432518 0.093424692 -0.005117114 -0.000366035 0 0 0 0
812000000 0.504433512 -0.341477394 -0.004427948 0.004110784 0 0 0 0
820000000 0.201591789 -0.591118097 -0.000545571 0.00685744 0 0 0 0
828000000 -0.161458328 -0.615339398 0.003694729 0.006618656 0 0 0 0
836000000 -0.45356357 -0.465064436 0.007107315 0.004514526 0 0 0 0
844000000 -0.630542993 -0.222010061 0.009818008 0.000882488 0 0 0 0
852000000 -0.689722657 0.043498191 0.011355793 -0.003921958 0 0 0 0
860000000 -0.639550209 0.297071188 0.010834897 -0.009692787 0 0 0 0
868000000 -0.488175153 0.48015511 0.007328682 -0.016808407 0 0 0 0
876000000 -0.283810049 0.569702625 -0.001779815 -0.023004231 0 0 0 0
884000000 -0.067837782 0.544549942 -0.017300589 -0.022629598 0 0 0 0
892000000 0.092402271 0.410521775 -0.033467322 -0.00839783 0 0 0 0
900000000 0.295448929 0.184521287 -0.035449177 0.022639991 0 0 0 0
908000000 0.219572305 0.074564151 -0.008402253 0.045719429 0 0 0 0
916000000 0.121912665 0.049963451 0.028069138 0.037742882 0 0 0 0
924000000 0.034820053 0.102841526 0.044253911 0.005354946 0 0 0 0
932000000 0.005924233 0.238833755 0.031560182 -0.025493018 0 0 0 0
940000000 0.138375282 0.376819282 0.004373239 -0.031265992 0 0 0 0
948000000 0.388152867 0.359835475 -0.01089925 -0.020323662 0 0 0 0
956000000 0.548247873 0.18552111 -0.01408726 -0.009339003 0 0 0 0
964000000 0.582324385 -0.066118583 -0.012663654 -0.001624059 0 0 0 0
972000000 0.497305333 -0.309302002 -0.009629157 0.003458203 0 0 0 0
980000000 0.282073408 -0.498840779 -0.005129454 0.005489559 0 0 0 0
988000000 0.00479015 -0.556206941 -0.002812041 0.005738699 0 0 0 0
996000000 -0.280950307 -0.49510312 -0.0015524 0.004231236 0 0 0 0
1004000000 -0.496111631 -0.349702745 -0.000816208 0.004159516 0 0 0 0
