# Hz S RI R 50
700000000 0.765562117 0.529107868 5.1059e-05 0.000638445 0 0 0 0
708000000 0.863659918 0.284921258 9.8152e-05 0.000995192 0 0 0 0
716000000 0.888935863 0.012812944 -2.7774e-05 0.001286902 0 0 0 0
724000000 0.831851661 -0.261833757 0.000273359 0.001424739 0 0 0 0
732000000 0.680288612 -0.51002413 0.000671705 0.00150523 0 0 0 0
740000000 0.440705507 -0.70051676 0.000923631 0.001451453 0 0 0 0
748000000 0.137464955 -0.793129503 0.001030761 0.000887056 0 0 0 0
756000000 -0.200595855 -0.745192229 0.001211001 0.000515859 0 0 0 0
764000000 -0.494195967 -0.539493381 0.001129157 0.00049107 0 0 0 0
772000000 -0.651125669 -0.176782235 0.000963136 2.6164e-05 0 0 0 0
780000000 -0.568747818 0.243033692 0.000711141 -0.000634215 0 0 0 0
788000000 -0.202890813 0.531952381 -0.000467071 -0.000881931 0 0 0 0
796000000 0.28077054 0.484597653 -0.001684081 -0.000300761 0 0 0 0
804000000 0.57661271 0.11682634 -0.002691457 0.001945252 0 0 0 0
812000000 0.520213305 -0.327361017 -0.00113005 0.004291043 0 0 0 0
820000000 0.221858054 -0.589017331 0.001819153 0.004806939 0 0 0 0
828000000 -0.148437514 -0.624847769 0.003826757 0.003402977 0 0 0 0
836000000 -0.445658475 -0.483228653 0.005588551 0.001477143 0 0 0 0
844000000 -0.634990632 -0.243251234 0.007167467 -0.001226959 0 0 0 0
852000000 -0.701746284 0.027552301 0.007873969 -0.004250065 0 0 0 0
860000000 -0.65848124 0.285641252 0.007245293 -0.008205771 0 0 0 0
868000000 -0.516569614 0.478985071 0.004649316 -0.013250843 0 0 0 0
876000000 -0.308855056 0.583658039 -0.00168582 -0.017782462 0 0 0 0
884000000 -0.091632679 0.575946807 -0.013267138 -0.017977565 0 0 0 0
892000000 0.091317012 0.448852509 -0.026798948 -0.007942935 0 0 0 0
900000000 0.338114202 0.239158704 -0.031299475 0.017882309 0 0 0 0
908000000 0.285590767 0.088031016 -0.009386054 0.039832752 0 0 0 0
916000000 0.178002476 0.017190368 0.025092102 0.035250831 0 0 0 0
924000000 0.040847562 0.034664452 0.041946377 0.003330026 0 0 0 0
932000000 -0.028250113 0.176719069 0.026755971 -0.025125714 0 0 0 0
940000000 0.085802964 0.36793664 0.00179972 -0.028363928 0 0 0 0
948000000 0.341029763 0.386150538 -0.010616911 -0.017143731 0 0 0 0
956000000 0.529836237 0.211772918 -0.012968575 -0.007094133 0 0 0 0
964000000 0.584416091 -0.035155095 -0.011181254 0.0003183 0 0 0 0
972000000 0.500666439 -0.292468875 -0.008043766 0.003744307 0 0 0 0
980000000 0.298910468 -0.494431614 -0.003800776 0.005089489 0 0 0 0
988000000 0.017740791 -0.559426426 -0.001755794 0.004235687 0 0 0 0
996000000 -0.256816625 -0.511420965 -0.000769082 0.00306003 0 0 0 0
1004000000 -0.495631724 -0.362243831 -0.000725483 0.002619396 0 0 0 0
