# Hz S RI R 50
700000000 0.765097618 0.5242877 7.1498e-05 0.000561737 0 0 0 0
708000000 0.864285051 0.28366512 -8.254e-06 0.000930901 0 0 0 0
716000000 0.891302943 0.013808413 5.2822e-05 0.001153276 0 0 0 0
724000000 0.832277297 -0.25679177 0.000363484 0.001541839 0 0 0 0
732000000 0.67852956 -0.512861132 0.000617396 0.001433294 0 0 0 0
740000000 0.444878131 -0.701908409 0.000783471 0.00142037 0 0 0 0
748000000 0.135925889 -0.79217118 0.000999631 0.000950163 0 0 0 0
756000000 -0.199710875 -0.746383726 0.001073962 0.00071985 0 0 0 0
764000000 -0.491977393 -0.536940574 0.001227995 0.000386758 0 0 0 0
772000000 -0.652287483 -0.181078046 0.00122452 9.4681e-05 0 0 0 0
780000000 -0.566609144 0.238713353 0.000982094 -0.000468997 0 0 0 0
788000000 -0.199828773 0.531589567 0.000206682 -0.001365946 0 0 0 0
796000000 0.281977236 0.482953876 -0.00177122 -0.001319304 0 0 0 0
804000000 0.573629617 0.113824822 -0.003289477 0.00082051 0 0 0 0
812000000 0.52084577 -0.324020177 -0.002709653 0.003777616 0 0 0 0
820000000 0.220055118 -0.588026821 0.000585254 0.005537591 0 0 0 0
828000000 -0.143748894 -0.625288248 0.003710748 0.004871278 0 0 0 0
836000000 -0.446907162 -0.483291149 0.006083818 0.002857941 0 0 0 0
844000000 -0.635031223 -0.240522995 0.008070325 -8.9914e-05 0 0 0 0
852000000 -0.702589094 0.027256468 0.008919093 -0.003909913 0 0 0 0
860000000 -0.662162423 0.284102022 0.008600228 -0.008405805 0 0 0 0
868000000 -0.521662414 0.476013362 0.006134634 -0.014177233 0 0 0 0
876000000 -0.313317626 0.58312577 -0.000643017 -0.019420068 0 0 0 0
884000000 -0.089848071 0.577035844 -0.013177176 -0.020549666 0 0 0 0
892000000 0.092039488 0.456739425 -0.028467647 -0.010421091 0 0 0 0
900000000 0.347515463 0.224142685 -0.034069795 0.016784125 0 0 0 0
908000000 0.290390193 0.079945489 -0.012740054 0.042426485 0 0 0 0
916000000 0.167621508 0.012359751 0.024133304 0.040009841 0 0 0 0
924000000 0.041717473 0.026840485 0.04442171 0.00768934 0 0 0 0
932000000 -0.027702618 0.186817198 0.032080128 -0.024785798 0 0 0 0
940000000 0.0811337 0.366304069 0.004726075 -0.031562607 0 0 0 0
948000000 0.346362948 0.396220803 -0.010683852 -0.020001845 0 0 0 0
956000000 0.53215897 0.216212749 -0.013239119 -0.009073556 0 0 0 0
964000000 0.598189532 -0.035777784 -0.012353427 -0.000293859 0 0 0 0
972000000 0.501376807 -0.285548835 -0.009023533 0.003795013 0 0 0 0
980000000 0.312399774 -0.493763774 -0.004619874 0.005427923 0 0 0 0
988000000 0.021515591 -0.563651323 -0.002419773 0.00470578 0 0 0 0
996000000 -0.260159164 -0.508660197 -0.000718642 0.003741058 0 0 0 0
1004000000 -0.49488604 -0.370735406 -0.001027817 0.003394422 0 0 0 0
