# Hz S RI R 50
700000000 0.76531732 0.530660688 -2.88e-07 0.000742872 0 0 0 0
708000000 0.864286363 0.282770782 5.8972e-05 0.000931172 0 0 0 0
716000000 0.889289677 0.012906865 0.000108881 0.00123306 0 0 0 0
724000000 0.833079993 -0.262469738 0.000125927 0.001330704 0 0 0 0
732000000 0.677677392 -0.513252377 0.000701936 0.001383601 0 0 0 0
740000000 0.439792782 -0.701329588 0.00087658 0.0012782 0 0 0 0
748000000 0.131802335 -0.793413341 0.001177742 0.001020974 0 0 0 0
756000000 -0.203092291 -0.743656039 0.001122146 0.000945794 0 0 0 0
764000000 -0.497301101 -0.531955897 0.001172946 0.000710416 0 0 0 0
772000000 -0.654434025 -0.172395408 0.001287471 0.000156467 0 0 0 0
780000000 -0.560802996 0.249309197 0.001186877 -0.000556121 0 0 0 0
788000000 -0.190891504 0.538645386 0.000147194 -0.001277641 0 0 0 0
796000000 0.293916881 0.477359652 -0.001965251 -0.001495909 0 0 0 0
804000000 0.581350207 0.100637003 -0.003693456 0.000985819 0 0 0 0
812000000 0.515404045 -0.342566341 -0.002488304 0.004132607 0 0 0 0
820000000 0.206715717 -0.593710601 0.000765022 0.005675972 0 0 0 0
828000000 -0.161197081 -0.62446922 0.003647482 0.004542071 0 0 0 0
836000000 -0.458560556 -0.472774863 0.006153244 0.002699611 0 0 0 0
844000000 -0.640779018 -0.228857949 0.007996711 -0.000431881 0 0 0 0
852000000 -0.701067745 0.042683955 0.009015483 -0.004153357 0 0 0 0
860000000 -0.655865609 0.2998631 0.008527949 -0.008823392 0 0 0 0
868000000 -0.502600252 0.494359523 0.005739665 -0.014387277 0 0 0 0
876000000 -0.289092153 0.59227997 -0.00123645 -0.019672507 0 0 0 0
884000000 -0.065047964 0.567461252 -0.014557092 -0.019918823 0 0 0 0
892000000 0.114643819 0.427853941 -0.029212823 -0.008376761 0 0 0 0
900000000 0.340923458 0.183606803 -0.03181241 0.020756347 0 0 0 0
908000000 0.254550635 0.053194772 -0.008260786 0.042069319 0 0 0 0
916000000 0.124778382 0.000990852 0.026554813 0.035318221 0 0 0 0
924000000 -0.007488886 0.070539034 0.041039627 0.003847497 0 0 0 0
932000000 -0.020127004 0.250137627 0.028205744 -0.024523833 0 0 0 0
940000000 0.128629907 0.402188658 0.003132864 -0.029202342 0 0 0 0
948000000 0.377955555 0.380595177 -0.011184055 -0.018199581 0 0 0 0
956000000 0.560046553 0.196944147 -0.013138549 -0.007918714 0 0 0 0
964000000 0.588805198 -0.06232379 -0.010890323 -2.8967e-05 0 0 0 0
972000000 0.501373529 -0.303333759 -0.008729581 0.003460831 0 0 0 0
980000000 0.301039427 -0.50042355 -0.004411643 0.005196055 0 0 0 0
988000000 0.017922805 -0.561630725 -0.00261431 0.00542012 0 0 0 0
996000000 -0.284359097 -0.497574299 -0.001746664 0.003750761 0 0 0 0
1004000000 -0.501346111 -0.356481552 -0.001132021 0.00297708 0 0 0 0
