# Hz S RI R 50
700000000 0.76855731 0.52675265 0.000101505 0.000545315 0 0 0 0
708000000 0.862073421 0.284046679 -2.7326e-05 0.001224328 0 0 0 0
716000000 0.886742115 0.012561883 6.201e-05 0.001291074 0 0 0 0
724000000 0.825324118 -0.261293143 0.000305904 0.001528154 0 0 0 0
732000000 0.681002199 -0.509072482 0.000726002 0.0013056 0 0 0 0
740000000 0.442732036 -0.705464541 0.000869931 0.00138069 0 0 0 0
748000000 0.132615327 -0.794344186 0.001018959 0.001220897 0 0 0 0
756000000 -0.201335206 -0.74417448 0.00120337 0.000900458 0 0 0 0
764000000 -0.495255708 -0.536623299 0.001225143 0.000762553 0 0 0 0
772000000 -0.651925921 -0.177483454 0.001294107 -3.6414e-05 0 0 0 0
780000000 -0.565116286 0.245606347 0.001003137 -0.000792942 0 0 0 0
788000000 -0.197358742 0.534975469 -8.6513e-05 -0.001405097 0 0 0 0
796000000 0.287055671 0.483490228 -0.002090422 -0.001165908 0 0 0 0
804000000 0.581854045 0.106489196 -0.003798177 0.001175357 0 0 0 0
812000000 0.521527051 -0.330861032 -0.002207727 0.004465767 0 0 0 0
820000000 0.219522163 -0.597017824 0.001106939 0.005489909 0 0 0 0
828000000 -0.154724866 -0.630768954 0.003828218 0.004482674 0 0 0 0
836000000 -0.452696591 -0.479160249 0.006196244 0.0023916 0 0 0 0
844000000 -0.641181707 -0.235330477 0.007985775 -0.000536885 0 0 0 0
852000000 -0.707643687 0.03901977 0.008999684 -0.004235989 0 0 0 0
860000000 -0.664564788 0.295833468 0.008367361 -0.008855745 0 0 0 0
868000000 -0.516293048 0.490527421 0.005338761 -0.014352288 0 0 0 0
876000000 -0.302179247 0.59949547 -0.00167994 -0.019542252 0 0 0 0
884000000 -0.07134933 0.579081237 -0.01467907 -0.019619585 0 0 0 0
892000000 0.120290882 0.44331628 -0.029219496 -0.007838777 0 0 0 0
900000000 0.355386525 0.205141812 -0.032580368 0.020959172 0 0 0 0
908000000 0.277256458 0.052447523 -0.007410127 0.042339246 0 0 0 0
916000000 0.139641344 -0.000728731 0.027249436 0.034216776 0 0 0 0
924000000 0.002365479 0.046810392 0.040706407 0.002735452 0 0 0 0
932000000 -0.028386777 0.213756129 0.027011184 -0.024767877 0 0 0 0
940000000 0.108891271 0.38285914 0.001946008 -0.028807226 0 0 0 0
948000000 0.363037288 0.392126232 -0.011017396 -0.017195738 0 0 0 0
956000000 0.531693935 0.206632226 -0.012124313 -0.006775454 0 0 0 0
964000000 0.594378054 -0.047319885 -0.011189805 -0.000571505 0 0 0 0
972000000 0.509392559 -0.296301275 -0.008400123 0.003019944 0 0 0 0
980000000 0.29700151 -0.493620932 -0.004295677 0.004185722 0 0 0 0
988000000 0.015933031 -0.556992948 -0.002043019 0.004404513 0 0 0 0
996000000 -0.268966734 -0.511307001 -0.001364308 0.003398673 0 0 0 0
1004000000 -0.49356693 -0.350500971 -0.000833806 0.003065265 0 0 0 0
