# Hz S RI R 50
700000000 0.763406634 0.529789626 6.5055e-05 0.000629699 0 0 0 0
708000000 0.866222023 0.286440342 -4.6832e-05 0.001046087 0 0 0 0
716000000 0.893177032 0.015072634 7.849e-06 0.001246842 0 0 0 0
724000000 0.833666861 -0.257873803 0.000170279 0.001332703 0 0 0 0
732000000 0.680275857 -0.512745857 0.000424227 0.001446825 0 0 0 0
740000000 0.443114489 -0.702660977 0.000631443 0.001396973 0 0 0 0
748000000 0.133662179 -0.793084561 0.001038965 0.001225084 0 0 0 0
756000000 -0.1988402 -0.744101643 0.001236953 0.001270225 0 0 0 0
764000000 -0.494059413 -0.535756945 0.00141168 0.001012824 0 0 0 0
772000000 -0.649153411 -0.178203299 0.001684996 0.000707471 0 0 0 0
780000000 -0.565270721 0.240290507 0.001843685 -0.000515757 0 0 0 0
788000000 -0.205018863 0.530107557 0.001015867 -0.001702585 0 0 0 0
796000000 0.276249796 0.484956085 -0.001248426 -0.002626112 0 0 0 0
804000000 0.570020437 0.115462675 -0.0042772 -0.000934364 0 0 0 0
812000000 0.516835927 -0.319399595 -0.004340147 0.003196999 0 0 0 0
820000000 0.217854827 -0.581927061 -0.001269546 0.00600054 0 0 0 0
828000000 -0.148240953 -0.619960606 0.002528785 0.006073102 0 0 0 0
836000000 -0.441574752 -0.475619882 0.005701445 0.004650522 0 0 0 0
844000000 -0.625825285 -0.229161337 0.008379068 0.001491174 0 0 0 0
852000000 -0.687732994 0.038536332 0.01004727 -0.002246551 0 0 0 0
860000000 -0.642667949 0.285384416 0.010911938 -0.007204047 0 0 0 0
868000000 -0.500214695 0.470755189 0.009021583 -0.014397452 0 0 0 0
876000000 -0.297739923 0.562039852 0.002102354 -0.021519897 0 0 0 0
884000000 -0.085614852 0.541199147 -0.011974493 -0.024424426 0 0 0 0
892000000 0.069942221 0.411172986 -0.030209857 -0.014366364 0 0 0 0
900000000 0.294728398 0.209398046 -0.03893603 0.015793493 0 0 0 0
908000000 0.233042195 0.109393469 -0.018237574 0.043013367 0 0 0 0
916000000 0.155226662 0.064278155 0.019704815 0.044097308 0 0 0 0
924000000 0.062306534 0.084152817 0.044726073 0.014753993 0 0 0 0
932000000 0.008217885 0.207526177 0.037705197 -0.021560626 0 0 0 0
940000000 0.120430305 0.362468451 0.008763801 -0.032305024 0 0 0 0
948000000 0.380164265 0.368523687 -0.009107126 -0.021492013 0 0 0 0
956000000 0.541448891 0.19411613 -0.012110958 -0.011205699 0 0 0 0
964000000 0.595677435 -0.064988508 -0.012221815 -0.003750072 0 0 0 0
972000000 0.498641908 -0.316151261 -0.010083132 0.001425114 0 0 0 0
980000000 0.276412457 -0.502668023 -0.00647346 0.004023058 0 0 0 0
988000000 -0.002578158 -0.562704741 -0.004002601 0.005222484 0 0 0 0
996000000 -0.274358481 -0.505543947 -0.00267586 0.004505465 0 0 0 0
1004000000 -0.514552652 -0.358475685 -0.001834421 0.004839819 0 0 0 0
