# Hz S RI R 50
700000000 0.767275571 0.529943585 1.3071e-05 0.000667288 0 0 0 0
708000000 0.866262853 0.281665682 2.844e-05 0.000893578 0 0 0 0
716000000 0.88977307 0.013236192 0.00020658 0.001177093 0 0 0 0
724000000 0.830542802 -0.26580125 0.000340859 0.001369997 0 0 0 0
732000000 0.679972887 -0.51385051 0.000634949 0.001375643 0 0 0 0
740000000 0.441299319 -0.701100051 0.001018008 0.001308356 0 0 0 0
748000000 0.132105305 -0.792632877 0.001142175 0.001085989 0 0 0 0
756000000 -0.202222719 -0.747562885 0.001242551 0.000562977 0 0 0 0
764000000 -0.496480733 -0.533375442 0.001147303 0.000389732 0 0 0 0
772000000 -0.654709458 -0.174930587 0.000996248 -0.0001643 0 0 0 0
780000000 -0.563959062 0.249072447 0.000504895 -0.000689869 0 0 0 0
788000000 -0.193438321 0.535515189 -0.000645496 -0.000761701 0 0 0 0
796000000 0.292133152 0.481899619 -0.002047684 7.7829e-05 0 0 0 0
804000000 0.58418256 0.104944616 -0.002544668 0.002144255 0 0 0 0
812000000 0.518721163 -0.339084208 -0.000708512 0.004492643 0 0 0 0
820000000 0.211930602 -0.599033713 0.00254962 0.00449339 0 0 0 0
828000000 -0.160472214 -0.626485109 0.004450968 0.002715547 0 0 0 0
836000000 -0.461055546 -0.479994654 0.005743862 0.000877059 0 0 0 0
844000000 -0.641547441 -0.233756184 0.00675437 -0.001730599 0 0 0 0
852000000 -0.707319617 0.040143661 0.006960011 -0.004843788 0 0 0 0
860000000 -0.659954071 0.297149807 0.006103293 -0.008222945 0 0 0 0
868000000 -0.516672074 0.492968559 0.003613095 -0.012479223 0 0 0 0
876000000 -0.294277995 0.599587261 -0.002264087 -0.016317034 0 0 0 0
884000000 -0.063590131 0.581315994 -0.012834318 -0.016124954 0 0 0 0
892000000 0.12090703 0.44811815 -0.025030858 -0.006581049 0 0 0 0
900000000 0.378388136 0.195472419 -0.028250951 0.018310556 0 0 0 0
908000000 0.293370753 0.031276203 -0.007359781 0.037660315 0 0 0 0
916000000 0.124772399 -0.035063043 0.024335591 0.031066993 0 0 0 0
924000000 -0.022440847 0.048885632 0.037900611 0.001651163 0 0 0 0
932000000 -0.048024933 0.255347937 0.023914661 -0.02334496 0 0 0 0
940000000 0.118289649 0.405983656 0.000959226 -0.025917835 0 0 0 0
948000000 0.396184146 0.389829277 -0.010153047 -0.015665972 0 0 0 0
956000000 0.538393616 0.194203987 -0.01126015 -0.007269615 0 0 0 0
964000000 0.593243777 -0.04616015 -0.010155324 -0.000495083 0 0 0 0
972000000 0.517584264 -0.307566821 -0.008232959 0.002881165 0 0 0 0
980000000 0.301218837 -0.493012398 -0.004260038 0.004755045 0 0 0 0
988000000 0.007005158 -0.560577213 -0.002548874 0.004073447 0 0 0 0
996000000 -0.271391063 -0.505530774 -0.001223908 0.003784169 0 0 0 0
1004000000 -0.509917557 -0.347428351 -0.001500198 0.002264231 0 0 0 0
