# Hz S RI R 50
700000000 0.761954128 0.530277788 -5.7129e-05 0.000660214 0 0 0 0
708000000 0.864210367 0.282714605 -6.626e-06 0.001018243 0 0 0 0
716000000 0.890969514 0.014049937 7.707e-06 0.001198772 0 0 0 0
724000000 0.826824069 -0.26452288 0.000140792 0.001548026 0 0 0 0
732000000 0.679582357 -0.515388667 0.000697444 0.001618779 0 0 0 0
740000000 0.439403533 -0.702616333 0.000894905 0.001609233 0 0 0 0
748000000 0.130715623 -0.791265666 0.001071551 0.001362878 0 0 0 0
756000000 -0.20253393 -0.743866443 0.00108103 0.000960745 0 0 0 0
764000000 -0.497081309 -0.533309578 0.001374992 0.000761974 0 0 0 0
772000000 -0.650063753 -0.174386218 0.001545073 5.3622e-05 0 0 0 0
780000000 -0.56156516 0.244538754 0.001426409 -0.000920514 0 0 0 0
788000000 -0.190313681 0.532952547 0.000440901 -0.001683786 0 0 0 0
796000000 0.28644225 0.476622819 -0.002038553 -0.001899368 0 0 0 0
804000000 0.574456691 0.103013232 -0.004408261 0.000603823 0 0 0 0
812000000 0.509489774 -0.333856701 -0.003376295 0.004326919 0 0 0 0
820000000 0.208588346 -0.588382005 0.000395469 0.006436496 0 0 0 0
828000000 -0.158170476 -0.61585921 0.004035998 0.005654336 0 0 0 0
836000000 -0.451292514 -0.46889308 0.006697218 0.003282354 0 0 0 0
844000000 -0.634896278 -0.22756271 0.008828412 -4.1603e-05 0 0 0 0
852000000 -0.69485557 0.041418284 0.009638397 -0.004495457 0 0 0 0
860000000 -0.648419082 0.294524908 0.009199905 -0.009619683 0 0 0 0
868000000 -0.505085945 0.484294801 0.005861465 -0.015698807 0 0 0 0
876000000 -0.293639689 0.578442692 -0.002028297 -0.020995765 0 0 0 0
884000000 -0.073345862 0.560428738 -0.015786593 -0.020508566 0 0 0 0
892000000 0.092482492 0.422651827 -0.030712148 -0.008137729 0 0 0 0
900000000 0.324392735 0.200164929 -0.034319613 0.021176351 0 0 0 0
908000000 0.243926256 0.068180225 -0.008673494 0.045067623 0 0 0 0
916000000 0.135673969 0.035167701 0.02863908 0.038031257 0 0 0 0
924000000 0.030297428 0.070225253 0.045409005 0.002952202 0 0 0 0
932000000 -0.011326128 0.221998885 0.028529657 -0.028692407 0 0 0 0
940000000 0.120004065 0.378130227 0.00046852 -0.031468827 0 0 0 0
948000000 0.379874736 0.372942835 -0.012274555 -0.017508648 0 0 0 0
956000000 0.533583998 0.180719509 -0.013020398 -0.007678984 0 0 0 0
964000000 0.583820223 -0.070173777 -0.011089957 5.2741e-05 0 0 0 0
972000000 0.489276558 -0.311399698 -0.008693601 0.003597122 0 0 0 0
980000000 0.279069632 -0.5046615 -0.004268962 0.004810603 0 0 0 0
988000000 0.007396143 -0.565986514 -0.002229115 0.004916631 0 0 0 0
996000000 -0.278890281 -0.503935873 -0.001087204 0.003843748 0 0 0 0
1004000000 -0.497024893 -0.344165891 -0.000598527 0.003488615 0 0 0 0
