# Hz S RI R 50
700000000 0.764371752 0.525051832 8.81e-06 0.000651268 0 0 0 0
708000000 0.864842414 0.282264977 -6.318e-05 0.000933645 0 0 0 0
716000000 0.885912716 0.016244456 8.4689e-05 0.001334998 0 0 0 0
724000000 0.82796216 -0.264722377 0.000337672 0.001385219 0 0 0 0
732000000 0.680838465 -0.5087803 0.000516212 0.001363889 0 0 0 0
740000000 0.442233085 -0.701171994 0.00086682 0.001354714 0 0 0 0
748000000 0.134969457 -0.791637241 0.000947071 0.001302722 0 0 0 0
756000000 -0.198118969 -0.745662868 0.001226525 0.001197142 0 0 0 0
764000000 -0.49169141 -0.536992311 0.001275343 0.000890173 0 0 0 0
772000000 -0.649437665 -0.178594037 0.001671281 0.000344171 0 0 0 0
780000000 -0.56649208 0.239738255 0.001568702 -0.000455926 0 0 0 0
788000000 -0.2063376 0.527784585 0.000634247 -0.001862456 0 0 0 0
796000000 0.273787409 0.488696813 -0.001642436 -0.002302971 0 0 0 0
804000000 0.571142315 0.117909424 -0.004609042 -0.000375769 0 0 0 0
812000000 0.519709885 -0.317484885 -0.00412927 0.00438723 0 0 0 0
820000000 0.223697647 -0.583092868 -0.000277946 0.006736117 0 0 0 0
828000000 -0.14551939 -0.62131536 0.003541796 0.006117754 0 0 0 0
836000000 -0.437726318 -0.477400362 0.006907385 0.003967251 0 0 0 0
844000000 -0.626052975 -0.240812554 0.009465758 0.000273446 0 0 0 0
852000000 -0.698620676 0.02626024 0.010365558 -0.004062466 0 0 0 0
860000000 -0.654971599 0.279088437 0.009885009 -0.009506339 0 0 0 0
868000000 -0.518229901 0.474870711 0.006461095 -0.016092788 0 0 0 0
876000000 -0.306375801 0.575635015 -0.00162028 -0.021776625 0 0 0 0
884000000 -0.081993989 0.557241201 -0.015924118 -0.021795175 0 0 0 0
892000000 0.087339103 0.4263255 -0.032254915 -0.008838098 0 0 0 0
900000000 0.308948546 0.204637393 -0.035482391 0.022752787 0 0 0 0
908000000 0.233875721 0.099552676 -0.009877224 0.045709218 0 0 0 0
916000000 0.161930158 0.084915764 0.028430815 0.03924949 0 0 0 0
924000000 0.09031254 0.082593873 0.046945329 0.005264985 0 0 0 0
932000000 0.025030422 0.171702817 0.031551562 -0.029345821 0 0 0 0
940000000 0.102101825 0.338327795 0.000996862 -0.033236112 0 0 0 0
948000000 0.339546352 0.376787632 -0.01280017 -0.018843058 0 0 0 0
956000000 0.518576502 0.202460616 -0.013714552 -0.007378333 0 0 0 0
964000000 0.582653105 -0.047127388 -0.012226571 6.1646e-05 0 0 0 0
972000000 0.497203588 -0.29342252 -0.008842201 0.003984011 0 0 0 0
980000000 0.285516202 -0.505449235 -0.004359288 0.004976052 0 0 0 0
988000000 0.008082987 -0.559561669 -0.001958233 0.005364555 0 0 0 0
996000000 -0.271953165 -0.500953972 -0.000981606 0.004343929 0 0 0 0
1004000000 -0.499649733 -0.358589619 -0.000715398 0.003295037 0 0 0 0
