# Hz S RI R 50
700000000 0.761696696 0.528736829 -3.3144e-05 0.000529084 0 0 0 0
708000000 0.862789332 0.286579787 -0.000115252 0.001029935 0 0 0 0
716000000 0.888982474 0.014308528 7.153e-05 0.001298755 0 0 0 0
724000000 0.828553617 -0.258445918 0.000221144 0.001350857 0 0 0 0
732000000 0.682579338 -0.510508477 0.000473287 0.001506448 0 0 0 0
740000000 0.446526229 -0.702551901 0.000930785 0.001571242 0 0 0 0
748000000 0.139100804 -0.792494297 0.000899132 0.001294548 0 0 0 0
756000000 -0.199066162 -0.747264683 0.00106563 0.000904252 0 0 0 0
764000000 -0.490825176 -0.539157748 0.001485287 0.000767386 0 0 0 0
772000000 -0.649433851 -0.180426254 0.001931293 0.000320165 0 0 0 0
780000000 -0.566762447 0.237734958 0.001824795 -0.0006136 0 0 0 0
788000000 -0.203461855 0.526171207 0.000750918 -0.002078194 0 0 0 0
796000000 0.270705461 0.484123259 -0.001676092 -0.002397705 0 0 0 0
804000000 0.568365037 0.118929989 -0.004691248 -0.000157574 0 0 0 0
812000000 0.514786899 -0.315225869 -0.004362544 0.004216273 0 0 0 0
820000000 0.222424492 -0.579183578 -0.000486742 0.006871307 0 0 0 0
828000000 -0.142802402 -0.618055105 0.003505205 0.00640463 0 0 0 0
836000000 -0.436802774 -0.476727902 0.006864956 0.004233299 0 0 0 0
844000000 -0.623075306 -0.239396259 0.009484694 0.000987004 0 0 0 0
852000000 -0.689834117 0.027736304 0.010791232 -0.003881629 0 0 0 0
860000000 -0.650609433 0.281138181 0.010554043 -0.009498368 0 0 0 0
868000000 -0.505284249 0.466470986 0.007190509 -0.016406185 0 0 0 0
876000000 -0.303047031 0.561133682 -0.001176585 -0.022589951 0 0 0 0
884000000 -0.087083503 0.550154805 -0.016206994 -0.023154068 0 0 0 0
892000000 0.07906226 0.427622407 -0.033280111 -0.010289536 0 0 0 0
900000000 0.300554692 0.208183184 -0.037202686 0.022959627 0 0 0 0
908000000 0.231449872 0.111325189 -0.010918967 0.048150368 0 0 0 0
916000000 0.154427319 0.084879405 0.028703033 0.041636087 0 0 0 0
924000000 0.083077795 0.08457756 0.048285666 0.006689747 0 0 0 0
932000000 0.028067979 0.186624586 0.03431781 -0.0290284 0 0 0 0
940000000 0.108649015 0.350333839 0.003171795 -0.034849498 0 0 0 0
948000000 0.361261487 0.376823365 -0.012247741 -0.020798241 0 0 0 0
956000000 0.533164322 0.192100301 -0.014331694 -0.008791945 0 0 0 0
964000000 0.579729557 -0.057012517 -0.012521532 -0.000603184 0 0 0 0
972000000 0.496178567 -0.313011676 -0.009959329 0.004249309 0 0 0 0
980000000 0.280869096 -0.504210889 -0.004824465 0.005880584 0 0 0 0
988000000 0.005926255 -0.561027526 -0.00262464 0.005735632 0 0 0 0
996000000 -0.27716735 -0.503580749 -0.000849657 0.00453545 0 0 0 0
1004000000 -0.508316874 -0.35466364 1.912e-05 0.004589601 0 0 0 0
