# Hz S RI R 50
700000000 0.764807343 0.531815111 -5.1854e-05 0.000620506 0 0 0 0
708000000 0.864264786 0.287545204 -7.76e-06 0.000932183 0 0 0 0
716000000 0.893353939 0.015048598 -3.5636e-05 0.001148873 0 0 0 0
724000000 0.83027929 -0.263415336 0.000159963 0.001458705 0 0 0 0
732000000 0.680382847 -0.511413216 0.000418372 0.001544113 0 0 0 0
740000000 0.439697712 -0.701571285 0.000768995 0.001489413 0 0 0 0
748000000 0.136265307 -0.793517231 0.00109872 0.001078581 0 0 0 0
756000000 -0.200082361 -0.745691597 0.001175147 0.001143811 0 0 0 0
764000000 -0.494941353 -0.537653565 0.001236333 0.000745182 0 0 0 0
772000000 -0.650540411 -0.176489576 0.001452286 0.000232168 0 0 0 0
780000000 -0.564783632 0.243035316 0.001617099 -0.00070741 0 0 0 0
788000000 -0.202454999 0.530574977 0.00025051 -0.001793357 0 0 0 0
796000000 0.279815077 0.483763635 -0.001955782 -0.002074526 0 0 0 0
804000000 0.573123455 0.113378152 -0.004608062 0.000431922 0 0 0 0
812000000 0.51775074 -0.326614022 -0.003701739 0.00452521 0 0 0 0
820000000 0.21809718 -0.58720684 0.00036683 0.006606938 0 0 0 0
828000000 -0.150528952 -0.622643172 0.004002175 0.005640103 0 0 0 0
836000000 -0.445603907 -0.474841952 0.00679313 0.003519537 0 0 0 0
844000000 -0.632387459 -0.236561521 0.009207528 2.5606e-05 0 0 0 0
852000000 -0.698451697 0.035405799 0.010295526 -0.00446958 0 0 0 0
860000000 -0.651285707 0.288226574 0.00962546 -0.009888818 0 0 0 0
868000000 -0.513764977 0.481591999 0.006142204 -0.016421983 0 0 0 0
876000000 -0.297069191 0.575444877 -0.002569374 -0.02168885 0 0 0 0
884000000 -0.079733885 0.561271727 -0.017289308 -0.021160626 0 0 0 0
892000000 0.08523415 0.419610619 -0.032677806 -0.006919331 0 0 0 0
900000000 0.314641505 0.198406144 -0.033694662 0.024191057 0 0 0 0
908000000 0.233193442 0.081584647 -0.006292888 0.046437051 0 0 0 0
916000000 0.138006642 0.054948482 0.031204629 0.037109188 0 0 0 0
924000000 0.064476996 0.078861273 0.045710768 0.00166299 0 0 0 0
932000000 0.00866413 0.203688234 0.028907068 -0.029133224 0 0 0 0
940000000 0.09917584 0.358037054 0.000498127 -0.031934138 0 0 0 0
948000000 0.359007596 0.381152898 -0.013595569 -0.018751515 0 0 0 0
956000000 0.530285954 0.201013535 -0.014301196 -0.007787905 0 0 0 0
964000000 0.583793282 -0.052680864 -0.012168544 0.000537126 0 0 0 0
972000000 0.502784252 -0.302923291 -0.008808705 0.004581114 0 0 0 0
980000000 0.284842401 -0.493296891 -0.003975433 0.005874549 0 0 0 0
988000000 0.01226074 -0.561326444 -0.00177447 0.005482924 0 0 0 0
996000000 -0.276050835 -0.50689435 -0.000549636 0.004035914 0 0 0 0
1004000000 -0.51243782 -0.35587123 -0.000378142 0.002894986 0 0 0 0
