# Hz S RI R 50
700000000 0.766443908 0.533334076 5.6728e-05 0.000648986 0 0 0 0
708000000 0.865621566 0.284004062 3.2095e-05 0.000899251 0 0 0 0
716000000 0.891950786 0.013136192 0.000330162 0.001151742 0 0 0 0
724000000 0.829979896 -0.25831297 0.000337338 0.001212453 0 0 0 0
732000000 0.680686771 -0.510062277 0.000796796 0.001400379 0 0 0 0
740000000 0.443374991 -0.701310694 0.000833456 0.001462423 0 0 0 0
748000000 0.134591177 -0.79174751 0.00108572 0.000870178 0 0 0 0
756000000 -0.199886262 -0.745813369 0.001226091 0.000630592 0 0 0 0
764000000 -0.499225318 -0.533938527 0.000951254 0.00036206 0 0 0 0
772000000 -0.653167009 -0.174106776 0.001094763 -0.000134632 0 0 0 0
780000000 -0.563685655 0.247993648 0.000533478 -0.000607601 0 0 0 0
788000000 -0.192020893 0.536721229 -0.000255663 -0.000904236 0 0 0 0
796000000 0.293504983 0.478221923 -0.001896742 -0.000362812 0 0 0 0
804000000 0.576314687 0.099850602 -0.002931077 0.001945878 0 0 0 0
812000000 0.514171957 -0.339451164 -0.001323384 0.004327926 0 0 0 0
820000000 0.205899104 -0.595171153 0.00215757 0.004867069 0 0 0 0
828000000 -0.164155617 -0.6186378 0.004257134 0.003575012 0 0 0 0
836000000 -0.457565695 -0.470595031 0.005870361 0.001462261 0 0 0 0
844000000 -0.635074675 -0.230591863 0.007492945 -0.001631675 0 0 0 0
852000000 -0.700725972 0.043899603 0.007652381 -0.004858115 0 0 0 0
860000000 -0.651777565 0.297527432 0.0068869 -0.008650509 0 0 0 0
868000000 -0.506024241 0.488639831 0.003984721 -0.013691716 0 0 0 0
876000000 -0.289637148 0.58277601 -0.002698476 -0.017531411 0 0 0 0
884000000 -0.067126117 0.571092903 -0.01406535 -0.016899708 0 0 0 0
892000000 0.111435212 0.430747896 -0.027006398 -0.006038712 0 0 0 0
900000000 0.339883357 0.192805096 -0.028415024 0.02000048 0 0 0 0
908000000 0.265186965 0.044843364 -0.006164697 0.04005352 0 0 0 0
916000000 0.1127256 -0.010101556 0.027527542 0.032033946 0 0 0 0
924000000 -0.01560274 0.070950284 0.039730358 0.000329258 0 0 0 0
932000000 -0.038165569 0.256064683 0.023564832 -0.025737769 0 0 0 0
940000000 0.129325225 0.404459774 -0.000339483 -0.026539877 0 0 0 0
948000000 0.383508026 0.384022176 -0.011033073 -0.015870306 0 0 0 0
956000000 0.559903442 0.194250509 -0.012240077 -0.006432949 0 0 0 0
964000000 0.601729214 -0.064219817 -0.010866289 0.000592189 0 0 0 0
972000000 0.501443266 -0.309875458 -0.007401632 0.004012523 0 0 0 0
980000000 0.284951478 -0.499137371 -0.003225755 0.004383654 0 0 0 0
988000000 0.011517588 -0.557596981 -0.001770379 0.004037703 0 0 0 0
996000000 -0.285223513 -0.505149781 -0.000616533 0.002544421 0 0 0 0
1004000000 -0.511428654 -0.353044778 -0.00131872 0.002467206 0 0 0 0
