# Hz S RI R 50
700000000 0.762311339 0.527714431 -1.208e-06 0.000650905 0 0 0 0
708000000 0.862487912 0.28252688 0.000120355 0.001149567 0 0 0 0
716000000 0.890482664 0.012437566 0.000324031 0.001389189 0 0 0 0
724000000 0.834201633 -0.265138 0.000264862 0.001288452 0 0 0 0
732000000 0.67901498 -0.512353181 0.000822209 0.001307621 0 0 0 0
740000000 0.441526442 -0.702615916 0.000969952 0.001194943 0 0 0 0
748000000 0.133489772 -0.792229056 0.001034844 0.001049144 0 0 0 0
756000000 -0.20156233 -0.745341241 0.001116321 0.000490239 0 0 0 0
764000000 -0.496834367 -0.534972608 0.000962735 0.000297072 0 0 0 0
772000000 -0.651106834 -0.175379112 0.000813653 -0.000319753 0 0 0 0
780000000 -0.565632939 0.246521338 0.000368888 -0.000486467 0 0 0 0
788000000 -0.197894722 0.533935844 -0.000857098 -0.00057999 0 0 0 0
796000000 0.286482781 0.482454866 -0.001771467 0.00052899 0 0 0 0
804000000 0.578786432 0.107095107 -0.0022134 0.002579175 0 0 0 0
812000000 0.516515135 -0.330580323 -4.0778e-05 0.004392559 0 0 0 0
820000000 0.213286653 -0.589643418 0.002597443 0.004342366 0 0 0 0
828000000 -0.153222963 -0.623522996 0.004318912 0.002722176 0 0 0 0
836000000 -0.45016089 -0.479893237 0.0059139 0.000392052 0 0 0 0
844000000 -0.63776952 -0.233481213 0.006508882 -0.002238922 0 0 0 0
852000000 -0.70032531 0.035714961 0.006685597 -0.005393882 0 0 0 0
860000000 -0.657527029 0.290360301 0.005474618 -0.008675572 0 0 0 0
868000000 -0.518177449 0.486123651 0.002389584 -0.012651626 0 0 0 0
876000000 -0.305169433 0.590719163 -0.003509558 -0.015554412 0 0 0 0
884000000 -0.07869374 0.580572485 -0.013637478 -0.014135046 0 0 0 0
892000000 0.107365004 0.450498849 -0.024094721 -0.003830234 0 0 0 0
900000000 0.358663737 0.207288041 -0.024806546 0.018628181 0 0 0 0
908000000 0.291997373 0.049541767 -0.003385167 0.035875089 0 0 0 0
916000000 0.148567929 -0.024282157 0.026058234 0.027708142 0 0 0 0
924000000 -0.007804748 0.032775539 0.036543481 -0.002388315 0 0 0 0
932000000 -0.052230115 0.224568113 0.02001271 -0.024684911 0 0 0 0
940000000 0.099351182 0.386872589 -0.000976722 -0.024732839 0 0 0 0
948000000 0.37359476 0.380518347 -0.010735475 -0.014048484 0 0 0 0
956000000 0.547407925 0.200480774 -0.01180581 -0.005816328 0 0 0 0
964000000 0.593066692 -0.052643191 -0.009966675 0.000976898 0 0 0 0
972000000 0.504084587 -0.303352952 -0.006312564 0.004596309 0 0 0 0
980000000 0.291838824 -0.499643832 -0.002412641 0.004698487 0 0 0 0
988000000 0.010090877 -0.553196966 -0.001100755 0.004323347 0 0 0 0
996000000 -0.267094552 -0.497164905 -0.000394868 0.002507025 0 0 0 0
1004000000 -0.503093659 -0.348571062 -0.000848889 0.002176858 0 0 0 0
