# Hz S RI R 50
700000000 0.767537772 0.527983427 -2.3735e-05 0.000736122 0 0 0 0
708000000 0.864177227 0.287119388 0.000138446 0.001031507 0 0 0 0
716000000 0.891588687 0.013934456 0.000281416 0.001275159 0 0 0 0
724000000 0.832994818 -0.263562977 0.000527036 0.001407573 0 0 0 0
732000000 0.681620121 -0.511358916 0.000490101 0.001330136 0 0 0 0
740000000 0.4422791 -0.701306521 0.000914555 0.001205268 0 0 0 0
748000000 0.136024445 -0.794004976 0.001102411 0.000989114 0 0 0 0
756000000 -0.200059637 -0.744925558 0.001117015 0.000523838 0 0 0 0
764000000 -0.493993371 -0.536703765 0.000944467 0.000195086 0 0 0 0
772000000 -0.651163756 -0.178630128 0.000695812 -0.000344008 0 0 0 0
780000000 -0.563910186 0.243196889 0.000137336 -0.000456516 0 0 0 0
788000000 -0.198288202 0.530895709 -0.000830023 -0.000144905 0 0 0 0
796000000 0.284101486 0.476780116 -0.001653068 0.00066336 0 0 0 0
804000000 0.571498811 0.105920903 -0.001944235 0.00259787 0 0 0 0
812000000 0.510147273 -0.331051409 7.9055e-05 0.004066679 0 0 0 0
820000000 0.208843871 -0.582476973 0.002944588 0.004059516 0 0 0 0
828000000 -0.153565317 -0.614421486 0.004710386 0.002236009 0 0 0 0
836000000 -0.446819037 -0.468317329 0.005874729 6.5866e-05 0 0 0 0
844000000 -0.626636862 -0.228457704 0.006361988 -0.002672038 0 0 0 0
852000000 -0.692040503 0.039060771 0.005958052 -0.005476119 0 0 0 0
860000000 -0.641974627 0.286527931 0.004447352 -0.00852026 0 0 0 0
868000000 -0.502952218 0.47328782 0.001757615 -0.011815386 0 0 0 0
876000000 -0.299600481 0.566397786 -0.003990191 -0.014230724 0 0 0 0
884000000 -0.088339582 0.556304991 -0.012924701 -0.012830747 0 0 0 0
892000000 0.079273536 0.433383375 -0.022136729 -0.003469212 0 0 0 0
900000000 0.327983319 0.216677203 -0.022888205 0.016136204 0 0 0 0
908000000 0.267208755 0.091360092 -0.004843531 0.033482704 0 0 0 0
916000000 0.163497492 0.027477595 0.023843763 0.028535094 0 0 0 0
924000000 0.038546845 0.056769676 0.037800829 8.9177e-05 0 0 0 0
932000000 -0.01559131 0.209604278 0.022288151 -0.026401363 0 0 0 0
940000000 0.116171263 0.367147386 -0.002166311 -0.027172548 0 0 0 0
948000000 0.371250867 0.376232296 -0.013073174 -0.014399966 0 0 0 0
956000000 0.526362419 0.200620561 -0.013013284 -0.004455741 0 0 0 0
964000000 0.58312875 -0.048460621 -0.010275101 0.002112156 0 0 0 0
972000000 0.490787714 -0.302338868 -0.006387997 0.005143965 0 0 0 0
980000000 0.282758116 -0.497018456 -0.001919229 0.005463896 0 0 0 0
988000000 0.013792488 -0.560641765 0.000175951 0.003855584 0 0 0 0
996000000 -0.26805526 -0.499646604 0.000717974 0.002198302 0 0 0 0
1004000000 -0.49815002 -0.345774084 -0.000388448 0.001358757 0 0 0 0
