# Hz S RI R 50
700000000 0.761933326 0.532096982 -2.1712e-05 0.000716144 0 0 0 0
708000000 0.864472568 0.285538405 5.364e-06 0.000764035 0 0 0 0
716000000 0.889906346 0.013072692 7.3573e-05 0.001201991 0 0 0 0
724000000 0.834189593 -0.261470705 0.00031197 0.001469042 0 0 0 0
732000000 0.679155468 -0.509517371 0.000446638 0.001662044 0 0 0 0
740000000 0.444606453 -0.701962172 0.000855838 0.001543998 0 0 0 0
748000000 0.137557163 -0.791523873 0.001008313 0.001255051 0 0 0 0
756000000 -0.197268158 -0.744742274 0.001307769 0.001171768 0 0 0 0
764000000 -0.491043418 -0.537531077 0.001306137 0.000725444 0 0 0 0
772000000 -0.64887607 -0.178774237 0.001565693 0.000286281 0 0 0 0
780000000 -0.559814512 0.235427901 0.001647139 -0.000670949 0 0 0 0
788000000 -0.202477619 0.521751582 0.00077936 -0.001848685 0 0 0 0
796000000 0.270199477 0.469186842 -0.001780869 -0.002127224 0 0 0 0
804000000 0.556230485 0.110227525 -0.004471351 -0.000312826 0 0 0 0
812000000 0.501351892 -0.31911838 -0.004058659 0.004072084 0 0 0 0
820000000 0.210550993 -0.569061815 -0.000314178 0.006509883 0 0 0 0
828000000 -0.147324293 -0.599568307 0.003634984 0.006016681 0 0 0 0
836000000 -0.433849543 -0.45918253 0.00683983 0.003857743 0 0 0 0
844000000 -0.611952662 -0.223649501 0.009190513 0.000340529 0 0 0 0
852000000 -0.670670926 0.034611452 0.01024555 -0.004142206 0 0 0 0
860000000 -0.627835392 0.278207033 0.009705091 -0.00927997 0 0 0 0
868000000 -0.489082515 0.450904548 0.006559397 -0.015537241 0 0 0 0
876000000 -0.29073733 0.53611958 -0.001371083 -0.021197918 0 0 0 0
884000000 -0.098427437 0.514900624 -0.014871657 -0.021336955 0 0 0 0
892000000 0.037695851 0.390329033 -0.030224015 -0.00981506 0 0 0 0
900000000 0.248643964 0.212996944 -0.035049073 0.018681675 0 0 0 0
908000000 0.196568161 0.147057041 -0.013085546 0.043733563 0 0 0 0
916000000 0.143794789 0.13707289 0.024928951 0.041837837 0 0 0 0
924000000 0.121354721 0.143002092 0.047853656 0.009586366 0 0 0 0
932000000 0.088214144 0.194159016 0.03401225 -0.027988716 0 0 0 0
940000000 0.149608537 0.31365177 0.002596357 -0.033525194 0 0 0 0
948000000 0.36312294 0.326810479 -0.010997373 -0.02033825 0 0 0 0
956000000 0.523598611 0.163673028 -0.01443322 -0.009327867 0 0 0 0
964000000 0.561186373 -0.07536973 -0.013767192 -0.001103679 0 0 0 0
972000000 0.482796549 -0.298245191 -0.010143576 0.004250571 0 0 0 0
980000000 0.265283226 -0.485763132 -0.004695175 0.006171956 0 0 0 0
988000000 0.002105057 -0.556744933 -0.002686409 0.006370927 0 0 0 0
996000000 -0.275767534 -0.483742028 -0.000640182 0.005068234 0 0 0 0
1004000000 -0.499141454 -0.344510704 -0.000619988 0.00340812 0 0 0 0
