# Hz S RI R 50
700000000 0.76761353 0.530280053 8.7015e-05 0.000836051 0 0 0 0
708000000 0.864077746 0.284111529 0.000101035 0.000929743 0 0 0 0
716000000 0.889092862 0.010523852 0.000238552 0.00110713 0 0 0 0
724000000 0.833068728 -0.2640419 0.000557883 0.001364735 0 0 0 0
732000000 0.680090785 -0.513530075 0.000678645 0.001332239 0 0 0 0
740000000 0.440994799 -0.701363921 0.000969713 0.001278976 0 0 0 0
748000000 0.131646722 -0.791776359 0.001169959 0.00104948 0 0 0 0
756000000 -0.203841745 -0.743946671 0.001108844 0.000559521 0 0 0 0
764000000 -0.499289929 -0.528739213 0.00110415 0.000288741 0 0 0 0
772000000 -0.650833308 -0.164844438 0.000883559 -0.000174323 0 0 0 0
780000000 -0.55620861 0.255977928 0.000214738 -0.000514445 0 0 0 0
788000000 -0.178448691 0.535171687 -0.000885873 -0.000223488 0 0 0 0
796000000 0.305445671 0.465656787 -0.001802349 0.000755545 0 0 0 0
804000000 0.581368625 0.086280271 -0.001867551 0.002554153 0 0 0 0
812000000 0.504196584 -0.350076258 0.000326123 0.003961673 0 0 0 0
820000000 0.196351513 -0.599322795 0.002938623 0.003456105 0 0 0 0
828000000 -0.171414405 -0.622787535 0.004357837 0.001700603 0 0 0 0
836000000 -0.466288626 -0.467291504 0.005139266 -0.000110354 0 0 0 0
844000000 -0.647607684 -0.22067824 0.005605599 -0.002501553 0 0 0 0
852000000 -0.704293787 0.054038576 0.005232206 -0.004832189 0 0 0 0
860000000 -0.651732981 0.310926765 0.004621121 -0.007325707 0 0 0 0
868000000 -0.498346149 0.50556451 0.002649518 -0.010941389 0 0 0 0
876000000 -0.273078888 0.596478164 -0.002215915 -0.013602097 0 0 0 0
884000000 -0.039215769 0.568810105 -0.010774663 -0.013565976 0 0 0 0
892000000 0.142377227 0.408573269 -0.02123345 -0.005905387 0 0 0 0
900000000 0.355715692 0.151833891 -0.024996098 0.014205294 0 0 0 0
908000000 0.226646035 0.001375463 -0.006876528 0.033033382 0 0 0 0
916000000 0.055848844 -0.008203324 0.023231765 0.02795487 0 0 0 0
924000000 -0.051428858 0.119525551 0.03414018 -0.001267833 0 0 0 0
932000000 -0.023993445 0.310456335 0.018384486 -0.022320363 0 0 0 0
940000000 0.16559267 0.424998819 -0.000150824 -0.02078367 0 0 0 0
948000000 0.420147597 0.377600491 -0.007577483 -0.013054699 0 0 0 0
956000000 0.575259745 0.178580194 -0.009318798 -0.006148193 0 0 0 0
964000000 0.605864942 -0.06933809 -0.008659965 -0.000350584 0 0 0 0
972000000 0.499640583 -0.326563 -0.00610511 0.003194829 0 0 0 0
980000000 0.288341671 -0.513414502 -0.003104893 0.003361282 0 0 0 0
988000000 0.003427015 -0.566462337 -0.001730201 0.003729831 0 0 0 0
996000000 -0.283025652 -0.498169183 -0.001109266 0.003025442 0 0 0 0
1004000000 -0.522395372 -0.351685017 -0.0023504 0.00171234 0 0 0 0
