# Hz S RI R 50
700000000 0.764416515 0.530991911 -7.1656e-05 0.000567078 0 0 0 0
708000000 0.864569604 0.283690959 -0.000252205 0.000949708 0 0 0 0
716000000 0.892162322 0.013637676 7.9448e-05 0.001347125 0 0 0 0
724000000 0.830598115 -0.262655436 0.000298901 0.001591888 0 0 0 0
732000000 0.681112408 -0.511159896 0.000525414 0.001792027 0 0 0 0
740000000 0.442739129 -0.703219473 0.000632807 0.001495575 0 0 0 0
748000000 0.133696541 -0.791917383 0.001104327 0.00129168 0 0 0 0
756000000 -0.197911962 -0.746323168 0.001092303 0.001231069 0 0 0 0
764000000 -0.491083502 -0.53922379 0.001329195 0.000929027 0 0 0 0
772000000 -0.65067321 -0.188452363 0.001811918 0.00028995 0 0 0 0
780000000 -0.573840677 0.231091767 0.001844019 -0.000566018 0 0 0 0
788000000 -0.223582565 0.529356837 0.000868025 -0.001856195 0 0 0 0
796000000 0.256272941 0.502295613 -0.001688278 -0.002553024 0 0 0 0
804000000 0.57349658 0.151001632 -0.004517924 -0.00061481 0 0 0 0
812000000 0.542601346 -0.297549009 -0.004281053 0.003885833 0 0 0 0
820000000 0.25437209 -0.577200353 -0.000551971 0.006400242 0 0 0 0
828000000 -0.116111904 -0.635674178 0.00314711 0.00577359 0 0 0 0
836000000 -0.42689678 -0.505466997 0.006063031 0.003661891 0 0 0 0
844000000 -0.627622783 -0.269320398 0.008327017 0.000582499 0 0 0 0
852000000 -0.709738194 0.00243715 0.009554045 -0.003075279 0 0 0 0
860000000 -0.677776753 0.26809889 0.00937064 -0.007821541 0 0 0 0
868000000 -0.543930649 0.472555547 0.007308382 -0.013928915 0 0 0 0
876000000 -0.329820603 0.588192045 0.000803249 -0.019898718 0 0 0 0
884000000 -0.096570886 0.5861153 -0.011914898 -0.021909065 0 0 0 0
892000000 0.08695282 0.456173956 -0.0282811 -0.012710106 0 0 0 0
900000000 0.328463256 0.22279556 -0.03582431 0.016092337 0 0 0 0
908000000 0.255009412 0.113479927 -0.015986023 0.041862089 0 0 0 0
916000000 0.1877072 0.083230584 0.020340252 0.043002471 0 0 0 0
924000000 0.122214369 0.066219709 0.04502641 0.014483508 0 0 0 0
932000000 0.031977728 0.131787627 0.038528028 -0.023038608 0 0 0 0
940000000 0.07174424 0.303824961 0.0078867 -0.035592682 0 0 0 0
948000000 0.315039753 0.363786309 -0.011624065 -0.024027667 0 0 0 0
956000000 0.49145022 0.21990706 -0.015856286 -0.011449798 0 0 0 0
964000000 0.581407845 -0.025383718 -0.014883656 -0.001667336 0 0 0 0
972000000 0.513656556 -0.282992154 -0.01110438 0.004090726 0 0 0 0
980000000 0.297950387 -0.487288504 -0.006138756 0.006458622 0 0 0 0
988000000 0.011253789 -0.564747691 -0.002890634 0.00683383 0 0 0 0
996000000 -0.26930058 -0.51141113 -0.000102923 0.005327796 0 0 0 0
1004000000 -0.490928232 -0.356984853 -0.000625337 0.0047226 0 0 0 0
