# Hz S RI R 50
700000000 0.760658502 0.529893815 8.5097e-05 0.000817075 0 0 0 0
708000000 0.862754464 0.289539515 0.00010105 0.000981026 0 0 0 0
716000000 0.890223324 0.015823233 8.9319e-05 0.001258259 0 0 0 0
724000000 0.832562148 -0.263647049 0.000438101 0.001339746 0 0 0 0
732000000 0.681775808 -0.512508392 0.000537614 0.001282094 0 0 0 0
740000000 0.440364122 -0.701599121 0.000880283 0.001220643 0 0 0 0
748000000 0.135404601 -0.79277265 0.001202606 0.001080483 0 0 0 0
756000000 -0.199769124 -0.745958805 0.001212854 0.000616696 0 0 0 0
764000000 -0.49602586 -0.537000119 0.001078577 0.000472855 0 0 0 0
772000000 -0.648675501 -0.177447766 0.001131401 -0.000110188 0 0 0 0
780000000 -0.561234831 0.246259629 0.000752987 -0.000557859 0 0 0 0
788000000 -0.194412142 0.532479882 -0.000164695 -0.000741814 0 0 0 0
796000000 0.288453847 0.473771154 -0.001691864 -0.000538983 0 0 0 0
804000000 0.574428975 0.101229064 -0.002673785 0.001295665 0 0 0 0
812000000 0.511252939 -0.335180431 -0.001370864 0.003985572 0 0 0 0
820000000 0.208113744 -0.590818107 0.001550977 0.004533028 0 0 0 0
828000000 -0.158972457 -0.616570293 0.00385559 0.003584375 0 0 0 0
836000000 -0.453292578 -0.469920396 0.005347109 0.001384399 0 0 0 0
844000000 -0.635760247 -0.228945091 0.006837069 -0.000949801 0 0 0 0
852000000 -0.692423939 0.042856868 0.007221281 -0.004091256 0 0 0 0
860000000 -0.642427742 0.297800332 0.00678368 -0.007613747 0 0 0 0
868000000 -0.500747144 0.486094474 0.004699076 -0.01217054 0 0 0 0
876000000 -0.284478873 0.571151256 -0.000539451 -0.016686791 0 0 0 0
884000000 -0.066221453 0.546840608 -0.011103946 -0.017668057 0 0 0 0
892000000 0.09751679 0.40294829 -0.024592906 -0.009507193 0 0 0 0
900000000 0.314294546 0.175779893 -0.03128774 0.014849302 0 0 0 0
908000000 0.210893154 0.072463698 -0.013212908 0.038024507 0 0 0 0
916000000 0.107984408 0.054105535 0.022029871 0.037391707 0 0 0 0
924000000 0.029798779 0.105921275 0.041809368 0.005339108 0 0 0 0
932000000 0.002832898 0.235362529 0.027407042 -0.025605708 0 0 0 0
940000000 0.144652992 0.381847709 0.001591149 -0.027339136 0 0 0 0
948000000 0.390094548 0.364659488 -0.010340157 -0.015976073 0 0 0 0
956000000 0.548466205 0.175914794 -0.011315478 -0.007158086 0 0 0 0
964000000 0.595403254 -0.069214425 -0.009959219 -0.000949741 0 0 0 0
972000000 0.495839059 -0.318278312 -0.007808886 0.003005665 0 0 0 0
980000000 0.279981523 -0.510588705 -0.00380778 0.003419012 0 0 0 0
988000000 0.003317331 -0.560187578 -0.00236837 0.004219437 0 0 0 0
996000000 -0.27941206 -0.503535628 -0.001040746 0.003137542 0 0 0 0
1004000000 -0.516265094 -0.350537836 -0.001469104 0.002732068 0 0 0 0
