# Hz S RI R 50
700000000 0.766799211 0.529538452 -6.5259e-05 0.00065464 0 0 0 0
708000000 0.866250157 0.286488831 -0.000116526 0.0010447 0 0 0 0
716000000 0.891566157 0.012984263 0.000121819 0.001304004 0 0 0 0
724000000 0.829870223 -0.261846631 0.000331075 0.001375629 0 0 0 0
732000000 0.681672155 -0.509111881 0.000503774 0.001680989 0 0 0 0
740000000 0.443584918 -0.699461817 0.000779205 0.001748158 0 0 0 0
748000000 0.137804165 -0.789748609 0.001079025 0.001494357 0 0 0 0
756000000 -0.195208117 -0.745624542 0.001218268 0.001212927 0 0 0 0
764000000 -0.487960189 -0.543947458 0.001390303 0.000663811 0 0 0 0
772000000 -0.649669826 -0.193049848 0.001716447 0.000270476 0 0 0 0
780000000 -0.575482726 0.22568348 0.001688299 -0.000488343 0 0 0 0
788000000 -0.231370389 0.526282787 0.000889082 -0.001612916 0 0 0 0
796000000 0.246069908 0.507345497 -0.001570978 -0.002213181 0 0 0 0
804000000 0.566459655 0.161210447 -0.004027015 -0.000290366 0 0 0 0
812000000 0.54482764 -0.284569591 -0.003647701 0.00374551 0 0 0 0
820000000 0.265954881 -0.573023438 7.5584e-05 0.005947619 0 0 0 0
828000000 -0.104355134 -0.639057695 0.003338436 0.005466607 0 0 0 0
836000000 -0.416295945 -0.511785209 0.006290159 0.003086635 0 0 0 0
844000000 -0.62310189 -0.280494362 0.008145365 -7.0972e-05 0 0 0 0
852000000 -0.709843873 -0.005987201 0.009057713 -0.004006606 0 0 0 0
860000000 -0.679732918 0.256609559 0.00841219 -0.008247804 0 0 0 0
868000000 -0.548055768 0.464008808 0.005994124 -0.013738032 0 0 0 0
876000000 -0.34227994 0.586001455 -0.000241257 -0.018785215 0 0 0 0
884000000 -0.116402827 0.590200603 -0.012075841 -0.019922764 0 0 0 0
892000000 0.077627144 0.471346616 -0.027241401 -0.010832786 0 0 0 0
900000000 0.325009852 0.25181055 -0.033280808 0.015081234 0 0 0 0
908000000 0.270170897 0.129332333 -0.014409487 0.039991248 0 0 0 0
916000000 0.192997917 0.087916791 0.020532408 0.040998246 0 0 0 0
924000000 0.14751847 0.070622153 0.044098373 0.012815763 0 0 0 0
932000000 0.061775669 0.102946631 0.037135437 -0.024267854 0 0 0 0
940000000 0.073770977 0.271642804 0.006181422 -0.035676866 0 0 0 0
948000000 0.295101791 0.342160433 -0.012986808 -0.022516209 0 0 0 0
956000000 0.47979024 0.212256163 -0.016441807 -0.009983183 0 0 0 0
964000000 0.571444988 -0.022683739 -0.014514381 -0.000398831 0 0 0 0
972000000 0.495437204 -0.279148966 -0.010263573 0.005058519 0 0 0 0
980000000 0.296538412 -0.473753333 -0.005393312 0.006506639 0 0 0 0
988000000 0.019050709 -0.549546897 -0.002374736 0.006679486 0 0 0 0
996000000 -0.25639379 -0.501916646 0.000242652 0.00482273 0 0 0 0
1004000000 -0.492508798 -0.36196047 0.000502696 0.004331456 0 0 0 0
