# Hz S RI R 50
700000000 0.764740884 0.53548187 5.6718e-05 0.000775507 0 0 0 0
708000000 0.863637447 0.286100178 0.000148948 0.001007802 0 0 0 0
716000000 0.8922863 0.014795368 0.000249287 0.001236977 0 0 0 0
724000000 0.83083868 -0.260831713 0.000397763 0.001290527 0 0 0 0
732000000 0.681719064 -0.511135816 0.000644029 0.001484293 0 0 0 0
740000000 0.444012463 -0.699106097 0.000755697 0.001266196 0 0 0 0
748000000 0.134071394 -0.790471434 0.001030953 0.001130772 0 0 0 0
756000000 -0.196868091 -0.746373534 0.0012279 0.000721012 0 0 0 0
764000000 -0.494934171 -0.536365091 0.001079769 0.000623902 0 0 0 0
772000000 -0.649058222 -0.179476007 0.001195095 6.7834e-05 0 0 0 0
780000000 -0.570501148 0.237335115 0.000728454 -0.000217973 0 0 0 0
788000000 -0.208953544 0.530011534 0.000183967 -0.00070904 0 0 0 0
796000000 0.273057013 0.491932421 -0.001042342 -0.000600112 0 0 0 0
804000000 0.571496188 0.125425845 -0.00233355 0.000615117 0 0 0 0
812000000 0.520392656 -0.31511116 -0.001745023 0.003104525 0 0 0 0
820000000 0.226554766 -0.582289993 0.000439146 0.004091202 0 0 0 0
828000000 -0.142016053 -0.621860027 0.0026751 0.003511095 0 0 0 0
836000000 -0.437854021 -0.479587584 0.004659668 0.002378408 0 0 0 0
844000000 -0.623982131 -0.238917425 0.006390372 0.000176354 0 0 0 0
852000000 -0.691807985 0.029389657 0.007471115 -0.002687515 0 0 0 0
860000000 -0.647643864 0.283911108 0.007773002 -0.006312521 0 0 0 0
868000000 -0.506237804 0.468979984 0.006575873 -0.011277785 0 0 0 0
876000000 -0.298383474 0.565514385 0.001926328 -0.016747385 0 0 0 0
884000000 -0.088270299 0.542153 -0.008535088 -0.019922155 0 0 0 0
892000000 0.067710049 0.412463188 -0.023428406 -0.014137096 0 0 0 0
900000000 0.285064548 0.199111938 -0.033921845 0.009704589 0 0 0 0
908000000 0.220002695 0.112079471 -0.020753916 0.036374635 0 0 0 0
916000000 0.142177015 0.089653879 0.014988739 0.043892201 0 0 0 0
924000000 0.089976161 0.107307814 0.044428404 0.016473211 0 0 0 0
932000000 0.048758715 0.204562857 0.03687518 -0.022443385 0 0 0 0
940000000 0.129550784 0.337468087 0.007045743 -0.032145746 0 0 0 0
948000000 0.370217055 0.355529934 -0.009645387 -0.020373113 0 0 0 0
956000000 0.534796655 0.185016721 -0.012889133 -0.009529221 0 0 0 0
964000000 0.601281166 -0.067336417 -0.0120987 -0.001791676 0 0 0 0
972000000 0.489821374 -0.306049972 -0.00915434 0.002260216 0 0 0 0
980000000 0.269781768 -0.497882992 -0.005792202 0.004148222 0 0 0 0
988000000 0.002780512 -0.556979954 -0.003592935 0.005187334 0 0 0 0
996000000 -0.27885124 -0.502735972 -0.001841851 0.00446086 0 0 0 0
1004000000 -0.517381012 -0.35719949 -0.000744149 0.004168896 0 0 0 0
