# Hz S RI R 50
700000000 0.766551136 0.530491888 0.00013565 0.000658199 0 0 0 0
708000000 0.862456977 0.285666167 -7.22e-07 0.000993119 0 0 0 0
716000000 0.891382217 0.015946747 0.000185874 0.001213275 0 0 0 0
724000000 0.831361413 -0.262475878 0.00031238 0.001358695 0 0 0 0
732000000 0.680832445 -0.510337233 0.0006093 0.001480037 0 0 0 0
740000000 0.443397223 -0.700070202 0.000792127 0.001383885 0 0 0 0
748000000 0.138773649 -0.787409186 0.00119132 0.001330845 0 0 0 0
756000000 -0.195882767 -0.742292404 0.001123186 0.001050441 0 0 0 0
764000000 -0.486843943 -0.531996011 0.00131362 0.000692468 0 0 0 0
772000000 -0.640842914 -0.181636929 0.001140982 0.000188676 0 0 0 0
780000000 -0.552821934 0.230545639 0.001023439 -0.000119661 0 0 0 0
788000000 -0.198061719 0.51028645 0.000473721 -0.000814331 0 0 0 0
796000000 0.265675514 0.459240943 -0.000999286 -0.001434822 0 0 0 0
804000000 0.53711152 0.102650508 -0.002972783 3.8157e-05 0 0 0 0
812000000 0.48142156 -0.313400089 -0.00280469 0.00279893 0 0 0 0
820000000 0.195573866 -0.556405723 -0.000323344 0.004631555 0 0 0 0
828000000 -0.155258223 -0.580682337 0.002384271 0.004622989 0 0 0 0
836000000 -0.431774109 -0.434420973 0.0047923 0.003246629 0 0 0 0
844000000 -0.594198465 -0.205004006 0.006930312 0.00103573 0 0 0 0
852000000 -0.641608417 0.046301543 0.008423553 -0.002291885 0 0 0 0
860000000 -0.588122308 0.278244853 0.008978316 -0.006350311 0 0 0 0
868000000 -0.447154462 0.425679713 0.00753703 -0.012173335 0 0 0 0
876000000 -0.271464973 0.486177623 0.002159609 -0.018185717 0 0 0 0
884000000 -0.115729019 0.444724142 -0.009236516 -0.020752249 0 0 0 0
892000000 -0.025033874 0.34790036 -0.024420307 -0.013807713 0 0 0 0
900000000 0.167055949 0.227186679 -0.032663106 0.009109744 0 0 0 0
908000000 0.143609106 0.199652731 -0.020104043 0.034108169 0 0 0 0
916000000 0.134067445 0.207334026 0.011862196 0.040878623 0 0 0 0
924000000 0.140922516 0.198743596 0.038712497 0.018290184 0 0 0 0
932000000 0.139055743 0.241220027 0.03418694 -0.016101844 0 0 0 0
940000000 0.221261069 0.318587034 0.010820861 -0.026321467 0 0 0 0
948000000 0.429733395 0.286000788 -0.004922356 -0.020430512 0 0 0 0
956000000 0.556620776 0.115024358 -0.009799744 -0.012098711 0 0 0 0
964000000 0.558742284 -0.11513327 -0.011156281 -0.005479943 0 0 0 0
972000000 0.447945863 -0.34201923 -0.010110727 -5.0445e-05 0 0 0 0
980000000 0.223819628 -0.515530645 -0.007489075 0.003071093 0 0 0 0
988000000 -0.033624444 -0.552155435 -0.005272767 0.004811175 0 0 0 0
996000000 -0.31545794 -0.477152287 -0.003568098 0.004682419 0 0 0 0
1004000000 -0.515457749 -0.335792064 -0.002548953 0.004820033 0 0 0 0
