# Hz S RI R 50
700000000 0.767088055 0.533314526 -8.8049e-05 0.000698169 0 0 0 0
708000000 0.863789916 0.284202963 -0.000108212 0.000807573 0 0 0 0
716000000 0.890044391 0.016995046 4.3637e-05 0.001271339 0 0 0 0
724000000 0.825002253 -0.257820755 4.0129e-05 0.001598397 0 0 0 0
732000000 0.681050777 -0.511815905 0.000201971 0.001562042 0 0 0 0
740000000 0.441669434 -0.698698997 0.000807031 0.001670964 0 0 0 0
748000000 0.135901153 -0.78718698 0.001088127 0.001433156 0 0 0 0
756000000 -0.197977572 -0.743878662 0.001075072 0.001413533 0 0 0 0
764000000 -0.487038254 -0.534133255 0.001677132 0.001189549 0 0 0 0
772000000 -0.638243496 -0.177383393 0.002166507 0.000628204 0 0 0 0
780000000 -0.553143501 0.231369227 0.002430547 -0.000542949 0 0 0 0
788000000 -0.199734359 0.508837819 0.001666629 -0.00236607 0 0 0 0
796000000 0.264690965 0.457489609 -0.001092183 -0.004040963 0 0 0 0
804000000 0.54091525 0.104399941 -0.00551935 -0.00198529 0 0 0 0
812000000 0.483923017 -0.311742275 -0.006182244 0.00347944 0 0 0 0
820000000 0.197791442 -0.555166006 -0.00243647 0.007452297 0 0 0 0
828000000 -0.150858044 -0.583934783 0.002256063 0.008161815 0 0 0 0
836000000 -0.42990005 -0.439354509 0.006551968 0.006226575 0 0 0 0
844000000 -0.595627665 -0.205797359 0.010098685 0.002734063 0 0 0 0
852000000 -0.64612919 0.046458285 0.012348346 -0.002571882 0 0 0 0
860000000 -0.592315852 0.27342081 0.012829713 -0.008764042 0 0 0 0
868000000 -0.45430389 0.433636367 0.009949451 -0.017347067 0 0 0 0
876000000 -0.272157073 0.493946552 0.000703688 -0.024876762 0 0 0 0
884000000 -0.105738811 0.457012891 -0.015988102 -0.026096401 0 0 0 0
892000000 -0.01252154 0.348495692 -0.034671355 -0.012421955 0 0 0 0
900000000 0.170600831 0.214700177 -0.040202639 0.019877916 0 0 0 0
908000000 0.122126974 0.194704338 -0.01530048 0.045866794 0 0 0 0
916000000 0.127133309 0.21014437 0.022589629 0.044280838 0 0 0 0
924000000 0.14664109 0.208881884 0.046341758 0.014077969 0 0 0 0
932000000 0.139516398 0.232927709 0.03769971 -0.022951941 0 0 0 0
940000000 0.217345491 0.317089378 0.009616041 -0.032632052 0 0 0 0
948000000 0.416628748 0.287335395 -0.007311913 -0.023667614 0 0 0 0
956000000 0.547810018 0.125801607 -0.013406294 -0.013720449 0 0 0 0
964000000 0.557494461 -0.119251199 -0.014245938 -0.004402597 0 0 0 0
972000000 0.454456478 -0.333759129 -0.012069299 0.002152946 0 0 0 0
980000000 0.239574462 -0.499107003 -0.007821712 0.005578556 0 0 0 0
988000000 -0.026896813 -0.542930722 -0.004723208 0.006080543 0 0 0 0
996000000 -0.299033939 -0.471956044 -0.002505928 0.006422414 0 0 0 0
1004000000 -0.508146524 -0.334171146 -0.000869943 0.005506554 0 0 0 0
