# Hz S RI R 50
700000000 0.76579982 0.532457411 1.108e-06 0.000788357 0 0 0 0
708000000 0.868528366 0.285713762 -3.7605e-05 0.001176132 0 0 0 0
716000000 0.894070863 0.011897307 0.000252531 0.00127077 0 0 0 0
724000000 0.835217356 -0.262182652 0.000215204 0.001584144 0 0 0 0
732000000 0.686100423 -0.511088788 0.000509415 0.001608567 0 0 0 0
740000000 0.449417293 -0.702549576 0.00106275 0.001746319 0 0 0 0
748000000 0.142750218 -0.797407984 0.001387347 0.001312027 0 0 0 0
756000000 -0.192029818 -0.755635023 0.001650293 0.001098256 0 0 0 0
764000000 -0.487881183 -0.554038286 0.001840385 0.000507721 0 0 0 0
772000000 -0.65438044 -0.205838084 0.001795785 -3.2371e-05 0 0 0 0
780000000 -0.592978954 0.216509476 0.001673484 -0.001044505 0 0 0 0
788000000 -0.253994137 0.527469456 0.000787829 -0.002144245 0 0 0 0
796000000 0.227754563 0.524642825 -0.00174085 -0.003115124 0 0 0 0
804000000 0.565010726 0.189401119 -0.004685269 -0.001547767 0 0 0 0
812000000 0.566160261 -0.262040555 -0.00526945 0.002793145 0 0 0 0
820000000 0.290754437 -0.567206561 -0.00230119 0.005693511 0 0 0 0
828000000 -0.081025056 -0.643473565 0.000969456 0.006340319 0 0 0 0
836000000 -0.399680584 -0.530297994 0.004047669 0.005153993 0 0 0 0
844000000 -0.616688966 -0.299688041 0.006696878 0.003238201 0 0 0 0
852000000 -0.709582567 -0.032108347 0.00836094 0.000797208 0 0 0 0
860000000 -0.693913042 0.230301141 0.010096592 -0.002643072 0 0 0 0
868000000 -0.577353179 0.445567339 0.011184749 -0.007600499 0 0 0 0
876000000 -0.387411504 0.569617807 0.009877155 -0.01466864 0 0 0 0
884000000 -0.172781109 0.602753579 0.003318105 -0.022297421 0 0 0 0
892000000 0.016962384 0.528779864 -0.011038799 -0.026647591 0 0 0 0
900000000 0.330330312 0.358166664 -0.032977845 -0.017168916 0 0 0 0
908000000 0.354576349 0.210527688 -0.045408338 0.010993475 0 0 0 0
916000000 0.315790712 0.083045192 -0.029716115 0.045914646 0 0 0 0
924000000 0.219031512 0.010674185 0.012746414 0.05890721 0 0 0 0
932000000 0.09638565 0.029170695 0.053738821 0.029890008 0 0 0 0
940000000 0.05823864 0.167239531 0.054267026 -0.01788702 0 0 0 0
948000000 0.21065618 0.294257193 0.02184306 -0.042877715 0 0 0 0
956000000 0.389374256 0.225671753 -0.008062296 -0.036899227 0 0 0 0
964000000 0.514360547 0.027779946 -0.021363122 -0.01842739 0 0 0 0
972000000 0.472428709 -0.222073495 -0.020722877 -0.003502183 0 0 0 0
980000000 0.304291456 -0.435464859 -0.01573719 0.004094995 0 0 0 0
988000000 0.038743846 -0.526687562 -0.00964481 0.008110933 0 0 0 0
996000000 -0.240776807 -0.490477234 -0.005826388 0.008888467 0 0 0 0
1004000000 -0.473344534 -0.360959798 -0.003588302 0.008845401 0 0 0 0
