# Hz S RI R 50
700000000 0.767267942 0.533341288 2.1755e-05 0.000798303 0 0 0 0
708000000 0.865404784 0.284917116 6.2379e-05 0.001132437 0 0 0 0
716000000 0.893483579 0.011813455 0.000283686 0.001238625 0 0 0 0
724000000 0.829130828 -0.265137135 0.000274912 0.001474961 0 0 0 0
732000000 0.681820333 -0.512192845 0.000740642 0.001433498 0 0 0 0
740000000 0.444135338 -0.703613698 0.001117114 0.00144311 0 0 0 0
748000000 0.136399701 -0.795833945 0.0013057 0.001184978 0 0 0 0
756000000 -0.197284221 -0.750242829 0.001504917 0.001006793 0 0 0 0
764000000 -0.494536727 -0.545588612 0.00157732 0.000259985 0 0 0 0
772000000 -0.654580831 -0.18969877 0.001538444 -0.000238058 0 0 0 0
780000000 -0.578536748 0.233522966 0.001290046 -0.000815046 0 0 0 0
788000000 -0.224848225 0.532413423 0.000340786 -0.00150501 0 0 0 0
796000000 0.258409947 0.500755786 -0.001524532 -0.00198338 0 0 0 0
804000000 0.572805523 0.14641942 -0.003426701 -0.000436478 0 0 0 0
812000000 0.536931872 -0.303938001 -0.003019467 0.002704823 0 0 0 0
820000000 0.246025949 -0.582813918 -0.000731578 0.004179864 0 0 0 0
828000000 -0.125940814 -0.629146754 0.001545582 0.004181358 0 0 0 0
836000000 -0.431198388 -0.496069401 0.003417428 0.002842663 0 0 0 0
844000000 -0.625355064 -0.255627959 0.004824941 0.001370324 0 0 0 0
852000000 -0.700749814 0.015718018 0.005912162 -0.000551351 0 0 0 0
860000000 -0.658204019 0.269057571 0.00681317 -0.002374736 0 0 0 0
868000000 -0.514719069 0.463946431 0.007721746 -0.005679039 0 0 0 0
876000000 -0.311595082 0.56069678 0.007194138 -0.01036291 0 0 0 0
884000000 -0.117760255 0.538115918 0.003229341 -0.016143772 0 0 0 0
892000000 0.023530807 0.425722122 -0.00692859 -0.020179344 0 0 0 0
900000000 0.248953074 0.272586196 -0.024410398 -0.014708842 0 0 0 0
908000000 0.249389648 0.201715916 -0.033171519 0.007352602 0 0 0 0
916000000 0.253355562 0.153010442 -0.02144204 0.031830027 0 0 0 0
924000000 0.204640671 0.072423651 0.007129858 0.040019091 0 0 0 0
932000000 0.11361704 0.075133554 0.034744359 0.022939117 0 0 0 0
940000000 0.084464795 0.209000587 0.037468913 -0.008144821 0 0 0 0
948000000 0.247668966 0.309731066 0.018859388 -0.027030464 0 0 0 0
956000000 0.434956341 0.220316916 -0.001339059 -0.02603155 0 0 0 0
964000000 0.543181419 0.00616669 -0.012064169 -0.015082316 0 0 0 0
972000000 0.497525334 -0.253638684 -0.013770658 -0.005189104 0 0 0 0
980000000 0.304776102 -0.463178783 -0.011290051 -4.574e-05 0 0 0 0
988000000 0.033686202 -0.536771297 -0.008720112 0.00402666 0 0 0 0
996000000 -0.247389078 -0.497616738 -0.005810889 0.004512899 0 0 0 0
1004000000 -0.496258854 -0.355487048 -0.004967714 0.005214406 0 0 0 0
