# Hz S RI R 50
700000000 0.76778686 0.530548989 3.3898e-05 0.000815043 0 0 0 0
708000000 0.864384233 0.286728918 0.000105306 0.000973712 0 0 0 0
716000000 0.892019152 0.011679715 7.0647e-05 0.001142741 0 0 0 0
724000000 0.831840634 -0.266056865 0.000469014 0.001382944 0 0 0 0
732000000 0.679909348 -0.514470338 0.000460541 0.001363394 0 0 0 0
740000000 0.445146322 -0.701390981 0.000821601 0.001534488 0 0 0 0
748000000 0.136060893 -0.791775345 0.001315218 0.001450343 0 0 0 0
756000000 -0.199323564 -0.74667859 0.001622759 0.000863017 0 0 0 0
764000000 -0.496284693 -0.539173722 0.001652309 0.000467866 0 0 0 0
772000000 -0.6537202 -0.183813944 0.001406502 -0.000155176 0 0 0 0
780000000 -0.571118354 0.236188828 0.001311123 -0.000483089 0 0 0 0
788000000 -0.213022202 0.530121862 0.000632591 -0.001299226 0 0 0 0
796000000 0.267879873 0.492550134 -0.001233709 -0.001764829 0 0 0 0
804000000 0.567828774 0.130864247 -0.002755809 -0.000294743 0 0 0 0
812000000 0.525370895 -0.307810157 -0.002689514 0.001930233 0 0 0 0
820000000 0.234537556 -0.578983902 -0.000807581 0.003359548 0 0 0 0
828000000 -0.133781999 -0.623462677 0.000744032 0.003180455 0 0 0 0
836000000 -0.431450188 -0.485117107 0.002227007 0.002701626 0 0 0 0
844000000 -0.623642802 -0.247170045 0.003434267 0.00189393 0 0 0 0
852000000 -0.689844548 0.023030202 0.005064129 0.000903397 0 0 0 0
860000000 -0.649976015 0.274178862 0.006741874 -0.000435462 0 0 0 0
868000000 -0.508310377 0.457354635 0.008759025 -0.003624596 0 0 0 0
876000000 -0.308829456 0.551752865 0.010096373 -0.009159333 0 0 0 0
884000000 -0.117161005 0.52734059 0.006664582 -0.017147861 0 0 0 0
892000000 0.023391311 0.412145853 0.001042105 -0.018883284 0 0 0 0
900000000 0.247547343 0.260630637 -0.026668196 -0.019046006 0 0 0 0
908000000 0.236784294 0.205220997 -0.039691112 0.003616795 0 0 0 0
916000000 0.237733751 0.145345211 -0.0286724 0.0350639 0 0 0 0
924000000 0.198658481 0.079847067 0.00558303 0.048032805 0 0 0 0
932000000 0.108412094 0.083201855 0.039832688 0.02863999 0 0 0 0
940000000 0.078375376 0.222674161 0.043990209 -0.00971687 0 0 0 0
948000000 0.263813316 0.31088683 0.020313965 -0.03014381 0 0 0 0
956000000 0.453933984 0.225874036 -0.002892521 -0.028029913 0 0 0 0
964000000 0.556601822 -0.000546404 -0.013187213 -0.01697438 0 0 0 0
972000000 0.493498116 -0.268908083 -0.014415553 -0.005770289 0 0 0 0
980000000 0.298277556 -0.468733191 -0.011972598 0.000787418 0 0 0 0
988000000 0.030043551 -0.547215878 -0.009172332 0.003959154 0 0 0 0
996000000 -0.248688906 -0.503148853 -0.00726233 0.00577148 0 0 0 0
1004000000 -0.496551275 -0.347557723 -0.005649094 0.005430022 0 0 0 0
