# Hz S RI R 50
700000000 0.763907492 0.528499662 0.000104521 0.000692305 0 0 0 0
708000000 0.866749048 0.282723993 0.000109109 0.000886103 0 0 0 0
716000000 0.891992151 0.013057516 0.000265755 0.001145692 0 0 0 0
724000000 0.826353251 -0.263818502 0.000204619 0.001541321 0 0 0 0
732000000 0.682678043 -0.512425482 0.000453351 0.001543128 0 0 0 0
740000000 0.444419026 -0.703945517 0.000871076 0.001561784 0 0 0 0
748000000 0.135060176 -0.793267846 0.001287254 0.001390054 0 0 0 0
756000000 -0.198341935 -0.751158416 0.001560005 0.000817977 0 0 0 0
764000000 -0.495975375 -0.543264389 0.00154267 0.000625165 0 0 0 0
772000000 -0.655761659 -0.186578363 0.001634441 -3.2417e-05 0 0 0 0
780000000 -0.579966366 0.232035085 0.001356684 -0.000608101 0 0 0 0
788000000 -0.222754776 0.532789409 0.000522657 -0.001509278 0 0 0 0
796000000 0.262972325 0.504758894 -0.001190734 -0.001967978 0 0 0 0
804000000 0.574906826 0.143827617 -0.003210487 -0.000642373 0 0 0 0
812000000 0.537613689 -0.30582875 -0.003117325 0.002209901 0 0 0 0
820000000 0.247156828 -0.581680476 -0.000796256 0.003739179 0 0 0 0
828000000 -0.122896313 -0.631985247 0.001078219 0.003750181 0 0 0 0
836000000 -0.43143016 -0.497890919 0.002983001 0.002750411 0 0 0 0
844000000 -0.625126242 -0.259993195 0.00432635 0.001483669 0 0 0 0
852000000 -0.702596426 0.008000942 0.005397243 0.000135884 0 0 0 0
860000000 -0.664883077 0.265176713 0.006716559 -0.001244551 0 0 0 0
868000000 -0.525291979 0.466329008 0.008009016 -0.00426581 0 0 0 0
876000000 -0.318132013 0.566141486 0.008527272 -0.009317797 0 0 0 0
884000000 -0.113346904 0.555113494 0.005318424 -0.016166619 0 0 0 0
892000000 0.020373241 0.443173229 -0.004122886 -0.021735409 0 0 0 0
900000000 0.275554746 0.266660034 -0.024884073 -0.016891358 0 0 0 0
908000000 0.26255089 0.193475618 -0.037255298 0.003564419 0 0 0 0
916000000 0.24637556 0.125974342 -0.026965068 0.032692894 0 0 0 0
924000000 0.198362842 0.061822429 0.004807054 0.046273481 0 0 0 0
932000000 0.099559664 0.0714349 0.0379243 0.027340622 0 0 0 0
940000000 0.05740099 0.214989349 0.042364597 -0.00801852 0 0 0 0
948000000 0.249921292 0.336788445 0.020421035 -0.029044251 0 0 0 0
956000000 0.449620634 0.239825949 -0.001194018 -0.027438152 0 0 0 0
964000000 0.551137447 0.007141752 -0.01208563 -0.016513913 0 0 0 0
972000000 0.499565511 -0.260501354 -0.013692758 -0.006860445 0 0 0 0
980000000 0.31007269 -0.466933459 -0.012587541 -0.000386722 0 0 0 0
988000000 0.030034998 -0.54387325 -0.009250587 0.003628178 0 0 0 0
996000000 -0.254754751 -0.495068609 -0.006713607 0.005391709 0 0 0 0
1004000000 -0.493668317 -0.363000571 -0.005472779 0.005658879 0 0 0 0
