# Hz S RI R 50
700000000 0.767471075 0.529441237 0.00013133 0.000730583 0 0 0 0
708000000 0.866521537 0.283894896 3.2834e-05 0.000969786 0 0 0 0
716000000 0.890701591 0.01413785 0.000130469 0.001268358 0 0 0 0
724000000 0.833818376 -0.263507276 0.000182119 0.001439125 0 0 0 0
732000000 0.680555939 -0.511759638 0.000489792 0.00150587 0 0 0 0
740000000 0.444084465 -0.70385158 0.001033952 0.001584878 0 0 0 0
748000000 0.134234607 -0.796349406 0.001281305 0.00125738 0 0 0 0
756000000 -0.20000793 -0.749179661 0.001404472 0.001067301 0 0 0 0
764000000 -0.496784955 -0.538732647 0.001477678 0.00050163 0 0 0 0
772000000 -0.650791108 -0.18188925 0.001512213 -8.7126e-05 0 0 0 0
780000000 -0.572341978 0.235075742 0.001213175 -0.000381682 0 0 0 0
788000000 -0.214293435 0.528040826 0.000527182 -0.001339798 0 0 0 0
796000000 0.267726242 0.49061194 -0.001177383 -0.001904606 0 0 0 0
804000000 0.568516075 0.129744738 -0.002948552 -0.000286564 0 0 0 0
812000000 0.527318954 -0.310611844 -0.002683229 0.002073579 0 0 0 0
820000000 0.232101947 -0.579669833 -0.000717397 0.003486336 0 0 0 0
828000000 -0.133811786 -0.623195707 0.000979944 0.003460574 0 0 0 0
836000000 -0.432924121 -0.486205071 0.002407735 0.002631181 0 0 0 0
844000000 -0.620841503 -0.248739421 0.003823744 0.001816505 0 0 0 0
852000000 -0.690501034 0.021175233 0.005094309 0.000685518 0 0 0 0
860000000 -0.649805665 0.272436589 0.007026991 -0.000776676 0 0 0 0
868000000 -0.507819712 0.460957914 0.008763968 -0.004190502 0 0 0 0
876000000 -0.310489803 0.549600541 0.00940972 -0.009527533 0 0 0 0
884000000 -0.111146703 0.531447649 0.005984249 -0.01721983 0 0 0 0
892000000 0.022398211 0.390284121 -0.020558292 -0.030396422 0 0 0 0
900000000 0.24558185 0.26612699 -0.027044355 -0.018194964 0 0 0 0
908000000 0.244967043 0.195848479 -0.039699126 0.005893353 0 0 0 0
916000000 0.239434644 0.143082842 -0.027070997 0.036374535 0 0 0 0
924000000 0.191026344 0.066860921 0.007968042 0.047669518 0 0 0 0
932000000 0.08997637 0.085748024 0.041389696 0.025671454 0 0 0 0
940000000 0.075922138 0.241697102 0.041623722 -0.012045959 0 0 0 0
948000000 0.271077841 0.333748072 0.017642933 -0.030429279 0 0 0 0
956000000 0.467064261 0.229921981 -0.003149156 -0.026793513 0 0 0 0
964000000 0.562603414 -0.008299279 -0.012633706 -0.015123487 0 0 0 0
972000000 0.503928959 -0.273358702 -0.013790797 -0.006127004 0 0 0 0
980000000 0.283916711 -0.471761882 -0.011556445 0.000296033 0 0 0 0
988000000 0.02203235 -0.552808463 -0.008374636 0.003522481 0 0 0 0
996000000 -0.258203178 -0.498247385 -0.006527634 0.004416085 0 0 0 0
1004000000 -0.496448636 -0.360512048 -0.004618968 0.004745149 0 0 0 0
