# Hz S RI R 50
700000000 0.768351733 0.527444243 3.7217e-05 0.000691726 0 0 0 0
708000000 0.869183897 0.284324645 0.000172332 0.00090962 0 0 0 0
716000000 0.893116354 0.011898314 0.00023212 0.001202008 0 0 0 0
724000000 0.830592632 -0.263077318 0.000158243 0.001430155 0 0 0 0
732000000 0.682162225 -0.512607216 0.000633092 0.001550381 0 0 0 0
740000000 0.445590108 -0.703562855 0.000763372 0.001408676 0 0 0 0
748000000 0.136196002 -0.79480642 0.001195785 0.001487031 0 0 0 0
756000000 -0.198378399 -0.749769866 0.001363629 0.001051653 0 0 0 0
764000000 -0.49598664 -0.543386638 0.001614463 0.000653623 0 0 0 0
772000000 -0.653470456 -0.18345867 0.001512352 0.0001192 0 0 0 0
780000000 -0.579696059 0.233717441 0.001733956 -0.000640473 0 0 0 0
788000000 -0.222261771 0.532179236 0.000761095 -0.001507784 0 0 0 0
796000000 0.265578895 0.506230533 -0.001250849 -0.002351942 0 0 0 0
804000000 0.576910376 0.144387498 -0.003559506 -0.000943098 0 0 0 0
812000000 0.538427412 -0.303554505 -0.003582514 0.002256945 0 0 0 0
820000000 0.248293206 -0.584912359 -0.001144185 0.00428873 0 0 0 0
828000000 -0.121435828 -0.63260442 0.001027786 0.004326503 0 0 0 0
836000000 -0.431257069 -0.500800967 0.003101752 0.003347299 0 0 0 0
844000000 -0.628510534 -0.266094982 0.004496355 0.001749855 0 0 0 0
852000000 -0.704143345 0.006537014 0.005939083 5.5411e-05 0 0 0 0
860000000 -0.667363762 0.267979562 0.007174578 -0.001682242 0 0 0 0
868000000 -0.527719378 0.465328782 0.008369183 -0.005063313 0 0 0 0
876000000 -0.321951776 0.568776607 0.008459979 -0.010008838 0 0 0 0
884000000 -0.112547561 0.556478321 0.004576721 -0.016701858 0 0 0 0
892000000 0.042673032 0.435517162 -0.005984868 -0.021700171 0 0 0 0
900000000 0.269515633 0.279964298 -0.025092856 -0.0165567 0 0 0 0
908000000 0.263986051 0.194450229 -0.036569017 0.005111739 0 0 0 0
916000000 0.254148781 0.12390162 -0.02532684 0.033586602 0 0 0 0
924000000 0.201213791 0.051261115 0.005801672 0.044733721 0 0 0 0
932000000 0.092482276 0.074028261 0.037935737 0.026977002 0 0 0 0
940000000 0.067237421 0.217117711 0.041713763 -0.009539777 0 0 0 0
948000000 0.248345822 0.330479383 0.01940014 -0.030389035 0 0 0 0
956000000 0.452737808 0.225244477 -0.002377514 -0.027508579 0 0 0 0
964000000 0.557313144 0.004782435 -0.01328121 -0.015773069 0 0 0 0
972000000 0.501511156 -0.256464391 -0.014286504 -0.005678281 0 0 0 0
980000000 0.307547003 -0.463910549 -0.01178804 0.000630976 0 0 0 0
988000000 0.037089005 -0.544443786 -0.0090074 0.004078818 0 0 0 0
996000000 -0.256635576 -0.491621971 -0.006540487 0.005089055 0 0 0 0
1004000000 -0.496016204 -0.353716582 -0.004590275 0.006157107 0 0 0 0
