# Hz S RI R 50
700000000 0.764868974 0.527367413 5.4377e-05 0.0007072 0 0 0 0
708000000 0.86315751 0.286062628 2.0368e-05 0.000931898 0 0 0 0
716000000 0.889432966 0.014344601 8.8859e-05 0.001119228 0 0 0 0
724000000 0.835147261 -0.261946052 0.000446823 0.001506065 0 0 0 0
732000000 0.682137191 -0.512403368 0.00072088 0.001614878 0 0 0 0
740000000 0.442646682 -0.704147338 0.000875268 0.001471348 0 0 0 0
748000000 0.137549698 -0.796797633 0.001290315 0.001367412 0 0 0 0
756000000 -0.199849098 -0.752232313 0.001545461 0.001088118 0 0 0 0
764000000 -0.494207829 -0.544317007 0.001507288 0.000504473 0 0 0 0
772000000 -0.652946949 -0.18516846 0.001690131 -0.00012875 0 0 0 0
780000000 -0.577854096 0.233642816 0.001412044 -0.000507342 0 0 0 0
788000000 -0.221615165 0.532117605 0.000562954 -0.001376719 0 0 0 0
796000000 0.262539833 0.50083214 -0.001113587 -0.002136553 0 0 0 0
804000000 0.572695016 0.14307563 -0.003148601 -0.000623234 0 0 0 0
812000000 0.537811458 -0.305807769 -0.003174119 0.002247155 0 0 0 0
820000000 0.242551162 -0.586591482 -0.001164254 0.003995019 0 0 0 0
828000000 -0.128117322 -0.632444441 0.001102985 0.004036248 0 0 0 0
836000000 -0.434008508 -0.49439764 0.00319596 0.003147499 0 0 0 0
844000000 -0.626876711 -0.253237217 0.004627916 0.001713032 0 0 0 0
852000000 -0.697863698 0.019204378 0.005690995 -0.000151056 0 0 0 0
860000000 -0.655514657 0.276043653 0.006954327 -0.002038902 0 0 0 0
868000000 -0.516204416 0.468603432 0.008070533 -0.005417186 0 0 0 0
876000000 -0.303106307 0.559506297 0.007629225 -0.010251283 0 0 0 0
884000000 -0.103942438 0.535728752 0.003509715 -0.016411419 0 0 0 0
892000000 0.026707198 0.412828177 -0.006851434 -0.020365597 0 0 0 0
900000000 0.237339645 0.257643312 -0.024452324 -0.013810121 0 0 0 0
908000000 0.234602764 0.20696257 -0.033339701 0.006956672 0 0 0 0
916000000 0.24352698 0.149413004 -0.021199319 0.031095396 0 0 0 0
924000000 0.199233114 0.075913324 0.006782072 0.039456974 0 0 0 0
932000000 0.105267651 0.094339385 0.032541759 0.022168975 0 0 0 0
940000000 0.090855196 0.22593601 0.035313706 -0.006790661 0 0 0 0
948000000 0.266216576 0.311559915 0.018853342 -0.024997344 0 0 0 0
956000000 0.454131513 0.215883433 -0.000529797 -0.024482443 0 0 0 0
964000000 0.549248933 -0.011088594 -0.010323867 -0.01506359 0 0 0 0
972000000 0.489356368 -0.25129193 -0.013001375 -0.006592256 0 0 0 0
980000000 0.290833204 -0.45825091 -0.011651627 -0.001281166 0 0 0 0
988000000 0.033649563 -0.532188355 -0.00954663 0.00287251 0 0 0 0
996000000 -0.256696224 -0.490103155 -0.007116263 0.004029341 0 0 0 0
1004000000 -0.485858082 -0.350809365 -0.005205029 0.005389387 0 0 0 0
