# Hz S RI R 50
700000000 0.766204535 0.528756141 0.000177949 0.000750417 0 0 0 0
708000000 0.866317749 0.282407641 -1.5864e-05 0.000913335 0 0 0 0
716000000 0.890804171 0.018241045 0.000172503 0.001320731 0 0 0 0
724000000 0.828951895 -0.262148708 0.000313555 0.001591924 0 0 0 0
732000000 0.680349707 -0.514315128 0.000642875 0.001591657 0 0 0 0
740000000 0.44476211 -0.701387882 0.001060049 0.001536802 0 0 0 0
748000000 0.137205973 -0.794298291 0.0011627 0.00127252 0 0 0 0
756000000 -0.198004961 -0.75144726 0.001476096 0.000869742 0 0 0 0
764000000 -0.493308752 -0.542195796 0.001707257 0.000388636 0 0 0 0
772000000 -0.654521703 -0.182840332 0.001565496 -0.000198531 0 0 0 0
780000000 -0.576164245 0.230944588 0.001016893 -0.000911768 0 0 0 0
788000000 -0.219299703 0.53388077 0.000392308 -0.001568888 0 0 0 0
796000000 0.260513573 0.501798152 -0.001446898 -0.001679725 0 0 0 0
804000000 0.574150502 0.142804577 -0.003235058 -0.000309811 0 0 0 0
812000000 0.538405239 -0.3069126 -0.002891111 0.002630458 0 0 0 0
820000000 0.244392111 -0.585076451 -0.000562561 0.004263014 0 0 0 0
828000000 -0.127755463 -0.633498013 0.001411903 0.003906045 0 0 0 0
836000000 -0.435109943 -0.4976089 0.003203112 0.002981504 0 0 0 0
844000000 -0.631670713 -0.25661382 0.004686454 0.001247686 0 0 0 0
852000000 -0.701310753 0.017810592 0.005786378 -9.7882e-05 0 0 0 0
860000000 -0.657653033 0.276405453 0.006819543 -0.002236422 0 0 0 0
868000000 -0.516284823 0.468973547 0.007846168 -0.005336697 0 0 0 0
876000000 -0.305444389 0.559445679 0.007701351 -0.010349816 0 0 0 0
884000000 -0.104550085 0.53608489 0.00329102 -0.016505418 0 0 0 0
892000000 0.033955037 0.408747047 -0.007581934 -0.02057415 0 0 0 0
900000000 0.245360597 0.253802359 -0.024759208 -0.013864168 0 0 0 0
908000000 0.231095016 0.19855839 -0.033389005 0.008026 0 0 0 0
916000000 0.226535439 0.154459461 -0.020246915 0.031728729 0 0 0 0
924000000 0.19625239 0.092385269 0.008069844 0.038833726 0 0 0 0
932000000 0.1065455 0.093680322 0.033133469 0.021502323 0 0 0 0
940000000 0.094680748 0.221723541 0.03625128 -0.006936972 0 0 0 0
948000000 0.270653545 0.315046936 0.019136099 -0.025731081 0 0 0 0
956000000 0.450026422 0.209289744 -0.000417271 -0.026323473 0 0 0 0
964000000 0.552013993 -0.015237404 -0.012060578 -0.015509093 0 0 0 0
972000000 0.48705089 -0.258120983 -0.013867629 -0.005270326 0 0 0 0
980000000 0.299252778 -0.469507098 -0.011842847 0.000361632 0 0 0 0
988000000 0.030046798 -0.534855484 -0.008855387 0.00462928 0 0 0 0
996000000 -0.249363452 -0.49739322 -0.006180512 0.004375954 0 0 0 0
1004000000 -0.491569548 -0.351667702 -0.004492274 0.005172526 0 0 0 0
