# Hz S RI R 50
700000000 0.76130408 0.529430866 9.7904e-05 0.000835594 0 0 0 0
708000000 0.865812242 0.286078184 2.0598e-05 0.001118556 0 0 0 0
716000000 0.891676187 0.018785485 6.121e-05 0.001272761 0 0 0 0
724000000 0.83372116 -0.25753656 0.00030462 0.001452191 0 0 0 0
732000000 0.681637048 -0.510454773 0.000741569 0.001616284 0 0 0 0
740000000 0.446340262 -0.702688992 0.000965471 0.00139364 0 0 0 0
748000000 0.140605807 -0.793703973 0.001369244 0.001187781 0 0 0 0
756000000 -0.192449599 -0.749339997 0.001466903 0.000799298 0 0 0 0
764000000 -0.489096701 -0.550457835 0.00172514 0.000179664 0 0 0 0
772000000 -0.653847754 -0.195697799 0.001547459 -0.000469568 0 0 0 0
780000000 -0.58432722 0.227504283 0.001194201 -0.00103173 0 0 0 0
788000000 -0.234385952 0.530250489 0.000125885 -0.001827103 0 0 0 0
796000000 0.251814514 0.511451959 -0.001902999 -0.001936755 0 0 0 0
804000000 0.572681069 0.163345322 -0.003808356 -9.6694e-05 0 0 0 0
812000000 0.548383831 -0.289247483 -0.003025323 0.003129337 0 0 0 0
820000000 0.262193202 -0.577350795 -0.000547302 0.004447414 0 0 0 0
828000000 -0.114114105 -0.639161705 0.00167224 0.004251633 0 0 0 0
836000000 -0.423519641 -0.51212573 0.003648186 0.002914587 0 0 0 0
844000000 -0.624675452 -0.272764801 0.005055438 0.001620166 0 0 0 0
852000000 -0.705019235 0.003573715 0.006071693 -0.000249351 0 0 0 0
860000000 -0.672247946 0.264981985 0.007176663 -0.002604196 0 0 0 0
868000000 -0.533743739 0.46616128 0.008207904 -0.005974471 0 0 0 0
876000000 -0.32289496 0.575403988 0.007735701 -0.011073412 0 0 0 0
884000000 -0.107068583 0.556196212 0.003051147 -0.017492609 0 0 0 0
892000000 0.046200621 0.427864313 -0.007714668 -0.014857318 0 0 0 0
900000000 0.269041359 0.254325807 -0.027121081 -0.012952834 0 0 0 0
908000000 0.240250289 0.186065584 -0.035177305 0.010809707 0 0 0 0
916000000 0.236258119 0.140218645 -0.018877986 0.036021038 0 0 0 0
924000000 0.20088312 0.073284022 0.011872384 0.04043062 0 0 0 0
932000000 0.105036251 0.089038185 0.036087699 0.018778307 0 0 0 0
940000000 0.078142419 0.219047993 0.035750184 -0.011489491 0 0 0 0
948000000 0.25361976 0.317580223 0.016568543 -0.027165647 0 0 0 0
956000000 0.44489926 0.224981084 -0.003179172 -0.025699436 0 0 0 0
964000000 0.552386641 0.011213744 -0.012805976 -0.013797276 0 0 0 0
972000000 0.494938403 -0.258712351 -0.01351467 -0.004197067 0 0 0 0
980000000 0.316496878 -0.453759402 -0.011199357 0.000573786 0 0 0 0
988000000 0.037988085 -0.542821288 -0.00820692 0.003600166 0 0 0 0
996000000 -0.241771146 -0.495877951 -0.005834873 0.004596097 0 0 0 0
1004000000 -0.491283565 -0.35136792 -0.004211572 0.005738381 0 0 0 0
