# Hz S RI R 50
700000000 0.768066942 0.532825827 5.6247e-05 0.000819145 0 0 0 0
708000000 0.867615163 0.285088151 9.4341e-05 0.000789283 0 0 0 0
716000000 0.89492172 0.010729055 0.000178883 0.001150824 0 0 0 0
724000000 0.830864548 -0.258611321 0.000173249 0.001250135 0 0 0 0
732000000 0.678490221 -0.512207031 0.00058335 0.001664714 0 0 0 0
740000000 0.44151327 -0.701268851 0.000949662 0.001444042 0 0 0 0
748000000 0.134375154 -0.794224202 0.001368278 0.001384351 0 0 0 0
756000000 -0.201719462 -0.749150693 0.001389776 0.000943274 0 0 0 0
764000000 -0.497347295 -0.53746581 0.001644729 0.000389002 0 0 0 0
772000000 -0.650928318 -0.180112153 0.00154272 -0.000156093 0 0 0 0
780000000 -0.567458093 0.236653119 0.001281178 -0.000670605 0 0 0 0
788000000 -0.210418671 0.530738413 0.000665805 -0.001316437 0 0 0 0
796000000 0.269893765 0.491783231 -0.001129596 -0.001729568 0 0 0 0
804000000 0.569675087 0.127250626 -0.002888875 -0.000600369 0 0 0 0
812000000 0.521897077 -0.31477496 -0.002591132 0.002156401 0 0 0 0
820000000 0.229370012 -0.579031705 -0.000771713 0.003368078 0 0 0 0
828000000 -0.137424424 -0.622568249 0.000832787 0.003349015 0 0 0 0
836000000 -0.437336176 -0.48121345 0.002335833 0.002654607 0 0 0 0
844000000 -0.626321673 -0.239999815 0.003696002 0.001717444 0 0 0 0
852000000 -0.692616283 0.025272028 0.005259681 0.000764782 0 0 0 0
860000000 -0.646059215 0.270285606 0.006806949 -0.000739656 0 0 0 0
868000000 -0.504301011 0.459452807 0.008996028 -0.003952126 0 0 0 0
876000000 -0.304510712 0.548679351 0.009730233 -0.009392266 0 0 0 0
884000000 -0.110191054 0.526394426 0.006297506 -0.01746986 0 0 0 0
892000000 0.000163707 0.409639775 0.002436488 -0.020052522 0 0 0 0
900000000 0.244756743 0.265743166 -0.026629846 -0.018271086 0 0 0 0
908000000 0.243679806 0.200928062 -0.039192873 0.005051295 0 0 0 0
916000000 0.24417828 0.145527318 -0.028247619 0.034939989 0 0 0 0
924000000 0.201353877 0.070507027 0.006101972 0.048290319 0 0 0 0
932000000 0.107053153 0.084578439 0.040728386 0.027952777 0 0 0 0
940000000 0.080251194 0.212279409 0.044357258 -0.010666235 0 0 0 0
948000000 0.264487475 0.318896085 0.019309742 -0.030780788 0 0 0 0
956000000 0.461159169 0.226963788 -0.002903568 -0.028307825 0 0 0 0
964000000 0.551541447 -0.005384082 -0.01328148 -0.015710486 0 0 0 0
972000000 0.494905471 -0.255195856 -0.014768385 -0.005099693 0 0 0 0
980000000 0.297488689 -0.468577086 -0.01156097 0.00052158 0 0 0 0
988000000 0.029678879 -0.547193706 -0.009357227 0.003632485 0 0 0 0
996000000 -0.249940738 -0.499160349 -0.006541612 0.005186114 0 0 0 0
1004000000 -0.494820892 -0.358753591 -0.004961981 0.00507151 0 0 0 0
