# Hz S RI R 50
700000000 0.762666702 0.528357446 7.6458e-05 0.000833093 0 0 0 0
708000000 0.865174412 0.285684913 1.095e-05 0.001022706 0 0 0 0
716000000 0.891484618 0.01175556 0.000242462 0.001249775 0 0 0 0
724000000 0.831993699 -0.255574315 0.000368811 0.001403882 0 0 0 0
732000000 0.683331787 -0.509895622 0.000645413 0.001602919 0 0 0 0
740000000 0.446478992 -0.701479792 0.001071806 0.001499287 0 0 0 0
748000000 0.137959152 -0.794224441 0.001420662 0.001295794 0 0 0 0
756000000 -0.194721698 -0.751435816 0.001666083 0.000782054 0 0 0 0
764000000 -0.491516828 -0.546511173 0.001621325 0.000546745 0 0 0 0
772000000 -0.654008507 -0.192060053 0.001620837 -0.000213375 0 0 0 0
780000000 -0.581889152 0.227918297 0.001231431 -0.000986856 0 0 0 0
788000000 -0.231833353 0.529810786 0.000390112 -0.001603503 0 0 0 0
796000000 0.253695815 0.512010097 -0.001415609 -0.00199607 0 0 0 0
804000000 0.572616815 0.157339081 -0.003708936 -0.000675911 0 0 0 0
812000000 0.547794342 -0.298229157 -0.003623579 0.002932484 0 0 0 0
820000000 0.257688522 -0.581526458 -0.000907095 0.004554444 0 0 0 0
828000000 -0.115850038 -0.638611793 0.001893301 0.004471932 0 0 0 0
836000000 -0.43023613 -0.506161332 0.003829094 0.003127827 0 0 0 0
844000000 -0.628941118 -0.264489054 0.005358407 0.00173599 0 0 0 0
852000000 -0.706151068 0.006778181 0.006515703 -0.000485358 0 0 0 0
860000000 -0.66732341 0.268715411 0.007302321 -0.002961346 0 0 0 0
868000000 -0.532405138 0.464148998 0.008075634 -0.00657104 0 0 0 0
876000000 -0.325912147 0.568388581 0.007020019 -0.011402578 0 0 0 0
884000000 -0.111805848 0.555876791 0.001937093 -0.017249034 0 0 0 0
892000000 0.034596994 0.43282786 -0.005319351 -0.032775077 0 0 0 0
900000000 0.263707935 0.268859267 -0.025475647 -0.011194211 0 0 0 0
908000000 0.250958532 0.195110708 -0.031954336 0.010706216 0 0 0 0
916000000 0.250966846 0.133765876 -0.017417058 0.032572355 0 0 0 0
924000000 0.209069594 0.060022793 0.010511245 0.036936629 0 0 0 0
932000000 0.10335581 0.069729372 0.033549517 0.018178885 0 0 0 0
940000000 0.083234675 0.209594026 0.032992664 -0.009537987 0 0 0 0
948000000 0.24992454 0.303129822 0.016103161 -0.024661578 0 0 0 0
956000000 0.44069004 0.220920756 -0.002693552 -0.023472353 0 0 0 0
964000000 0.548024892 0.007306261 -0.011973655 -0.013405164 0 0 0 0
972000000 0.483954608 -0.242655038 -0.011599408 -0.005122192 0 0 0 0
980000000 0.305769741 -0.456645846 -0.009482597 -0.000398041 0 0 0 0
988000000 0.03793944 -0.549017846 -0.007753286 0.002642512 0 0 0 0
996000000 -0.247015908 -0.49964711 -0.006123679 0.003765678 0 0 0 0
1004000000 -0.478526741 -0.350398689 -0.005576776 0.00504742 0 0 0 0
