# Hz S RI R 50
700000000 0.767244458 0.524513185 -6.763e-05 0.000891456 0 0 0 0
708000000 0.867645084 0.284562945 0.00011555 0.000977304 0 0 0 0
716000000 0.891743242 0.014094864 0.000193301 0.001369354 0 0 0 0
724000000 0.833831191 -0.260264813 0.000295811 0.001409644 0 0 0 0
732000000 0.67885828 -0.510869324 0.000788037 0.001572201 0 0 0 0
740000000 0.445400327 -0.704239904 0.001093086 0.00156182 0 0 0 0
748000000 0.137851968 -0.795274436 0.001187044 0.001285297 0 0 0 0
756000000 -0.197621583 -0.750917613 0.001547448 0.000794431 0 0 0 0
764000000 -0.494438201 -0.542050242 0.001525011 0.000484718 0 0 0 0
772000000 -0.657786071 -0.188031494 0.001514624 -9.8653e-05 0 0 0 0
780000000 -0.57875061 0.231973573 0.001296871 -0.000701155 0 0 0 0
788000000 -0.22684662 0.532773733 0.000282172 -0.001362988 0 0 0 0
796000000 0.260632932 0.503190398 -0.001408007 -0.001894433 0 0 0 0
804000000 0.571221649 0.145939126 -0.003417379 -0.00021723 0 0 0 0
812000000 0.541528701 -0.302556633 -0.003250544 0.002521957 0 0 0 0
820000000 0.247081592 -0.582250177 -0.00073954 0.004287536 0 0 0 0
828000000 -0.126266807 -0.633913636 0.001566 0.004184126 0 0 0 0
836000000 -0.430433183 -0.49517107 0.003325365 0.003007016 0 0 0 0
844000000 -0.625408828 -0.257595837 0.004876859 0.001643332 0 0 0 0
852000000 -0.700236976 0.013507001 0.006044213 -0.000243744 0 0 0 0
860000000 -0.658477485 0.270355224 0.00704628 -0.002223419 0 0 0 0
868000000 -0.515533268 0.463325291 0.007940707 -0.005884066 0 0 0 0
876000000 -0.317139238 0.56101489 0.007442263 -0.010745935 0 0 0 0
884000000 -0.111786372 0.539016127 0.003055385 -0.016720712 0 0 0 0
892000000 0.029667902 0.425431877 -0.007904144 -0.019992485 0 0 0 0
900000000 0.249114394 0.268499553 -0.026008225 -0.012846439 0 0 0 0
908000000 0.247792199 0.201661899 -0.03401333 0.00872012 0 0 0 0
916000000 0.243127211 0.15054956 -0.020044647 0.032783158 0 0 0 0
924000000 0.20947723 0.072267293 0.008706294 0.039912387 0 0 0 0
932000000 0.104280062 0.076709821 0.03528944 0.021467322 0 0 0 0
940000000 0.082507319 0.206389218 0.037157513 -0.009006182 0 0 0 0
948000000 0.260454654 0.320670038 0.018136024 -0.027888102 0 0 0 0
956000000 0.442975759 0.216210559 -0.002011044 -0.025808805 0 0 0 0
964000000 0.548497855 0.005327756 -0.012750106 -0.015498553 0 0 0 0
972000000 0.503837585 -0.25153464 -0.014211166 -0.004859403 0 0 0 0
980000000 0.304134547 -0.453289151 -0.01186844 0.000518747 0 0 0 0
988000000 0.023500094 -0.546820819 -0.008375876 0.003215015 0 0 0 0
996000000 -0.252727955 -0.497671067 -0.006494439 0.004774162 0 0 0 0
1004000000 -0.49672538 -0.357833474 -0.004285714 0.005019268 0 0 0 0
