# Hz S RI R 50
700000000 0.763836264 0.53072834 2.0535e-05 0.000755586 0 0 0 0
708000000 0.863993823 0.285890936 3.1616e-05 0.001181415 0 0 0 0
716000000 0.892581582 0.01509952 0.000158717 0.00120247 0 0 0 0
724000000 0.831566035 -0.25911957 0.000403677 0.001492941 0 0 0 0
732000000 0.681303322 -0.51136887 0.000744467 0.001410882 0 0 0 0
740000000 0.444717317 -0.703784763 0.000852037 0.001576025 0 0 0 0
748000000 0.140173971 -0.795546412 0.001231398 0.001170628 0 0 0 0
756000000 -0.197280213 -0.750424742 0.001509954 0.000938368 0 0 0 0
764000000 -0.492073833 -0.544959545 0.001697469 0.000175882 0 0 0 0
772000000 -0.656288921 -0.188498169 0.001554051 -3.3353e-05 0 0 0 0
780000000 -0.578426241 0.230678439 0.001158569 -0.000719231 0 0 0 0
788000000 -0.224518924 0.530305981 0.000464631 -0.001384512 0 0 0 0
796000000 0.257824718 0.501576542 -0.001486692 -0.001742637 0 0 0 0
804000000 0.570305407 0.148336574 -0.003193782 -0.000196829 0 0 0 0
812000000 0.5401268 -0.299255043 -0.003043498 0.002580468 0 0 0 0
820000000 0.248369485 -0.583006441 -0.00094065 0.004240322 0 0 0 0
828000000 -0.124153114 -0.633915662 0.001309001 0.00423692 0 0 0 0
836000000 -0.432000577 -0.499434143 0.003339549 0.002971704 0 0 0 0
844000000 -0.627848327 -0.259534657 0.005020127 0.001722461 0 0 0 0
852000000 -0.702014982 0.015918392 0.005894825 7.8205e-05 0 0 0 0
860000000 -0.660755872 0.27272737 0.0072943 -0.002263233 0 0 0 0
868000000 -0.524563014 0.470155537 0.00820441 -0.005962593 0 0 0 0
876000000 -0.310633033 0.564251661 0.007256455 -0.01090099 0 0 0 0
884000000 -0.104971855 0.54338175 0.002882517 -0.017086705 0 0 0 0
892000000 0.032293953 0.419073432 -0.008955897 -0.020657252 0 0 0 0
900000000 0.247336745 0.256587207 -0.026049712 -0.013646562 0 0 0 0
908000000 0.233121484 0.204408526 -0.033136919 0.009191848 0 0 0 0
916000000 0.229530006 0.152523696 -0.019082203 0.032690383 0 0 0 0
924000000 0.193385243 0.085285186 0.009345545 0.039136946 0 0 0 0
932000000 0.103141002 0.088112697 0.0347272 0.020624041 0 0 0 0
940000000 0.085439331 0.21785514 0.035366646 -0.009081076 0 0 0 0
948000000 0.266706407 0.314569026 0.017237646 -0.025938944 0 0 0 0
956000000 0.442235946 0.206252411 -0.00121063 -0.024222929 0 0 0 0
964000000 0.551167964 -0.005102596 -0.011327231 -0.014193603 0 0 0 0
972000000 0.484730869 -0.254531472 -0.013155742 -0.006080425 0 0 0 0
980000000 0.304943501 -0.451930284 -0.010904294 -0.000124365 0 0 0 0
988000000 0.031369034 -0.539008498 -0.00927391 0.003420741 0 0 0 0
996000000 -0.250335514 -0.492327034 -0.006602657 0.004495264 0 0 0 0
1004000000 -0.498115926 -0.361118972 -0.005177489 0.005453213 0 0 0 0
