# Hz S RI R 50
700000000 0.766406416 0.524666249 2.2498e-05 0.000821056 0 0 0 0
708000000 0.865094542 0.285915642 0.00011996 0.001135049 0 0 0 0
716000000 0.891066133 0.01404264 0.000125031 0.001343622 0 0 0 0
724000000 0.833628952 -0.264498591 0.000166483 0.001471636 0 0 0 0
732000000 0.680675804 -0.513399481 0.000539897 0.00161463 0 0 0 0
740000000 0.443458884 -0.701771438 0.001011658 0.001614163 0 0 0 0
748000000 0.139345273 -0.793454885 0.001299576 0.00131468 0 0 0 0
756000000 -0.196807667 -0.749713718 0.001509337 0.000873326 0 0 0 0
764000000 -0.49324283 -0.545593738 0.001565825 0.000470391 0 0 0 0
772000000 -0.654120862 -0.186809316 0.001682487 5.583e-06 0 0 0 0
780000000 -0.580767571 0.233926311 0.001368737 -0.000659183 0 0 0 0
788000000 -0.224805086 0.532186031 0.000608357 -0.001411947 0 0 0 0
796000000 0.259235829 0.508479177 -0.000959743 -0.002138692 0 0 0 0
804000000 0.573633611 0.147724315 -0.003374817 -0.000823818 0 0 0 0
812000000 0.543676555 -0.302544414 -0.003657637 0.002137354 0 0 0 0
820000000 0.249567613 -0.58584994 -0.001211735 0.004241792 0 0 0 0
828000000 -0.122621074 -0.63713485 0.001197731 0.004214018 0 0 0 0
836000000 -0.432106494 -0.498681485 0.003010635 0.003504664 0 0 0 0
844000000 -0.630523145 -0.257694244 0.004995533 0.001873192 0 0 0 0
852000000 -0.703373074 0.012665111 0.006260612 7.0414e-05 0 0 0 0
860000000 -0.663437843 0.272657901 0.007246268 -0.002251277 0 0 0 0
868000000 -0.523828804 0.470356017 0.008016822 -0.005560473 0 0 0 0
876000000 -0.311163514 0.568275928 0.007662814 -0.010614941 0 0 0 0
884000000 -0.10281755 0.545242488 0.003276009 -0.016679259 0 0 0 0
892000000 0.042144283 0.423627108 -0.007891692 -0.020460518 0 0 0 0
900000000 0.246567428 0.258156776 -0.025756597 -0.013646404 0 0 0 0
908000000 0.232539549 0.191752836 -0.032831005 0.00790763 0 0 0 0
916000000 0.234579324 0.14848946 -0.020333234 0.030563605 0 0 0 0
924000000 0.197233602 0.081478603 0.006669331 0.03792832 0 0 0 0
932000000 0.11456523 0.085889056 0.031898293 0.021698443 0 0 0 0
940000000 0.090635299 0.22340101 0.03519982 -0.006453825 0 0 0 0
948000000 0.25991705 0.305990636 0.018952013 -0.024230975 0 0 0 0
956000000 0.446559876 0.223468825 -9.6296e-05 -0.024933172 0 0 0 0
964000000 0.541624665 -0.009068711 -0.010788577 -0.015780203 0 0 0 0
972000000 0.495462149 -0.25582385 -0.012949359 -0.006530029 0 0 0 0
980000000 0.293866395 -0.460651248 -0.011231818 -0.000429317 0 0 0 0
988000000 0.037970893 -0.537489771 -0.008658745 0.002454233 0 0 0 0
996000000 -0.251446843 -0.499317765 -0.006762431 0.003810116 0 0 0 0
1004000000 -0.480935394 -0.361792773 -0.005170046 0.00504854 0 0 0 0
