# Hz S RI R 50
700000000 0.766568005 0.528229892 4.5665e-05 0.000758196 0 0 0 0
708000000 0.865800499 0.284725427 0.000177783 0.000961958 0 0 0 0
716000000 0.89294219 0.013459643 0.000184374 0.001373962 0 0 0 0
724000000 0.827558159 -0.263750255 0.000220784 0.001553998 0 0 0 0
732000000 0.682362139 -0.512931227 0.000439781 0.001591961 0 0 0 0
740000000 0.442719489 -0.703055977 0.000862774 0.00163609 0 0 0 0
748000000 0.135186165 -0.796634912 0.001439517 0.001398453 0 0 0 0
756000000 -0.198526546 -0.748078048 0.001645015 0.000854449 0 0 0 0
764000000 -0.492894738 -0.542781591 0.00182245 0.000450157 0 0 0 0
772000000 -0.650517284 -0.184486642 0.001614404 -0.000232665 0 0 0 0
780000000 -0.575378477 0.232312962 0.001403546 -0.000777564 0 0 0 0
788000000 -0.219365239 0.529744327 0.000554149 -0.001642638 0 0 0 0
796000000 0.263365447 0.495513677 -0.001656781 -0.002051021 0 0 0 0
804000000 0.570097804 0.139493659 -0.003487064 -0.000290623 0 0 0 0
812000000 0.533479988 -0.304224312 -0.003164538 0.002615059 0 0 0 0
820000000 0.239996537 -0.580474078 -0.000576051 0.004333139 0 0 0 0
828000000 -0.130307763 -0.626211225 0.001527236 0.003757715 0 0 0 0
836000000 -0.429906606 -0.490255296 0.00290245 0.002574975 0 0 0 0
844000000 -0.626360297 -0.253154993 0.004285541 0.0010568 0 0 0 0
852000000 -0.688933551 0.013912143 0.005526471 1.6498e-05 0 0 0 0
860000000 -0.651975989 0.26673448 0.006555774 -0.001791329 0 0 0 0
868000000 -0.517743706 0.457526117 0.007859427 -0.004733135 0 0 0 0
876000000 -0.313919901 0.552307426 0.008137827 -0.00942378 0 0 0 0
884000000 -0.115992002 0.539267897 0.004860713 -0.01614952 0 0 0 0
892000000 0.02255587 0.430860519 -0.00456298 -0.022432079 0 0 0 0
900000000 0.254198253 0.267816692 -0.024246968 -0.016559062 0 0 0 0
908000000 0.24721834 0.208027958 -0.036274008 0.004754128 0 0 0 0
916000000 0.237097799 0.131901949 -0.02513564 0.032579295 0 0 0 0
924000000 0.186948299 0.070049218 0.006525005 0.044756252 0 0 0 0
932000000 0.098399512 0.088521897 0.037461075 0.02544514 0 0 0 0
940000000 0.078982912 0.21540296 0.03946451 -0.009434852 0 0 0 0
948000000 0.267932444 0.319486856 0.018202578 -0.028025835 0 0 0 0
956000000 0.444274693 0.229082763 -0.001638793 -0.026350308 0 0 0 0
964000000 0.555948555 -0.006546513 -0.011184392 -0.014675549 0 0 0 0
972000000 0.491866916 -0.259003192 -0.013058843 -0.005881336 0 0 0 0
980000000 0.285984128 -0.461518436 -0.01110605 -0.000709925 0 0 0 0
988000000 0.020545119 -0.545156538 -0.00956114 0.002986123 0 0 0 0
996000000 -0.254910171 -0.501149415 -0.007142255 0.003985047 0 0 0 0
1004000000 -0.491805195 -0.359144151 -0.005313479 0.005868327 0 0 0 0
