# Hz S RI R 50
700000000 0.768277823 0.530162692 0.000126336 0.000788773 0 0 0 0
708000000 0.867576777 0.286233931 -1.0196e-05 0.001066194 0 0 0 0
716000000 0.891332566 0.013722816 0.000243069 0.001173679 0 0 0 0
724000000 0.833851456 -0.261292904 0.000530797 0.001524728 0 0 0 0
732000000 0.685012102 -0.513039469 0.000583999 0.00153127 0 0 0 0
740000000 0.445073455 -0.702234625 0.001159762 0.001549186 0 0 0 0
748000000 0.142637059 -0.79289937 0.001375852 0.001216433 0 0 0 0
756000000 -0.19500941 -0.751358091 0.001727077 0.000948956 0 0 0 0
764000000 -0.491556674 -0.547094106 0.00161407 0.000243148 0 0 0 0
772000000 -0.654986619 -0.194612234 0.00146186 -0.000250273 0 0 0 0
780000000 -0.58266741 0.225305095 0.001224313 -0.000827158 0 0 0 0
788000000 -0.234861597 0.529442608 0.000230106 -0.001688651 0 0 0 0
796000000 0.249710485 0.512815296 -0.001736539 -0.001689172 0 0 0 0
804000000 0.573655724 0.161083832 -0.003797528 -0.000126992 0 0 0 0
812000000 0.54864645 -0.29360494 -0.003284401 0.00308209 0 0 0 0
820000000 0.2632806 -0.582373023 -0.000523506 0.004666049 0 0 0 0
828000000 -0.112321607 -0.63909924 0.001718832 0.004279383 0 0 0 0
836000000 -0.426476716 -0.507889509 0.003712299 0.003139609 0 0 0 0
844000000 -0.628706574 -0.269672274 0.00510126 0.001601971 0 0 0 0
852000000 -0.707015931 0.004270611 0.00630286 -0.000245161 0 0 0 0
860000000 -0.672197282 0.267298489 0.007336483 -0.002422211 0 0 0 0
868000000 -0.535883605 0.46677342 0.008389479 -0.006091736 0 0 0 0
876000000 -0.326787143 0.574926376 0.007561305 -0.011345764 0 0 0 0
884000000 -0.108987681 0.559012472 0.002636613 -0.017896274 0 0 0 0
892000000 0.049277897 0.458465129 -0.004760086 -0.026511803 0 0 0 0
900000000 0.267192691 0.263197749 -0.028552681 -0.012111268 0 0 0 0
908000000 0.24625352 0.192561417 -0.034645475 0.011582722 0 0 0 0
916000000 0.24304825 0.136810407 -0.018222156 0.036170408 0 0 0 0
924000000 0.198404863 0.071099586 0.013513896 0.039308831 0 0 0 0
932000000 0.107646547 0.084054417 0.036368217 0.017162213 0 0 0 0
940000000 0.075847007 0.216825842 0.034379687 -0.012356169 0 0 0 0
948000000 0.260392427 0.319911956 0.01493383 -0.027489895 0 0 0 0
956000000 0.435584962 0.230069503 -0.003663266 -0.024732198 0 0 0 0
964000000 0.542752265 0.006528372 -0.012539952 -0.013128921 0 0 0 0
972000000 0.496933907 -0.260079205 -0.012977314 -0.003802875 0 0 0 0
980000000 0.30956608 -0.4573372 -0.009924894 0.000477801 0 0 0 0
988000000 0.040295917 -0.543134093 -0.007608156 0.003439421 0 0 0 0
996000000 -0.242655232 -0.503394484 -0.006205957 0.003719211 0 0 0 0
1004000000 -0.480396628 -0.354997396 -0.004341234 0.0050556 0 0 0 0
