# Hz S RI R 50
700000000 0.770028114 0.528523981 -2.6673e-05 0.000723282 0 0 0 0
708000000 0.866797029 0.279009431 7.269e-06 0.000976747 0 0 0 0
716000000 0.891713321 0.011594812 8.6214e-05 0.001255321 0 0 0 0
724000000 0.829515159 -0.259136289 0.000248193 0.001296073 0 0 0 0
732000000 0.678608 -0.513230979 0.000660749 0.001679751 0 0 0 0
740000000 0.44160822 -0.701922655 0.000897132 0.001626753 0 0 0 0
748000000 0.13410449 -0.795239806 0.001361692 0.001288868 0 0 0 0
756000000 -0.20160529 -0.746622264 0.001373934 0.001014577 0 0 0 0
764000000 -0.494443565 -0.537016153 0.001438874 0.000584013 0 0 0 0
772000000 -0.653050005 -0.177381262 0.001617933 -0.000192202 0 0 0 0
780000000 -0.569196879 0.238426759 0.001229878 -0.000551266 0 0 0 0
788000000 -0.208135679 0.530139684 0.000548409 -0.001579179 0 0 0 0
796000000 0.273083806 0.487876147 -0.0011716 -0.001860979 0 0 0 0
804000000 0.56958723 0.125411853 -0.003069411 -0.000447384 0 0 0 0
812000000 0.522613942 -0.316087573 -0.002826215 0.002142687 0 0 0 0
820000000 0.22916013 -0.582392513 -0.000891141 0.003819407 0 0 0 0
828000000 -0.138952657 -0.621082246 0.001219114 0.003451867 0 0 0 0
836000000 -0.437579631 -0.477915585 0.002388929 0.002961126 0 0 0 0
844000000 -0.628691554 -0.242312148 0.004012482 0.001618702 0 0 0 0
852000000 -0.687208473 0.027746768 0.005356059 0.000445126 0 0 0 0
860000000 -0.6432904 0.277591794 0.006947705 -0.001268945 0 0 0 0
868000000 -0.500096678 0.461725682 0.008659468 -0.004369842 0 0 0 0
876000000 -0.297669529 0.549400627 0.009160641 -0.009837743 0 0 0 0
884000000 -0.109916307 0.523150026 0.005550843 -0.01718481 0 0 0 0
892000000 0.035110957 0.401624709 -0.003399397 -0.018886029 0 0 0 0
900000000 0.24539715 0.258921086 -0.02604923 -0.018119394 0 0 0 0
908000000 0.236962705 0.200384333 -0.038087163 0.005642422 0 0 0 0
916000000 0.232075586 0.1498629 -0.026566985 0.03520162 0 0 0 0
924000000 0.194748803 0.072629928 0.007402915 0.047328587 0 0 0 0
932000000 0.090837046 0.096151642 0.040749728 0.026012893 0 0 0 0
940000000 0.080060303 0.239963576 0.041361011 -0.011623961 0 0 0 0
948000000 0.275686919 0.323349654 0.016907315 -0.029407458 0 0 0 0
956000000 0.465939015 0.21153593 -0.003334907 -0.026042181 0 0 0 0
964000000 0.553119957 -0.013419143 -0.012098027 -0.01460387 0 0 0 0
972000000 0.491104662 -0.272305488 -0.013731124 -0.005762363 0 0 0 0
980000000 0.300732344 -0.470073342 -0.01102943 6.0559e-05 0 0 0 0
988000000 0.022924132 -0.542262077 -0.009040479 0.0033606 0 0 0 0
996000000 -0.261705666 -0.498976439 -0.007037211 0.004500125 0 0 0 0
1004000000 -0.495070815 -0.357167184 -0.005239646 0.005652303 0 0 0 0
