# Hz S RI R 50
700000000 0.766250312 0.525178372 0.000101909 0.000803855 0 0 0 0
708000000 0.866232335 0.284279614 0.000146682 0.000995586 0 0 0 0
716000000 0.892754256 0.012352245 0.000246563 0.001277893 0 0 0 0
724000000 0.83529061 -0.261156022 0.000337566 0.001262523 0 0 0 0
732000000 0.681309163 -0.513172209 0.00047808 0.001481045 0 0 0 0
740000000 0.442579567 -0.704989552 0.00087196 0.001403138 0 0 0 0
748000000 0.135409981 -0.795126676 0.001260932 0.001405737 0 0 0 0
756000000 -0.199648901 -0.748370409 0.001608363 0.000991297 0 0 0 0
764000000 -0.495271623 -0.545620262 0.001505907 0.000510682 0 0 0 0
772000000 -0.654357552 -0.190308138 0.001465237 0.000139837 0 0 0 0
780000000 -0.580814182 0.23329921 0.001465582 -0.000520994 0 0 0 0
788000000 -0.227405235 0.532889485 0.000637166 -0.001375554 0 0 0 0
796000000 0.258775979 0.506877601 -0.000985894 -0.002049632 0 0 0 0
804000000 0.573962807 0.151599869 -0.003152732 -0.000620307 0 0 0 0
812000000 0.543767035 -0.300390332 -0.003064466 0.0021512 0 0 0 0
820000000 0.253025412 -0.58219403 -0.001069557 0.003756617 0 0 0 0
828000000 -0.118583716 -0.638638913 0.001022339 0.003931729 0 0 0 0
836000000 -0.428237497 -0.505201518 0.00261184 0.003147681 0 0 0 0
844000000 -0.627337157 -0.266496777 0.004175129 0.001730395 0 0 0 0
852000000 -0.708219945 0.007297269 0.00556456 0.000560787 0 0 0 0
860000000 -0.672039866 0.270835489 0.006923899 -0.001223213 0 0 0 0
868000000 -0.532752633 0.467450678 0.008385797 -0.004392166 0 0 0 0
876000000 -0.326867282 0.571878015 0.008801698 -0.009610227 0 0 0 0
884000000 -0.116132616 0.56099528 0.005356413 -0.016724368 0 0 0 0
892000000 0.039670743 0.447683036 -0.005503988 -0.022352023 0 0 0 0
900000000 0.273106187 0.275329887 -0.025054307 -0.017119012 0 0 0 0
908000000 0.263645499 0.196856662 -0.037002328 0.00508684 0 0 0 0
916000000 0.250629991 0.119878493 -0.026036445 0.033305 0 0 0 0
924000000 0.200361251 0.054140344 0.005345053 0.04536388 0 0 0 0
932000000 0.092046827 0.065502442 0.037874467 0.027730708 0 0 0 0
940000000 0.059761367 0.215278744 0.04258031 -0.008115245 0 0 0 0
948000000 0.242994129 0.315698295 0.020859008 -0.029809407 0 0 0 0
956000000 0.432667523 0.244185417 -0.002049339 -0.029226686 0 0 0 0
964000000 0.549130737 0.010414908 -0.013659735 -0.016127692 0 0 0 0
972000000 0.499287664 -0.244420453 -0.01484974 -0.005903964 0 0 0 0
980000000 0.309247821 -0.457807332 -0.012477137 0.000827336 0 0 0 0
988000000 0.044585756 -0.543593525 -0.009394116 0.004516593 0 0 0 0
996000000 -0.235232755 -0.505237638 -0.006344204 0.005424412 0 0 0 0
1004000000 -0.484408974 -0.361985057 -0.005169619 0.006184152 0 0 0 0
