# Hz S RI R 50
700000000 0.764292776 0.530829668 6.716e-05 0.00065457 0 0 0 0
708000000 0.866581141 0.285393863 4.947e-05 0.001062517 0 0 0 0
716000000 0.89029169 0.011775024 0.000110843 0.001135657 0 0 0 0
724000000 0.835882186 -0.264411747 0.000310819 0.001350912 0 0 0 0
732000000 0.681325674 -0.51120615 0.000676701 0.001626782 0 0 0 0
740000000 0.444184184 -0.703298687 0.000854381 0.001444949 0 0 0 0
748000000 0.138842821 -0.795640885 0.001100712 0.001266585 0 0 0 0
756000000 -0.198414087 -0.750772476 0.001357741 0.000981542 0 0 0 0
764000000 -0.495152562 -0.54585725 0.001460841 0.000529923 0 0 0 0
772000000 -0.65373826 -0.18835552 0.001570125 -7.1304e-05 0 0 0 0
780000000 -0.578889548 0.233438417 0.00148152 -0.000495406 0 0 0 0
788000000 -0.222501337 0.532638013 0.000908922 -0.001429618 0 0 0 0
796000000 0.261948525 0.501994848 -0.000960791 -0.002171806 0 0 0 0
804000000 0.576172411 0.141958355 -0.003440492 -0.001040189 0 0 0 0
812000000 0.538503885 -0.303637862 -0.003558618 0.002070153 0 0 0 0
820000000 0.246140763 -0.582790732 -0.001259974 0.004195066 0 0 0 0
828000000 -0.12649706 -0.634832978 0.001122468 0.004196846 0 0 0 0
836000000 -0.432008832 -0.500390231 0.002819304 0.003173919 0 0 0 0
844000000 -0.628570318 -0.254170745 0.004760564 0.00175334 0 0 0 0
852000000 -0.699469327 0.017028303 0.005781522 0.000180492 0 0 0 0
860000000 -0.660134255 0.273535788 0.006985146 -0.001949768 0 0 0 0
868000000 -0.519407451 0.464232265 0.007944607 -0.005216041 0 0 0 0
876000000 -0.307181924 0.561921954 0.007822808 -0.01001474 0 0 0 0
884000000 -0.106034368 0.538974165 0.003857662 -0.016399376 0 0 0 0
892000000 0.0383826 0.418767005 -0.007219036 -0.021529 0 0 0 0
900000000 0.244374811 0.260745108 -0.024898145 -0.014083207 0 0 0 0
908000000 0.236750647 0.207664966 -0.032667804 0.006451178 0 0 0 0
916000000 0.232762292 0.152192726 -0.021553324 0.030425531 0 0 0 0
924000000 0.19472222 0.084942638 0.005356578 0.038320075 0 0 0 0
932000000 0.111862666 0.096209317 0.031552713 0.023194408 0 0 0 0
940000000 0.082334406 0.222576633 0.035398334 -0.004812827 0 0 0 0
948000000 0.277860343 0.305614769 0.019277021 -0.023258453 0 0 0 0
956000000 0.451374888 0.206138536 0.000684713 -0.025155272 0 0 0 0
964000000 0.541555404 -0.006013173 -0.010053162 -0.015800822 0 0 0 0
972000000 0.486490756 -0.258111447 -0.012703026 -0.006480591 0 0 0 0
980000000 0.30252552 -0.460836648 -0.011216429 -0.001077109 0 0 0 0
988000000 0.039545379 -0.535754561 -0.009248116 0.002829773 0 0 0 0
996000000 -0.252199321 -0.499226957 -0.006529066 0.004252344 0 0 0 0
1004000000 -0.503023386 -0.354572862 -0.00534441 0.005066986 0 0 0 0
