# Hz S RI R 50
700000000 0.763707458 0.535059571 8.5627e-05 0.000807787 0 0 0 0
708000000 0.863215327 0.285081982 -5.941e-05 0.001056866 0 0 0 0
716000000 0.889071404 0.013952477 0.000303616 0.001282099 0 0 0 0
724000000 0.833926498 -0.257421791 0.000209476 0.001400209 0 0 0 0
732000000 0.683304369 -0.510637223 0.000891306 0.00160018 0 0 0 0
740000000 0.449161291 -0.701991975 0.001155836 0.001563075 0 0 0 0
748000000 0.140117049 -0.795046031 0.001441535 0.001326822 0 0 0 0
756000000 -0.194508284 -0.749865531 0.001732855 0.000810825 0 0 0 0
764000000 -0.491566658 -0.545662939 0.001546428 0.000258258 0 0 0 0
772000000 -0.654252707 -0.195248782 0.001406721 -0.000358083 0 0 0 0
780000000 -0.580492913 0.22757633 0.001082191 -0.00088731 0 0 0 0
788000000 -0.233794391 0.530606806 9.6687e-05 -0.001603963 0 0 0 0
796000000 0.252819865 0.51148957 -0.001775304 -0.001569721 0 0 0 0
804000000 0.570625483 0.155533388 -0.003672082 0.000122267 0 0 0 0
812000000 0.549429118 -0.295750766 -0.003158757 0.002971281 0 0 0 0
820000000 0.26315242 -0.580496847 -0.000543232 0.00437959 0 0 0 0
828000000 -0.113067142 -0.638626039 0.001540463 0.004051854 0 0 0 0
836000000 -0.426026463 -0.508654296 0.003548715 0.002919198 0 0 0 0
844000000 -0.625530421 -0.266993194 0.005061737 0.001345263 0 0 0 0
852000000 -0.707944929 0.002054708 0.006208268 -0.000232725 0 0 0 0
860000000 -0.673009455 0.267031162 0.007287042 -0.002269217 0 0 0 0
868000000 -0.529164373 0.468037903 0.008218931 -0.005709218 0 0 0 0
876000000 -0.322560817 0.573684275 0.008068512 -0.011021945 0 0 0 0
884000000 -0.105291172 0.556518435 0.003512151 -0.017813013 0 0 0 0
892000000 0.037147834 0.430609524 -0.00630893 -0.024521786 0 0 0 0
900000000 0.262119024 0.255652576 -0.028122819 -0.013438901 0 0 0 0
908000000 0.243277043 0.188261777 -0.035725776 0.010173553 0 0 0 0
916000000 0.233807936 0.139248967 -0.019427545 0.036312073 0 0 0 0
924000000 0.201131433 0.076638549 0.012292918 0.04060008 0 0 0 0
932000000 0.101575531 0.092248447 0.036862019 0.019045898 0 0 0 0
940000000 0.093110926 0.220071285 0.035727847 -0.011252455 0 0 0 0
948000000 0.266233563 0.312412619 0.016333941 -0.027474096 0 0 0 0
956000000 0.439066648 0.210167363 -0.003543628 -0.02531993 0 0 0 0
964000000 0.552248179 0.000620633 -0.01248361 -0.013576654 0 0 0 0
972000000 0.498015224 -0.25584945 -0.013436934 -0.00448328 0 0 0 0
980000000 0.302904218 -0.462452739 -0.010008691 0.000662093 0 0 0 0
988000000 0.028645377 -0.546791553 -0.007954978 0.003124047 0 0 0 0
996000000 -0.26215443 -0.506756126 -0.005796302 0.003999304 0 0 0 0
1004000000 -0.500856816 -0.358329474 -0.004567151 0.004993679 0 0 0 0
