# Hz S RI R 50
700000000 0.768116652 0.534966945 0.000111946 0.000658172 0 0 0 0
708000000 0.864863336 0.285980045 -2.6582e-05 0.000992346 0 0 0 0
716000000 0.894783556 0.014569696 7.1141e-05 0.001280521 0 0 0 0
724000000 0.831667721 -0.257579326 0.000353954 0.00139019 0 0 0 0
732000000 0.683538556 -0.510979652 0.000724218 0.001609936 0 0 0 0
740000000 0.443169206 -0.701980173 0.001016803 0.001419259 0 0 0 0
748000000 0.140046298 -0.79512 0.001369472 0.001283123 0 0 0 0
756000000 -0.193738386 -0.752584397 0.00149459 0.000909699 0 0 0 0
764000000 -0.493034988 -0.546133041 0.001722066 0.000414624 0 0 0 0
772000000 -0.656575262 -0.188431933 0.001594615 -0.00015882 0 0 0 0
780000000 -0.579709947 0.228830635 0.001147986 -0.00083304 0 0 0 0
788000000 -0.230279967 0.531547725 0.000294211 -0.001431544 0 0 0 0
796000000 0.254563599 0.505906999 -0.001536588 -0.001799618 0 0 0 0
804000000 0.574521601 0.153526589 -0.003344397 -0.000308831 0 0 0 0
812000000 0.542767107 -0.299534618 -0.002827391 0.002799426 0 0 0 0
820000000 0.254991233 -0.583789288 -0.000308111 0.004171895 0 0 0 0
828000000 -0.118202216 -0.63722223 0.001550471 0.003641834 0 0 0 0
836000000 -0.430325001 -0.503400444 0.003425147 0.002522714 0 0 0 0
844000000 -0.630768537 -0.26432237 0.004356265 0.000985488 0 0 0 0
852000000 -0.705532968 0.008088032 0.005384866 -0.000648763 0 0 0 0
860000000 -0.668902635 0.267745643 0.006153686 -0.001923776 0 0 0 0
868000000 -0.528344035 0.46668291 0.007160747 -0.004864426 0 0 0 0
876000000 -0.317365825 0.568901062 0.007213149 -0.009352411 0 0 0 0
884000000 -0.111275069 0.552051842 0.003602223 -0.015233273 0 0 0 0
892000000 0.038361277 0.432892352 -0.005995719 -0.019313883 0 0 0 0
900000000 0.264725416 0.269788861 -0.023505799 -0.013736284 0 0 0 0
908000000 0.251002252 0.195828005 -0.031778704 0.005478605 0 0 0 0
916000000 0.240141749 0.140172719 -0.021172007 0.02899258 0 0 0 0
924000000 0.206543594 0.077046863 0.004674407 0.037217047 0 0 0 0
932000000 0.107537321 0.073516398 0.030011964 0.023147158 0 0 0 0
940000000 0.075822293 0.204081967 0.035412099 -0.004605029 0 0 0 0
948000000 0.25388199 0.310298591 0.019990861 -0.023353403 0 0 0 0
956000000 0.442797064 0.219594269 0.000959191 -0.024929832 0 0 0 0
964000000 0.547110199 -0.001218435 -0.010660033 -0.015940971 0 0 0 0
972000000 0.495248556 -0.251397699 -0.013230372 -0.006995026 0 0 0 0
980000000 0.3104541 -0.457809567 -0.011184833 -0.000779478 0 0 0 0
988000000 0.030974084 -0.537040174 -0.009024628 0.003360395 0 0 0 0
996000000 -0.255586057 -0.494582831 -0.006761446 0.004071075 0 0 0 0
1004000000 -0.491883575 -0.357871264 -0.004933037 0.005773995 0 0 0 0
