# Hz S RI R 50
700000000 0.766646444 0.534611105 0.000126951 0.000779988 0 0 0 0
708000000 0.867383241 0.284069597 9.0283e-05 0.000972848 0 0 0 0
716000000 0.891860008 0.014130799 0.000176069 0.000969052 0 0 0 0
724000000 0.834055185 -0.26479128 0.000173918 0.001377212 0 0 0 0
732000000 0.68227303 -0.511391043 0.000561461 0.001660986 0 0 0 0
740000000 0.440170407 -0.703058481 0.000985077 0.001614225 0 0 0 0
748000000 0.136728301 -0.794604778 0.001188783 0.001356793 0 0 0 0
756000000 -0.200600683 -0.747546195 0.00140998 0.001079266 0 0 0 0
764000000 -0.495232999 -0.541200995 0.001617062 0.000593187 0 0 0 0
772000000 -0.652304887 -0.185096845 0.001418761 -6.1795e-05 0 0 0 0
780000000 -0.571267962 0.236062079 0.001403833 -0.000465018 0 0 0 0
788000000 -0.211249426 0.529856801 0.000666383 -0.001359526 0 0 0 0
796000000 0.267951518 0.490902364 -0.001266428 -0.001919871 0 0 0 0
804000000 0.566420733 0.129796102 -0.00308854 -0.000511218 0 0 0 0
812000000 0.523903489 -0.310492515 -0.002710153 0.001973866 0 0 0 0
820000000 0.230877935 -0.579371392 -0.00088378 0.00343337 0 0 0 0
828000000 -0.13483192 -0.621928036 0.000899976 0.003387327 0 0 0 0
836000000 -0.431611597 -0.484222769 0.002338525 0.002842078 0 0 0 0
844000000 -0.622609138 -0.247806519 0.004012668 0.001616991 0 0 0 0
852000000 -0.694697737 0.019925223 0.00487279 0.000649333 0 0 0 0
860000000 -0.648608505 0.273581594 0.006623446 -0.000655342 0 0 0 0
868000000 -0.50872302 0.458909362 0.008564297 -0.003930093 0 0 0 0
876000000 -0.31082794 0.551036417 0.009582677 -0.009204402 0 0 0 0
884000000 -0.110789366 0.53246349 0.006286443 -0.017056478 0 0 0 0
892000000 0.013974675 0.420975625 -0.006387329 -0.022124378 0 0 0 0
900000000 0.239469572 0.264330118 -0.026329256 -0.018258582 0 0 0 0
908000000 0.234604313 0.193192452 -0.038975376 0.005081662 0 0 0 0
916000000 0.23497647 0.139294773 -0.027368197 0.035620607 0 0 0 0
924000000 0.190900281 0.07353159 0.007079331 0.047837533 0 0 0 0
932000000 0.092966757 0.090307049 0.040254879 0.026561373 0 0 0 0
940000000 0.080467119 0.240356698 0.041960597 -0.010814251 0 0 0 0
948000000 0.267008632 0.328368872 0.018879985 -0.030343653 0 0 0 0
956000000 0.456373035 0.201262831 -0.001935908 -0.027366852 0 0 0 0
964000000 0.561986565 -0.01269936 -0.012518937 -0.015273346 0 0 0 0
972000000 0.496249377 -0.265086621 -0.014368873 -0.006211711 0 0 0 0
980000000 0.292449563 -0.469301879 -0.011520978 -1.6806e-05 0 0 0 0
988000000 0.021756103 -0.545249819 -0.008614583 0.003366831 0 0 0 0
996000000 -0.254965424 -0.500780582 -0.006229874 0.004837237 0 0 0 0
1004000000 -0.488149225 -0.36272493 -0.005631788 0.006250253 0 0 0 0
