# Hz S RI R 50
700000000 0.769858241 0.532013058 8.3558e-05 0.000737929 0 0 0 0
708000000 0.863926231 0.28661096 0.000137587 0.001011843 0 0 0 0
716000000 0.89011693 0.011571485 0.000205399 0.001291467 0 0 0 0
724000000 0.830105066 -0.258097499 0.000234033 0.001274546 0 0 0 0
732000000 0.683108866 -0.512717664 0.000550554 0.001513375 0 0 0 0
740000000 0.442508846 -0.702786326 0.000999138 0.001498018 0 0 0 0
748000000 0.136498138 -0.794800579 0.001142526 0.001445162 0 0 0 0
756000000 -0.197414308 -0.750839352 0.001506021 0.000785721 0 0 0 0
764000000 -0.496031045 -0.544303774 0.001619585 0.000559363 0 0 0 0
772000000 -0.654409945 -0.189751908 0.001593558 -0.00010968 0 0 0 0
780000000 -0.579876422 0.232144176 0.001322892 -0.000563792 0 0 0 0
788000000 -0.22434169 0.530265808 0.000532837 -0.001605093 0 0 0 0
796000000 0.260451525 0.502246618 -0.00116725 -0.001955672 0 0 0 0
804000000 0.574749708 0.145812511 -0.003561825 -0.000500029 0 0 0 0
812000000 0.541210234 -0.301540911 -0.003155507 0.002591158 0 0 0 0
820000000 0.245982557 -0.582624495 -0.000692047 0.00401861 0 0 0 0
828000000 -0.126732334 -0.631596028 0.001479882 0.004063448 0 0 0 0
836000000 -0.42962718 -0.496007651 0.003428298 0.003054577 0 0 0 0
844000000 -0.627691805 -0.257598668 0.004688552 0.001244011 0 0 0 0
852000000 -0.698165595 0.013252821 0.00580134 -0.000251563 0 0 0 0
860000000 -0.656599283 0.269907861 0.006766545 -0.002289534 0 0 0 0
868000000 -0.526221275 0.463684886 0.007611678 -0.00557701 0 0 0 0
876000000 -0.317796081 0.556539654 0.007105074 -0.010091423 0 0 0 0
884000000 -0.109882973 0.535774409 0.003309957 -0.015859005 0 0 0 0
892000000 0.029579162 0.428784936 -0.008413007 -0.019751396 0 0 0 0
900000000 0.245361983 0.270592242 -0.024218136 -0.01390002 0 0 0 0
908000000 0.248613998 0.218212589 -0.033309262 0.006980822 0 0 0 0
916000000 0.252471297 0.150712355 -0.021608242 0.030716935 0 0 0 0
924000000 0.214270129 0.063778959 0.005855867 0.03926222 0 0 0 0
932000000 0.110435828 0.063702166 0.033577311 0.022524677 0 0 0 0
940000000 0.077400691 0.195059314 0.037145059 -0.007611046 0 0 0 0
948000000 0.243508517 0.304516464 0.018007334 -0.026291692 0 0 0 0
956000000 0.434202104 0.222679466 -0.00109613 -0.025853302 0 0 0 0
964000000 0.541640639 0.005128078 -0.011558799 -0.015172197 0 0 0 0
972000000 0.491585612 -0.250499814 -0.013215596 -0.005190136 0 0 0 0
980000000 0.301101565 -0.449972718 -0.010967575 0.000333352 0 0 0 0
988000000 0.036386042 -0.547382712 -0.008680531 0.003485212 0 0 0 0
996000000 -0.246173053 -0.500605463 -0.005790136 0.004645172 0 0 0 0
1004000000 -0.491596728 -0.368823736 -0.005046034 0.00462677 0 0 0 0
