# Hz S RI R 50
700000000 0.766469419 0.525731921 -1.6544e-05 0.000848593 0 0 0 0
708000000 0.869153559 0.283127605 3.0097e-05 0.001108578 0 0 0 0
716000000 0.891331553 0.013085035 3.5719e-05 0.001090861 0 0 0 0
724000000 0.834129452 -0.257556527 0.000249928 0.001269205 0 0 0 0
732000000 0.683924138 -0.513318002 0.000556295 0.001448814 0 0 0 0
740000000 0.441940277 -0.702654898 0.00092023 0.001619482 0 0 0 0
748000000 0.137661471 -0.794289529 0.001321377 0.001280712 0 0 0 0
756000000 -0.198797181 -0.750358939 0.001470835 0.001139062 0 0 0 0
764000000 -0.493305027 -0.543067336 0.00166215 0.00049658 0 0 0 0
772000000 -0.654643952 -0.188618615 0.001492536 8.766e-05 0 0 0 0
780000000 -0.578300833 0.232769623 0.001422011 -0.000748299 0 0 0 0
788000000 -0.22497119 0.53107059 0.000698429 -0.001673452 0 0 0 0
796000000 0.259261071 0.507228672 -0.000923818 -0.002079527 0 0 0 0
804000000 0.576445102 0.149543747 -0.003404409 -0.000988024 0 0 0 0
812000000 0.544630169 -0.303239345 -0.0035566 0.002176782 0 0 0 0
820000000 0.249608516 -0.583910763 -0.001243893 0.004076629 0 0 0 0
828000000 -0.123286694 -0.633908033 0.001122585 0.00411758 0 0 0 0
836000000 -0.434206277 -0.499576896 0.002860253 0.003139684 0 0 0 0
844000000 -0.629899919 -0.255731552 0.004393313 0.001660919 0 0 0 0
852000000 -0.699601411 0.011148767 0.00547377 0.000256416 0 0 0 0
860000000 -0.660285234 0.27086392 0.00671875 -0.001723629 0 0 0 0
868000000 -0.517962813 0.468437254 0.00795862 -0.004741824 0 0 0 0
876000000 -0.31565535 0.561742365 0.008086305 -0.009671272 0 0 0 0
884000000 -0.109072692 0.544593274 0.004179321 -0.01605774 0 0 0 0
892000000 0.033442176 0.422461479 -0.006086199 -0.020442951 0 0 0 0
900000000 0.252945363 0.262994766 -0.023946426 -0.014252762 0 0 0 0
908000000 0.234332948 0.200413167 -0.03247201 0.00512879 0 0 0 0
916000000 0.244482845 0.148609757 -0.022260416 0.028636885 0 0 0 0
924000000 0.200265064 0.075087234 0.002910661 0.038239188 0 0 0 0
932000000 0.108458295 0.080342926 0.030241005 0.024335471 0 0 0 0
940000000 0.088486954 0.210909694 0.035828281 -0.003480676 0 0 0 0
948000000 0.259530693 0.315758466 0.020821569 -0.023299584 0 0 0 0
956000000 0.441984474 0.213629156 0.001679462 -0.025557931 0 0 0 0
964000000 0.542873382 0.003420967 -0.009532051 -0.016112038 0 0 0 0
972000000 0.488847762 -0.254238158 -0.012839826 -0.007017091 0 0 0 0
980000000 0.303408592 -0.465935945 -0.010296863 -0.0011648 0 0 0 0
988000000 0.040057964 -0.531192719 -0.00972254 0.002679532 0 0 0 0
996000000 -0.250937849 -0.494172394 -0.00692435 0.004539532 0 0 0 0
1004000000 -0.482344627 -0.361196875 -0.005460878 0.005948404 0 0 0 0
