# Hz S RI R 50
700000000 0.768654286 0.527691006 6.8035e-05 0.000668359 0 0 0 0
708000000 0.866109371 0.285281598 5.0614e-05 0.001173381 0 0 0 0
716000000 0.891197621 0.01204116 0.000198079 0.001228638 0 0 0 0
724000000 0.829874098 -0.262441426 0.000253322 0.001593737 0 0 0 0
732000000 0.681305289 -0.512984752 0.000494603 0.001382076 0 0 0 0
740000000 0.443728029 -0.702674508 0.000986614 0.001432298 0 0 0 0
748000000 0.133731946 -0.795955777 0.001265761 0.001289653 0 0 0 0
756000000 -0.195786178 -0.749884188 0.001586392 0.001059889 0 0 0 0
764000000 -0.496566027 -0.541651368 0.001495113 0.000633333 0 0 0 0
772000000 -0.654166042 -0.183898076 0.001639413 -7.0582e-05 0 0 0 0
780000000 -0.576376497 0.239504233 0.001550726 -0.00053963 0 0 0 0
788000000 -0.217577844 0.530591547 0.000533365 -0.001534704 0 0 0 0
796000000 0.264323443 0.498030692 -0.001196205 -0.001917614 0 0 0 0
804000000 0.573124706 0.134559273 -0.003471397 -0.000790875 0 0 0 0
812000000 0.532472968 -0.311486542 -0.003495208 0.002365328 0 0 0 0
820000000 0.236703157 -0.583540618 -0.00102978 0.003966618 0 0 0 0
828000000 -0.131065174 -0.626014351 0.001353158 0.00405905 0 0 0 0
836000000 -0.432369351 -0.488865137 0.002980748 0.003233147 0 0 0 0
844000000 -0.622606575 -0.24981366 0.004740525 0.001470186 0 0 0 0
852000000 -0.696571886 0.019769195 0.005752039 9.8588e-05 0 0 0 0
860000000 -0.656263709 0.273597419 0.006936205 -0.001601953 0 0 0 0
868000000 -0.51660484 0.464238017 0.008033387 -0.004843027 0 0 0 0
876000000 -0.311951488 0.557742118 0.008309292 -0.009824656 0 0 0 0
884000000 -0.113145075 0.535818874 0.00446698 -0.016377966 0 0 0 0
892000000 0.03293883 0.42723602 -0.00564947 -0.021775506 0 0 0 0
900000000 0.262996822 0.270692527 -0.024854894 -0.015897812 0 0 0 0
908000000 0.247579634 0.200590655 -0.036561466 0.00481847 0 0 0 0
916000000 0.241094708 0.14133121 -0.026205752 0.032817881 0 0 0 0
924000000 0.194949597 0.067577846 0.005779282 0.045383851 0 0 0 0
932000000 0.09854561 0.084307953 0.039129666 0.026457032 0 0 0 0
940000000 0.064963549 0.218617483 0.041696775 -0.010424332 0 0 0 0
948000000 0.260209858 0.32326889 0.01745917 -0.029578227 0 0 0 0
956000000 0.455783247 0.225402325 -0.00248896 -0.026972535 0 0 0 0
964000000 0.557768583 -0.005333875 -0.012560803 -0.015227314 0 0 0 0
972000000 0.505419731 -0.262253969 -0.013551439 -0.005616403 0 0 0 0
980000000 0.292849868 -0.466833382 -0.010776081 3.1042e-05 0 0 0 0
988000000 0.022994091 -0.551457047 -0.009008693 0.003917668 0 0 0 0
996000000 -0.251948744 -0.502705991 -0.006373777 0.004724304 0 0 0 0
1004000000 -0.480992585 -0.352946311 -0.004678396 0.006071573 0 0 0 0
