# Hz S RI R 50
700000000 0.763216733 0.532080471 0.00012282 0.00080291 0 0 0 0
708000000 0.867765665 0.282744824 0.000195968 0.001075912 0 0 0 0
716000000 0.892186701 0.010756772 0.000233289 0.001217378 0 0 0 0
724000000 0.832246124 -0.261033922 0.000336311 0.001545741 0 0 0 0
732000000 0.679601013 -0.511685311 0.000616723 0.001460553 0 0 0 0
740000000 0.441897213 -0.703881382 0.000989436 0.001480322 0 0 0 0
748000000 0.132339939 -0.798122584 0.001325613 0.001182572 0 0 0 0
756000000 -0.203511759 -0.748399019 0.001513569 0.000748931 0 0 0 0
764000000 -0.497572541 -0.536503136 0.001696994 0.000407749 0 0 0 0
772000000 -0.651029407 -0.177952796 0.001467397 4.4483e-05 0 0 0 0
780000000 -0.567576587 0.240368321 0.001070483 -0.000622297 0 0 0 0
788000000 -0.202030837 0.530439794 0.000464932 -0.001442014 0 0 0 0
796000000 0.272986024 0.485961765 -0.001154826 -0.001446853 0 0 0 0
804000000 0.57272154 0.118095166 -0.002832315 -0.000293921 0 0 0 0
812000000 0.517630279 -0.320882499 -0.002497356 0.002249987 0 0 0 0
820000000 0.22171089 -0.58276093 -0.000465317 0.003435188 0 0 0 0
828000000 -0.145909696 -0.619431614 0.000952802 0.003157078 0 0 0 0
836000000 -0.439892113 -0.475575596 0.002501816 0.002548762 0 0 0 0
844000000 -0.626773774 -0.235688954 0.003778706 0.001687308 0 0 0 0
852000000 -0.689499139 0.034807268 0.005191755 0.000621915 0 0 0 0
860000000 -0.640884101 0.282322049 0.006698539 -0.001081353 0 0 0 0
868000000 -0.501519024 0.463206112 0.008631497 -0.004229216 0 0 0 0
876000000 -0.296791493 0.546875059 0.009217499 -0.009621594 0 0 0 0
884000000 -0.106293022 0.518947601 0.0055463 -0.017077784 0 0 0 0
892000000 0.036013938 0.406259238 -0.008072106 -0.020780267 0 0 0 0
900000000 0.246300444 0.256198614 -0.02669958 -0.016886573 0 0 0 0
908000000 0.230267047 0.193629592 -0.038315292 0.005384092 0 0 0 0
916000000 0.229135781 0.147414848 -0.026289546 0.034832958 0 0 0 0
924000000 0.179193198 0.074343733 0.007237388 0.047265049 0 0 0 0
932000000 0.089775718 0.104468658 0.040461216 0.025703206 0 0 0 0
940000000 0.092091254 0.24811396 0.040668755 -0.011754781 0 0 0 0
948000000 0.287900716 0.327275812 0.017081726 -0.02946723 0 0 0 0
956000000 0.46790719 0.20793128 -0.002477853 -0.026262011 0 0 0 0
964000000 0.55559659 -0.014238348 -0.011861911 -0.015273159 0 0 0 0
972000000 0.49208346 -0.273209214 -0.013468289 -0.005415276 0 0 0 0
980000000 0.293489843 -0.480269163 -0.011456597 0.000215688 0 0 0 0
988000000 0.01570155 -0.550268411 -0.009241652 0.003479552 0 0 0 0
996000000 -0.260976076 -0.493201434 -0.00717896 0.004571229 0 0 0 0
1004000000 -0.499216943 -0.355753093 -0.005423069 0.005646986 0 0 0 0
