# Hz S RI R 50
700000000 0.766954898 0.52795571 0.000119181 0.000708479 0 0 0 0
708000000 0.866071343 0.285497367 5.5639e-05 0.001139513 0 0 0 0
716000000 0.891343772 0.010528578 0.000287822 0.001229052 0 0 0 0
724000000 0.834234774 -0.264320492 0.000489372 0.001394235 0 0 0 0
732000000 0.682363927 -0.511861622 0.000510225 0.001606028 0 0 0 0
740000000 0.441768318 -0.702983856 0.000894835 0.001565391 0 0 0 0
748000000 0.136698827 -0.794455051 0.001397144 0.00139026 0 0 0 0
756000000 -0.196201592 -0.751006901 0.001570966 0.000718603 0 0 0 0
764000000 -0.493395894 -0.545364081 0.001534688 0.000286371 0 0 0 0
772000000 -0.654452443 -0.189994886 0.001560872 -0.000336839 0 0 0 0
780000000 -0.577402174 0.233851641 0.001303314 -0.00083246 0 0 0 0
788000000 -0.22393009 0.530610561 0.000113538 -0.001518369 0 0 0 0
796000000 0.262682974 0.502137005 -0.001593421 -0.001775958 0 0 0 0
804000000 0.570980846 0.142485126 -0.003245968 -0.000147266 0 0 0 0
812000000 0.538192391 -0.305417984 -0.002983239 0.002696669 0 0 0 0
820000000 0.247828021 -0.582423329 -0.000635891 0.004185864 0 0 0 0
828000000 -0.123659163 -0.633899509 0.001670676 0.003949934 0 0 0 0
836000000 -0.433246821 -0.500187993 0.003185949 0.002735912 0 0 0 0
844000000 -0.626970291 -0.258849233 0.004697838 0.001142567 0 0 0 0
852000000 -0.701100885 0.015731677 0.005517736 -0.000422622 0 0 0 0
860000000 -0.65958029 0.27455002 0.006483998 -0.002115375 0 0 0 0
868000000 -0.517458379 0.46724227 0.007556899 -0.005109067 0 0 0 0
876000000 -0.310975998 0.561974227 0.0074693 -0.009923501 0 0 0 0
884000000 -0.102437853 0.540894687 0.003577321 -0.016027905 0 0 0 0
892000000 0.035741843 0.414275228 -0.008881926 -0.020323725 0 0 0 0
900000000 0.250694364 0.254052549 -0.023922957 -0.014543749 0 0 0 0
908000000 0.231420829 0.199023798 -0.032933622 0.006933075 0 0 0 0
916000000 0.227267399 0.15470381 -0.02100221 0.030914461 0 0 0 0
924000000 0.203245669 0.086557246 0.006491515 0.038812682 0 0 0 0
932000000 0.107938468 0.091575384 0.032403487 0.022654702 0 0 0 0
940000000 0.091005221 0.229456827 0.036570239 -0.006219828 0 0 0 0
948000000 0.258791714 0.31196326 0.020183198 -0.025228975 0 0 0 0
956000000 0.442922383 0.210281983 0.000121253 -0.02594755 0 0 0 0
964000000 0.547977387 -0.002670112 -0.011270201 -0.015646187 0 0 0 0
972000000 0.494246214 -0.261598587 -0.013730812 -0.00594498 0 0 0 0
980000000 0.2940647 -0.459777742 -0.011784916 0.000268473 0 0 0 0
988000000 0.029803438 -0.545096218 -0.007979815 0.004137725 0 0 0 0
996000000 -0.2418105 -0.50323528 -0.006525961 0.004689681 0 0 0 0
1004000000 -0.491816431 -0.354273557 -0.004678179 0.005699797 0 0 0 0
