# Hz S RI R 50
700000000 0.767722249 0.53271538 5.8246e-05 0.000836394 0 0 0 0
708000000 0.865405976 0.285742968 7.7119e-05 0.001150954 0 0 0 0
716000000 0.891121029 0.013840418 4.2107e-05 0.001251349 0 0 0 0
724000000 0.836833894 -0.261404633 0.000282238 0.001395992 0 0 0 0
732000000 0.681360602 -0.510752975 0.000646083 0.001567534 0 0 0 0
740000000 0.443468004 -0.702368259 0.000973321 0.001326941 0 0 0 0
748000000 0.138713806 -0.795309662 0.001392281 0.001289227 0 0 0 0
756000000 -0.19783464 -0.751222908 0.001393855 0.000888822 0 0 0 0
764000000 -0.494845002 -0.542161345 0.001607641 0.000438398 0 0 0 0
772000000 -0.654777526 -0.185068532 0.001625017 -0.000168793 0 0 0 0
780000000 -0.576580226 0.231905311 0.001364624 -0.00067768 0 0 0 0
788000000 -0.222777009 0.528788208 0.000388039 -0.001557129 0 0 0 0
796000000 0.259337812 0.503174066 -0.00127172 -0.001966965 0 0 0 0
804000000 0.573088109 0.14598596 -0.003348757 -0.000359958 0 0 0 0
812000000 0.538203239 -0.303828328 -0.003087126 0.002378921 0 0 0 0
820000000 0.247654005 -0.582820951 -0.000932661 0.004304253 0 0 0 0
828000000 -0.128132626 -0.63279587 0.001449941 0.004241187 0 0 0 0
836000000 -0.43311268 -0.498288542 0.003318998 0.003242253 0 0 0 0
844000000 -0.634085178 -0.260098189 0.004890673 0.001465904 0 0 0 0
852000000 -0.702626764 0.016062127 0.006257734 -0.00018747 0 0 0 0
860000000 -0.660514533 0.276686847 0.007293266 -0.002554255 0 0 0 0
868000000 -0.518020927 0.468219786 0.007999598 -0.006035308 0 0 0 0
876000000 -0.305488944 0.567063093 0.007052896 -0.010893293 0 0 0 0
884000000 -0.100871831 0.539773344 0.002571464 -0.01684108 0 0 0 0
892000000 0.039896458 0.413563072 -0.00820259 -0.020451858 0 0 0 0
900000000 0.246523603 0.254026949 -0.025120373 -0.012301795 0 0 0 0
908000000 0.235096186 0.198961168 -0.032856915 0.009075025 0 0 0 0
916000000 0.228122144 0.150004476 -0.019077543 0.032195135 0 0 0 0
924000000 0.197987601 0.086028374 0.008978505 0.038289479 0 0 0 0
932000000 0.106872335 0.095958761 0.033778008 0.019769471 0 0 0 0
940000000 0.101200699 0.224425077 0.034987095 -0.008913265 0 0 0 0
948000000 0.276626974 0.307740509 0.017107255 -0.025287063 0 0 0 0
956000000 0.448176056 0.211239576 -0.001515267 -0.025068219 0 0 0 0
964000000 0.543564021 -0.015011067 -0.010823483 -0.014521409 0 0 0 0
972000000 0.489544808 -0.264105319 -0.013009246 -0.005433436 0 0 0 0
980000000 0.299691647 -0.45907098 -0.010653042 -0.000139938 0 0 0 0
988000000 0.030229192 -0.544288277 -0.008739677 0.003103706 0 0 0 0
996000000 -0.249314606 -0.495958715 -0.00629564 0.004530128 0 0 0 0
1004000000 -0.485651761 -0.350703418 -0.005291877 0.005376501 0 0 0 0
