# Hz S RI R 50
700000000 0.762707293 0.53445059 8.7603e-05 0.000830544 0 0 0 0
708000000 0.865654706 0.287254542 9.7995e-05 0.001088173 0 0 0 0
716000000 0.890485227 0.014086247 0.000115645 0.001156317 0 0 0 0
724000000 0.835217475 -0.258133739 0.000345649 0.001610833 0 0 0 0
732000000 0.681964516 -0.513333439 0.000561508 0.001461801 0 0 0 0
740000000 0.445954531 -0.699562132 0.000930344 0.001598118 0 0 0 0
748000000 0.138710841 -0.79318422 0.001302653 0.001345668 0 0 0 0
756000000 -0.193866878 -0.750524401 0.001492772 0.000861723 0 0 0 0
764000000 -0.492120236 -0.54516679 0.00176648 0.000333903 0 0 0 0
772000000 -0.656345188 -0.194955855 0.00155449 -0.000103368 0 0 0 0
780000000 -0.583578169 0.230156838 0.001178814 -0.000744542 0 0 0 0
788000000 -0.235148057 0.53201729 0.000138461 -0.001555121 0 0 0 0
796000000 0.252471446 0.513075411 -0.001357127 -0.001940532 0 0 0 0
804000000 0.576378703 0.157275274 -0.003652555 -0.000416727 0 0 0 0
812000000 0.549632132 -0.293741375 -0.003484213 0.002575103 0 0 0 0
820000000 0.261469334 -0.583176732 -0.000901516 0.004565693 0 0 0 0
828000000 -0.115817785 -0.642387092 0.001474818 0.00437082 0 0 0 0
836000000 -0.427573144 -0.510332822 0.003590375 0.003189882 0 0 0 0
844000000 -0.632340908 -0.271799385 0.00519263 0.001621704 0 0 0 0
852000000 -0.711490035 0.007798237 0.006424322 -0.000308456 0 0 0 0
860000000 -0.670729517 0.26777783 0.007398516 -0.002857524 0 0 0 0
868000000 -0.532738268 0.469722658 0.008127166 -0.006225446 0 0 0 0
876000000 -0.324327647 0.576469242 0.007343347 -0.011511814 0 0 0 0
884000000 -0.10992632 0.55663228 0.002127476 -0.017347157 0 0 0 0
892000000 0.064299494 0.457912385 -0.011607647 -0.020807495 0 0 0 0
900000000 0.26467961 0.25623393 -0.026542875 -0.010683293 0 0 0 0
908000000 0.255177736 0.191496089 -0.032708775 0.011142153 0 0 0 0
916000000 0.242106437 0.134571895 -0.016290767 0.034022681 0 0 0 0
924000000 0.200552865 0.05893401 0.012066747 0.036700237 0 0 0 0
932000000 0.103543505 0.076322391 0.03424279 0.016466787 0 0 0 0
940000000 0.069065071 0.215709373 0.033406205 -0.010790926 0 0 0 0
948000000 0.244633242 0.309371203 0.014998516 -0.024966862 0 0 0 0
956000000 0.438303917 0.216670453 -0.00318487 -0.023343678 0 0 0 0
964000000 0.544053316 0.017734745 -0.011291653 -0.012799254 0 0 0 0
972000000 0.492897242 -0.245980203 -0.011658587 -0.004357401 0 0 0 0
980000000 0.313545495 -0.45325765 -0.009573224 0.000458463 0 0 0 0
988000000 0.046706017 -0.536900222 -0.007774206 0.002999257 0 0 0 0
996000000 -0.235128805 -0.499318629 -0.005611786 0.004328026 0 0 0 0
1004000000 -0.485043734 -0.364300161 -0.005144641 0.004534892 0 0 0 0
