# Hz S RI R 50
700000000 0.765061199 0.528985261 8.8069e-05 0.000614274 0 0 0 0
708000000 0.867125689 0.285153627 0.000129823 0.000942689 0 0 0 0
716000000 0.891952395 0.011399454 6.045e-05 0.001236365 0 0 0 0
724000000 0.834910452 -0.261061549 0.000136192 0.00131383 0 0 0 0
732000000 0.683574795 -0.511844158 0.000595805 0.001471098 0 0 0 0
740000000 0.444589883 -0.703977227 0.000945482 0.001595659 0 0 0 0
748000000 0.1381035 -0.796289741 0.001383199 0.001289822 0 0 0 0
756000000 -0.196321845 -0.750134348 0.001631387 0.001118652 0 0 0 0
764000000 -0.495449721 -0.543115437 0.00156725 0.000430969 0 0 0 0
772000000 -0.654980599 -0.188818514 0.001391611 -3.6628e-05 0 0 0 0
780000000 -0.577989339 0.23406668 0.001202771 -0.000836479 0 0 0 0
788000000 -0.224685221 0.532131373 0.000477573 -0.001455026 0 0 0 0
796000000 0.262865751 0.50214678 -0.001234734 -0.001888009 0 0 0 0
804000000 0.573465168 0.143273502 -0.003273133 -0.000240718 0 0 0 0
812000000 0.537102878 -0.306454628 -0.003047951 0.002418218 0 0 0 0
820000000 0.24424684 -0.585612177 -0.000724667 0.004057723 0 0 0 0
828000000 -0.124168559 -0.634178161 0.001619727 0.003697237 0 0 0 0
836000000 -0.433985412 -0.496602982 0.003269416 0.002685944 0 0 0 0
844000000 -0.626775264 -0.258049935 0.004234718 0.001155682 0 0 0 0
852000000 -0.703337311 0.015222374 0.005451732 -0.000272118 0 0 0 0
860000000 -0.659865856 0.276284724 0.006320307 -0.001977272 0 0 0 0
868000000 -0.521947264 0.465480327 0.007329447 -0.004782996 0 0 0 0
876000000 -0.311846911 0.559420287 0.007337557 -0.009480517 0 0 0 0
884000000 -0.10723602 0.536499142 0.003790244 -0.015406496 0 0 0 0
892000000 0.02897739 0.422028601 -0.005226972 -0.019878596 0 0 0 0
900000000 0.258410066 0.273568749 -0.023530198 -0.01395754 0 0 0 0
908000000 0.244657352 0.198459863 -0.031784947 0.005474433 0 0 0 0
916000000 0.24348089 0.147478595 -0.021476915 0.028720377 0 0 0 0
924000000 0.208002135 0.078888773 0.004513246 0.037577368 0 0 0 0
932000000 0.110225021 0.073330193 0.030512576 0.023447765 0 0 0 0
940000000 0.073957473 0.205971747 0.035594519 -0.004857793 0 0 0 0
948000000 0.248990595 0.320797294 0.018949894 -0.024237526 0 0 0 0
956000000 0.438127994 0.222930088 0.000271214 -0.025305097 0 0 0 0
964000000 0.548213183 0.007266879 -0.009978778 -0.015916027 0 0 0 0
972000000 0.49109891 -0.249383121 -0.01307621 -0.007003842 0 0 0 0
980000000 0.306907147 -0.458267241 -0.011621477 -0.000557873 0 0 0 0
988000000 0.032226726 -0.534984648 -0.009115367 0.002897399 0 0 0 0
996000000 -0.248541861 -0.490124851 -0.007016373 0.004224813 0 0 0 0
1004000000 -0.479309171 -0.343973994 -0.00549932 0.006228714 0 0 0 0
