# Hz S RI R 50
700000000 0.769160509 0.525802969 -4.6109e-05 0.000574933 0 0 0 0
708000000 0.866100907 0.28424552 1.3015e-05 0.001048245 0 0 0 0
716000000 0.889852344 0.012199761 0.000140592 0.001299915 0 0 0 0
724000000 0.835409164 -0.260600388 0.000344404 0.001484612 0 0 0 0
732000000 0.680198192 -0.511648356 0.000615896 0.001561904 0 0 0 0
740000000 0.444213032 -0.703013956 0.00085369 0.001403286 0 0 0 0
748000000 0.136739566 -0.792787373 0.001268973 0.001421457 0 0 0 0
756000000 -0.199364945 -0.748856723 0.001510092 0.00104494 0 0 0 0
764000000 -0.496373891 -0.540385603 0.001591138 0.00044834 0 0 0 0
772000000 -0.654836833 -0.18525055 0.00143919 0.000236642 0 0 0 0
780000000 -0.575939953 0.236234679 0.001399443 -0.000381659 0 0 0 0
788000000 -0.215364545 0.529565751 0.000601694 -0.001337901 0 0 0 0
796000000 0.269649654 0.49404776 -0.001147805 -0.001961748 0 0 0 0
804000000 0.570211529 0.134764716 -0.003035396 -0.000451567 0 0 0 0
812000000 0.532501757 -0.307974815 -0.002991418 0.001878608 0 0 0 0
820000000 0.236855685 -0.58192861 -0.000986438 0.003513728 0 0 0 0
828000000 -0.133297815 -0.626189947 0.000786348 0.003491138 0 0 0 0
836000000 -0.431072294 -0.490745157 0.002373031 0.002757553 0 0 0 0
844000000 -0.622987687 -0.252463012 0.003971364 0.001760903 0 0 0 0
852000000 -0.699478209 0.016064178 0.005272009 0.000848212 0 0 0 0
860000000 -0.655948936 0.271616339 0.007030669 -0.000839808 0 0 0 0
868000000 -0.521272659 0.459767252 0.00870031 -0.004272314 0 0 0 0
876000000 -0.314772784 0.559606611 0.009429218 -0.009446168 0 0 0 0
884000000 -0.115363575 0.54427129 0.006144391 -0.017062308 0 0 0 0
892000000 0.026351688 0.429009139 -0.003030425 -0.023124614 0 0 0 0
900000000 0.26055926 0.272651404 -0.025785006 -0.018856596 0 0 0 0
908000000 0.254815995 0.200493335 -0.038665305 0.004833645 0 0 0 0
916000000 0.252438455 0.130574911 -0.027315368 0.035005446 0 0 0 0
924000000 0.201957911 0.058042746 0.006856927 0.047010354 0 0 0 0
932000000 0.084495574 0.071317009 0.039191722 0.026813754 0 0 0 0
940000000 0.065321914 0.226643055 0.042100094 -0.010137081 0 0 0 0
948000000 0.255909591 0.326737821 0.019357156 -0.029574377 0 0 0 0
956000000 0.452012896 0.232299253 -0.002240806 -0.02714587 0 0 0 0
964000000 0.559809684 0.005330717 -0.012080887 -0.015894694 0 0 0 0
972000000 0.492932111 -0.259740293 -0.013969263 -0.006117399 0 0 0 0
980000000 0.301480859 -0.472802549 -0.011921115 0.00012012 0 0 0 0
988000000 0.033367618 -0.544845163 -0.009077134 0.003535709 0 0 0 0
996000000 -0.25570774 -0.497286856 -0.006713771 0.003898833 0 0 0 0
1004000000 -0.492261558 -0.349055409 -0.005225777 0.005179093 0 0 0 0
