# Hz S RI R 50
700000000 0.763535678 0.527753055 2.6403e-05 0.000732715 0 0 0 0
708000000 0.863862991 0.286260604 0.000130619 0.001029561 0 0 0 0
716000000 0.887872159 0.017333067 0.00023089 0.001372428 0 0 0 0
724000000 0.829810678 -0.261223793 0.000259671 0.001524876 0 0 0 0
732000000 0.68271166 -0.512226581 0.000545217 0.001541147 0 0 0 0
740000000 0.44333449 -0.702721655 0.000858967 0.001570934 0 0 0 0
748000000 0.136807486 -0.794097721 0.00136349 0.001209958 0 0 0 0
756000000 -0.195804163 -0.749674856 0.001596999 0.000973079 0 0 0 0
764000000 -0.494773924 -0.543209969 0.001479712 0.000519503 0 0 0 0
772000000 -0.654533326 -0.185844987 0.001704234 -0.000103998 0 0 0 0
780000000 -0.579685628 0.232690647 0.001396344 -0.00072548 0 0 0 0
788000000 -0.22483997 0.531051993 0.000553716 -0.001630015 0 0 0 0
796000000 0.261644929 0.501390278 -0.001434938 -0.002200902 0 0 0 0
804000000 0.575222432 0.147293865 -0.003771516 -0.000791285 0 0 0 0
812000000 0.544027388 -0.305244147 -0.003677092 0.00275137 0 0 0 0
820000000 0.251325428 -0.58708465 -0.000847652 0.004811778 0 0 0 0
828000000 -0.125149592 -0.637255847 0.001766952 0.004651479 0 0 0 0
836000000 -0.436010658 -0.499744027 0.003554686 0.003518096 0 0 0 0
844000000 -0.632700145 -0.259267032 0.005666664 0.001682537 0 0 0 0
852000000 -0.706798017 0.014014923 0.006789802 -0.000432404 0 0 0 0
860000000 -0.663568019 0.27398014 0.007702557 -0.003057045 0 0 0 0
868000000 -0.527828037 0.470297962 0.008132929 -0.00688552 0 0 0 0
876000000 -0.313600957 0.567676723 0.006852189 -0.01185754 0 0 0 0
884000000 -0.105259351 0.555695116 0.001331166 -0.017578395 0 0 0 0
892000000 0.024360451 0.408469557 -0.015456297 -0.01213502 0 0 0 0
900000000 0.267602562 0.259005099 -0.027425894 -0.010043174 0 0 0 0
908000000 0.234740987 0.182600215 -0.031721189 0.011925956 0 0 0 0
916000000 0.238756105 0.14078553 -0.015174857 0.033996962 0 0 0 0
924000000 0.192298054 0.074496962 0.013630402 0.034695435 0 0 0 0
932000000 0.093933388 0.089199244 0.033333919 0.014139859 0 0 0 0
940000000 0.085913792 0.221389397 0.03000769 -0.010547048 0 0 0 0
948000000 0.255662202 0.314629107 0.013505127 -0.023398233 0 0 0 0
956000000 0.447053819 0.216402813 -0.002644825 -0.021401805 0 0 0 0
964000000 0.537833571 -0.000644863 -0.01037242 -0.012696783 0 0 0 0
972000000 0.48692736 -0.244536191 -0.011399851 -0.005036909 0 0 0 0
980000000 0.297194451 -0.451916962 -0.009336724 -0.000813585 0 0 0 0
988000000 0.037001896 -0.527940154 -0.008205388 0.00270507 0 0 0 0
996000000 -0.245499029 -0.500369071 -0.006361713 0.003599718 0 0 0 0
1004000000 -0.477001339 -0.354943573 -0.004962207 0.004644788 0 0 0 0
