# Hz S RI R 50
700000000 0.766901969 0.531290411 4.2016e-05 0.000731711 0 0 0 0
708000000 0.866059362 0.285725593 8.3958e-05 0.000976252 0 0 0 0
716000000 0.892422676 0.015597103 9.0656e-05 0.001269149 0 0 0 0
724000000 0.833284139 -0.26377815 0.000364641 0.001343979 0 0 0 0
732000000 0.680737435 -0.513883531 0.000659318 0.001515137 0 0 0 0
740000000 0.441311478 -0.703789412 0.00103562 0.001525212 0 0 0 0
748000000 0.134011462 -0.793136358 0.001205105 0.00141223 0 0 0 0
756000000 -0.200216248 -0.747901856 0.001366409 0.001017206 0 0 0 0
764000000 -0.49366492 -0.541475474 0.001383475 0.000438452 0 0 0 0
772000000 -0.654342293 -0.179333984 0.001288585 6.575e-05 0 0 0 0
780000000 -0.569552063 0.239181354 0.001165477 -0.000469847 0 0 0 0
788000000 -0.209409892 0.529664576 0.000561964 -0.001442393 0 0 0 0
796000000 0.268063694 0.491666883 -0.000942625 -0.001738671 0 0 0 0
804000000 0.56753689 0.129282295 -0.002957566 -0.000414937 0 0 0 0
812000000 0.525493681 -0.311543285 -0.002992647 0.002150263 0 0 0 0
820000000 0.232728242 -0.580198824 -0.000643014 0.003540389 0 0 0 0
828000000 -0.135342955 -0.62235713 0.000998181 0.003562698 0 0 0 0
836000000 -0.431409358 -0.484161376 0.002480085 0.0029667 0 0 0 0
844000000 -0.623492538 -0.247793421 0.003931717 0.001908189 0 0 0 0
852000000 -0.687964141 0.018725847 0.005261591 0.000805546 0 0 0 0
860000000 -0.650336861 0.271374702 0.006998908 -0.000850327 0 0 0 0
868000000 -0.512493491 0.461239218 0.008726418 -0.004226815 0 0 0 0
876000000 -0.310025781 0.55207771 0.009418725 -0.009677485 0 0 0 0
884000000 -0.111533395 0.534636318 0.005911761 -0.017377721 0 0 0 0
892000000 0.019624875 0.428102493 -0.006284422 -0.014915253 0 0 0 0
900000000 0.24827975 0.26429069 -0.027805939 -0.019084651 0 0 0 0
908000000 0.2427188 0.203113794 -0.039079975 0.005857647 0 0 0 0
916000000 0.239951297 0.148910567 -0.026914587 0.036024499 0 0 0 0
924000000 0.188442647 0.063538759 0.008004314 0.047216247 0 0 0 0
932000000 0.079824723 0.090263031 0.040748458 0.025544842 0 0 0 0
940000000 0.077130056 0.245179146 0.04171684 -0.011444646 0 0 0 0
948000000 0.272028118 0.327112585 0.018165826 -0.03015084 0 0 0 0
956000000 0.481755346 0.224457263 -0.00281132 -0.026169469 0 0 0 0
964000000 0.56614381 -0.009017235 -0.012314154 -0.015183995 0 0 0 0
972000000 0.502021789 -0.268830925 -0.014282182 -0.005846209 0 0 0 0
980000000 0.288037508 -0.47561559 -0.01089756 0.000262472 0 0 0 0
988000000 0.018711401 -0.539129972 -0.009138174 0.003456043 0 0 0 0
996000000 -0.259671211 -0.508378624 -0.00643021 0.004882568 0 0 0 0
1004000000 -0.492459505 -0.354394465 -0.004902762 0.006072524 0 0 0 0
