# Hz S RI R 50
700000000 0.767889142 0.529569447 -1.674e-05 0.000673155 0 0 0 0
708000000 0.865179777 0.282503306 8.3778e-05 0.000951009 0 0 0 0
716000000 0.88896507 0.014393373 0.000126126 0.001323967 0 0 0 0
724000000 0.835065484 -0.264970272 0.000384102 0.001394908 0 0 0 0
732000000 0.681013941 -0.511013746 0.000451161 0.001589113 0 0 0 0
740000000 0.443627655 -0.704480469 0.000811977 0.001625249 0 0 0 0
748000000 0.138097703 -0.793234109 0.00121864 0.00135786 0 0 0 0
756000000 -0.197589367 -0.748874545 0.00146803 0.000945105 0 0 0 0
764000000 -0.493790179 -0.541694164 0.001760963 0.000457945 0 0 0 0
772000000 -0.650240182 -0.187259078 0.001642784 -0.000236219 0 0 0 0
780000000 -0.574331223 0.231490269 0.001122674 -0.000700635 0 0 0 0
788000000 -0.218623131 0.526788532 0.000281572 -0.001487783 0 0 0 0
796000000 0.260312825 0.495750725 -0.001355922 -0.00183677 0 0 0 0
804000000 0.565724849 0.138637498 -0.003363416 -0.000263053 0 0 0 0
812000000 0.530230402 -0.305243372 -0.002957153 0.002549892 0 0 0 0
820000000 0.237719058 -0.577013075 -0.00055335 0.004165134 0 0 0 0
828000000 -0.128105789 -0.623592913 0.001336588 0.003753839 0 0 0 0
836000000 -0.428126454 -0.489886194 0.002862357 0.002729983 0 0 0 0
844000000 -0.618044435 -0.250057846 0.004209795 0.001642067 0 0 0 0
852000000 -0.691863954 0.014269094 0.00526739 7.9233e-05 0 0 0 0
860000000 -0.65099132 0.265843003 0.006664955 -0.001490245 0 0 0 0
868000000 -0.513627707 0.449750453 0.008301191 -0.004663106 0 0 0 0
876000000 -0.317072689 0.545541167 0.008590865 -0.00974591 0 0 0 0
884000000 -0.120583482 0.536378085 0.004803399 -0.016770947 0 0 0 0
892000000 0.017436714 0.427244931 -0.006606091 -0.021377881 0 0 0 0
900000000 0.254472911 0.285322815 -0.026293978 -0.016405083 0 0 0 0
908000000 0.244452938 0.215833216 -0.036903433 0.005585184 0 0 0 0
916000000 0.249677628 0.151905313 -0.025185188 0.033539276 0 0 0 0
924000000 0.197943583 0.080422177 0.006637157 0.045196112 0 0 0 0
932000000 0.111941561 0.095912046 0.03858485 0.025885142 0 0 0 0
940000000 0.089450299 0.211281582 0.041541989 -0.010187916 0 0 0 0
948000000 0.250380575 0.311923801 0.018116379 -0.029336471 0 0 0 0
956000000 0.442439824 0.215657845 -0.002590483 -0.02728934 0 0 0 0
964000000 0.54863137 -0.000967104 -0.012876909 -0.015979595 0 0 0 0
972000000 0.497563868 -0.257129102 -0.014837282 -0.005041903 0 0 0 0
980000000 0.308338105 -0.469371646 -0.011549135 0.001019701 0 0 0 0
988000000 0.025672867 -0.53757435 -0.009207278 0.003418573 0 0 0 0
996000000 -0.261607915 -0.498458772 -0.006890579 0.004803178 0 0 0 0
1004000000 -0.496843457 -0.352512896 -0.004270351 0.00597593 0 0 0 0
