# Hz S RI R 50
700000000 0.764347791 0.528099298 -5.8405e-05 0.000744216 0 0 0 0
708000000 0.868246734 0.284462422 -2.6542e-05 0.00101169 0 0 0 0
716000000 0.889308512 0.01070228 8.7075e-05 0.00138795 0 0 0 0
724000000 0.831420063 -0.263419926 0.000471763 0.001363157 0 0 0 0
732000000 0.681979119 -0.513388693 0.000480616 0.001614089 0 0 0 0
740000000 0.443515539 -0.702938735 0.00088664 0.001333871 0 0 0 0
748000000 0.135875433 -0.793378353 0.001306393 0.001438632 0 0 0 0
756000000 -0.199133992 -0.748463332 0.00160316 0.001036809 0 0 0 0
764000000 -0.494716465 -0.540872514 0.001551272 0.000545359 0 0 0 0
772000000 -0.656568706 -0.186308518 0.001604476 0.000102875 0 0 0 0
780000000 -0.57405591 0.234687164 0.001345389 -0.000706378 0 0 0 0
788000000 -0.220181792 0.532026946 0.000512055 -0.001416403 0 0 0 0
796000000 0.262921869 0.499813914 -0.001306657 -0.001820465 0 0 0 0
804000000 0.574762463 0.139809295 -0.003567813 -0.000493548 0 0 0 0
812000000 0.536358833 -0.307122379 -0.003192674 0.002421195 0 0 0 0
820000000 0.241158545 -0.586287498 -0.001098379 0.004125508 0 0 0 0
828000000 -0.129386112 -0.631287515 0.001335746 0.004280165 0 0 0 0
836000000 -0.43418008 -0.494434148 0.003305249 0.00312914 0 0 0 0
844000000 -0.62926501 -0.251702874 0.004962523 0.001633316 0 0 0 0
852000000 -0.697296917 0.022253211 0.005924386 -5.3042e-05 0 0 0 0
860000000 -0.655208945 0.279988616 0.007359576 -0.002297348 0 0 0 0
868000000 -0.512804806 0.472251534 0.008033651 -0.00595204 0 0 0 0
876000000 -0.297807693 0.555967211 0.007247782 -0.010904044 0 0 0 0
884000000 -0.098358057 0.528185129 0.002775357 -0.016687549 0 0 0 0
892000000 0.031096661 0.404876053 -0.007774248 -0.019114557 0 0 0 0
900000000 0.236494854 0.256848841 -0.026219541 -0.013134715 0 0 0 0
908000000 0.22791627 0.201692774 -0.032431855 0.009186969 0 0 0 0
916000000 0.224917531 0.15055786 -0.019462231 0.031908359 0 0 0 0
924000000 0.192508921 0.09068197 0.008187831 0.038273092 0 0 0 0
932000000 0.104635089 0.103118218 0.033332116 0.020271271 0 0 0 0
940000000 0.10218548 0.234446331 0.03512948 -0.008278173 0 0 0 0
948000000 0.271243542 0.308974653 0.017674786 -0.02522825 0 0 0 0
956000000 0.449983984 0.197891682 -0.00060124 -0.024042302 0 0 0 0
964000000 0.54955548 -0.013900874 -0.010826586 -0.014873167 0 0 0 0
972000000 0.487077355 -0.262521475 -0.012891473 -0.006161331 0 0 0 0
980000000 0.296252608 -0.463572353 -0.011080912 -0.000527066 0 0 0 0
988000000 0.02677864 -0.548655927 -0.009063495 0.003257425 0 0 0 0
996000000 -0.252091675 -0.492346197 -0.006785591 0.004389542 0 0 0 0
1004000000 -0.495664954 -0.356503516 -0.00505104 0.005302533 0 0 0 0
