# Hz S RI R 50
700000000 0.763115704 0.530120015 5.7336e-05 0.000711278 0 0 0 0
708000000 0.86383152 0.28542909 -4.342e-05 0.001085371 0 0 0 0
716000000 0.891698658 0.013384298 0.000135978 0.001174562 0 0 0 0
724000000 0.830724239 -0.258231401 0.000383485 0.001521868 0 0 0 0
732000000 0.681378364 -0.51163119 0.000559743 0.001518404 0 0 0 0
740000000 0.444559782 -0.703266739 0.000937901 0.001432429 0 0 0 0
748000000 0.137919977 -0.795135796 0.001500721 0.001286082 0 0 0 0
756000000 -0.197892114 -0.750498712 0.001562744 0.00095312 0 0 0 0
764000000 -0.49414429 -0.544150888 0.001513114 0.000309341 0 0 0 0
772000000 -0.653647303 -0.190907821 0.001388965 -0.000361602 0 0 0 0
780000000 -0.580534398 0.228285342 0.001004295 -0.000651476 0 0 0 0
788000000 -0.225057542 0.530667901 0.000355967 -0.001516961 0 0 0 0
796000000 0.258089393 0.504819512 -0.001422945 -0.001786689 0 0 0 0
804000000 0.572997987 0.144644349 -0.003528493 -0.000284223 0 0 0 0
812000000 0.541687786 -0.301854491 -0.002973578 0.002555668 0 0 0 0
820000000 0.248482644 -0.584271728 -0.000912646 0.004342647 0 0 0 0
828000000 -0.122534193 -0.634746551 0.001421094 0.004261357 0 0 0 0
836000000 -0.430114775 -0.499825805 0.003480268 0.002969409 0 0 0 0
844000000 -0.625983476 -0.259293794 0.005052912 0.001222052 0 0 0 0
852000000 -0.700938522 0.011938314 0.006038686 -0.000226851 0 0 0 0
860000000 -0.658630609 0.272539585 0.007289627 -0.002403456 0 0 0 0
868000000 -0.519902825 0.465529561 0.007949766 -0.005733111 0 0 0 0
876000000 -0.312045782 0.565568566 0.00744037 -0.010889362 0 0 0 0
884000000 -0.105636909 0.542977929 0.002881455 -0.017128767 0 0 0 0
892000000 0.033289249 0.423066139 -0.008338319 -0.021239802 0 0 0 0
900000000 0.243881314 0.264185726 -0.025779902 -0.013336744 0 0 0 0
908000000 0.237079992 0.203693151 -0.033770855 0.008927339 0 0 0 0
916000000 0.229810073 0.14647834 -0.020229503 0.033637747 0 0 0 0
924000000 0.208921507 0.076884582 0.009471921 0.040256962 0 0 0 0
932000000 0.112419001 0.087914675 0.035986658 0.021385587 0 0 0 0
940000000 0.080952435 0.210174053 0.037750467 -0.010137642 0 0 0 0
948000000 0.257183909 0.317418098 0.017358725 -0.028370322 0 0 0 0
956000000 0.442277491 0.209796771 -0.003042826 -0.025603534 0 0 0 0
964000000 0.546702206 -0.000896655 -0.012756545 -0.014344226 0 0 0 0
972000000 0.493478864 -0.251821428 -0.013869827 -0.004142965 0 0 0 0
980000000 0.308457762 -0.462558656 -0.011002401 0.001057092 0 0 0 0
988000000 0.034215837 -0.544188499 -0.008190878 0.003581627 0 0 0 0
996000000 -0.254570335 -0.493542283 -0.005377341 0.004493963 0 0 0 0
1004000000 -0.501707434 -0.354602277 -0.004601359 0.005413318 0 0 0 0
