# Hz S RI R 50
700000000 0.761927902 0.529599189 0.000111892 0.000617952 0 0 0 0
708000000 0.865901112 0.282105237 6.2719e-05 0.000897454 0 0 0 0
716000000 0.889676451 0.008900047 6.0613e-05 0.00126237 0 0 0 0
724000000 0.835795998 -0.260733693 0.000424028 0.001511485 0 0 0 0
732000000 0.680796563 -0.512573897 0.000496146 0.001419871 0 0 0 0
740000000 0.442320406 -0.704508841 0.000841476 0.001479382 0 0 0 0
748000000 0.137488961 -0.79431945 0.001264373 0.001420048 0 0 0 0
756000000 -0.198232486 -0.748279452 0.001443458 0.000927648 0 0 0 0
764000000 -0.493887931 -0.539392352 0.001605578 0.000641258 0 0 0 0
772000000 -0.652496695 -0.182006314 0.00131679 1.9636e-05 0 0 0 0
780000000 -0.57483083 0.236705645 0.001361414 -0.000441307 0 0 0 0
788000000 -0.213794097 0.527466475 0.000515254 -0.001317205 0 0 0 0
796000000 0.266254872 0.492318689 -0.001106458 -0.001784485 0 0 0 0
804000000 0.572611689 0.132412835 -0.003051615 -0.000628246 0 0 0 0
812000000 0.526616573 -0.310066163 -0.002835164 0.002053852 0 0 0 0
820000000 0.234665811 -0.581147193 -0.000757453 0.003478399 0 0 0 0
828000000 -0.131710469 -0.622648537 0.00073506 0.003507918 0 0 0 0
836000000 -0.433358848 -0.485891282 0.002513251 0.002953019 0 0 0 0
844000000 -0.623950421 -0.249553263 0.004087517 0.001807594 0 0 0 0
852000000 -0.691593766 0.021343464 0.00519719 0.000718587 0 0 0 0
860000000 -0.650500774 0.272711038 0.006971475 -0.000827579 0 0 0 0
868000000 -0.516155838 0.458396255 0.008810692 -0.004144999 0 0 0 0
876000000 -0.313294261 0.55125755 0.009388655 -0.009474423 0 0 0 0
884000000 -0.113238789 0.537052631 0.006093416 -0.017135519 0 0 0 0
892000000 0.021350534 0.437751322 -0.012208079 -0.013293605 0 0 0 0
900000000 0.246429353 0.270675957 -0.026484467 -0.018417617 0 0 0 0
908000000 0.247316017 0.197813227 -0.039204396 0.005908035 0 0 0 0
916000000 0.23943451 0.138886466 -0.026588888 0.03538125 0 0 0 0
924000000 0.192534148 0.063529595 0.007551366 0.046984042 0 0 0 0
932000000 0.097264118 0.082848995 0.040306646 0.026257487 0 0 0 0
940000000 0.073641367 0.23519288 0.041356109 -0.010801657 0 0 0 0
948000000 0.270030647 0.337887257 0.017774717 -0.030360996 0 0 0 0
956000000 0.456625401 0.215435087 -0.002361281 -0.02647851 0 0 0 0
964000000 0.557301104 -0.002313558 -0.01182131 -0.015413553 0 0 0 0
972000000 0.49173513 -0.259331047 -0.014153663 -0.005369041 0 0 0 0
980000000 0.29874593 -0.470742166 -0.011554733 0.000446485 0 0 0 0
988000000 0.020923791 -0.542099714 -0.008991138 0.003321032 0 0 0 0
996000000 -0.256203502 -0.495256721 -0.006763737 0.004201909 0 0 0 0
1004000000 -0.497228324 -0.348465472 -0.004881495 0.006038171 0 0 0 0
