# Hz S RI R 50
700000000 0.762375831 0.530833542 4.0398e-05 0.000805093 0 0 0 0
708000000 0.863700509 0.284224033 -6.4699e-05 0.001032514 0 0 0 0
716000000 0.889620423 0.015246226 0.000183222 0.001309215 0 0 0 0
724000000 0.828589975 -0.259667336 0.000374072 0.001325739 0 0 0 0
732000000 0.681647062 -0.511257171 0.00065889 0.001407012 0 0 0 0
740000000 0.442172199 -0.703388452 0.000901173 0.001572088 0 0 0 0
748000000 0.137926444 -0.795897603 0.001331113 0.00127848 0 0 0 0
756000000 -0.197558239 -0.750481486 0.001461555 0.000941108 0 0 0 0
764000000 -0.493368089 -0.543514907 0.001692819 0.000510699 0 0 0 0
772000000 -0.656987369 -0.189477011 0.00147941 -0.000159729 0 0 0 0
780000000 -0.578345477 0.231989085 0.001380566 -0.000551468 0 0 0 0
788000000 -0.22346881 0.532148301 0.000537505 -0.001518304 0 0 0 0
796000000 0.261359989 0.50589025 -0.00149526 -0.002199653 0 0 0 0
804000000 0.575704455 0.146840766 -0.003727584 -0.00077659 0 0 0 0
812000000 0.541004717 -0.299988895 -0.003704486 0.002814917 0 0 0 0
820000000 0.247368842 -0.584937155 -0.000979988 0.00469678 0 0 0 0
828000000 -0.126066774 -0.634083211 0.001501553 0.004567847 0 0 0 0
836000000 -0.432664573 -0.49697414 0.003630946 0.00346369 0 0 0 0
844000000 -0.63187766 -0.258896023 0.005318003 0.001679974 0 0 0 0
852000000 -0.704023301 0.017976365 0.006725245 -0.000480191 0 0 0 0
860000000 -0.662043273 0.274892866 0.007679419 -0.002982017 0 0 0 0
868000000 -0.521274507 0.4712013 0.008086591 -0.006765738 0 0 0 0
876000000 -0.310673505 0.56498444 0.00684195 -0.011749559 0 0 0 0
884000000 -0.105941392 0.544626772 0.001580586 -0.017424991 0 0 0 0
892000000 0.046783018 0.42543435 -0.008548899 -0.019008481 0 0 0 0
900000000 0.257048636 0.254105091 -0.026470018 -0.010506761 0 0 0 0
908000000 0.246730238 0.196063473 -0.031760104 0.011839871 0 0 0 0
916000000 0.238951891 0.138523697 -0.016385808 0.0336303 0 0 0 0
924000000 0.193818584 0.077934391 0.012303429 0.036348268 0 0 0 0
932000000 0.100990556 0.095855273 0.033763404 0.015702245 0 0 0 0
940000000 0.090909875 0.221187457 0.032066531 -0.010922703 0 0 0 0
948000000 0.260962963 0.299059808 0.014796779 -0.02437685 0 0 0 0
956000000 0.443417012 0.225938841 -0.002731528 -0.023127419 0 0 0 0
964000000 0.547112107 -0.004967768 -0.01063126 -0.012468388 0 0 0 0
972000000 0.491921246 -0.242803469 -0.011597758 -0.003775107 0 0 0 0
980000000 0.296280592 -0.451243221 -0.00925953 -7.3392e-05 0 0 0 0
988000000 0.034825701 -0.537819325 -0.007561382 0.001792411 0 0 0 0
996000000 -0.241608008 -0.50150913 -0.005409905 0.003524801 0 0 0 0
1004000000 -0.484577953 -0.357379049 -0.004284122 0.004075564 0 0 0 0
