# Hz S RI R 50
700000000 0.763532996 0.532529652 -2.1151e-05 0.000653474 0 0 0 0
708000000 0.866494536 0.285971581 -5.0217e-05 0.001115932 0 0 0 0
716000000 0.894833922 0.014909685 0.000213267 0.001301766 0 0 0 0
724000000 0.830653309 -0.264672935 0.000426542 0.001341826 0 0 0 0
732000000 0.683483839 -0.51191461 0.000496377 0.001621344 0 0 0 0
740000000 0.442189753 -0.703789234 0.000792882 0.001599488 0 0 0 0
748000000 0.136537745 -0.79466331 0.001374058 0.001409238 0 0 0 0
756000000 -0.198581174 -0.750213325 0.001731342 0.000839527 0 0 0 0
764000000 -0.494547098 -0.54322803 0.001649158 0.000264562 0 0 0 0
772000000 -0.654586672 -0.186817571 0.001499019 0.000128869 0 0 0 0
780000000 -0.57680267 0.233286604 0.001238345 -0.000812202 0 0 0 0
788000000 -0.219991967 0.5325405 0.000576041 -0.001604583 0 0 0 0
796000000 0.262055397 0.501680731 -0.00132524 -0.001937 0 0 0 0
804000000 0.578068971 0.138793349 -0.003402343 -0.000828689 0 0 0 0
812000000 0.539209485 -0.306824564 -0.003411578 0.002262931 0 0 0 0
820000000 0.245632037 -0.58698219 -0.001005465 0.004232941 0 0 0 0
828000000 -0.130602285 -0.633570253 0.001377558 0.004059838 0 0 0 0
836000000 -0.434818357 -0.494233846 0.00300608 0.003382159 0 0 0 0
844000000 -0.635463178 -0.255191385 0.004764409 0.001644089 0 0 0 0
852000000 -0.699858546 0.017103923 0.005818255 -4.5692e-05 0 0 0 0
860000000 -0.657484948 0.276641517 0.006946776 -0.002195521 0 0 0 0
868000000 -0.515766918 0.471430093 0.008269108 -0.005679127 0 0 0 0
876000000 -0.300534963 0.563807725 0.007713005 -0.010562301 0 0 0 0
884000000 -0.098350323 0.535468697 0.002975963 -0.016725966 0 0 0 0
892000000 0.034435927 0.409352511 -0.008225306 -0.020850479 0 0 0 0
900000000 0.241880103 0.249643012 -0.024786293 -0.012866963 0 0 0 0
908000000 0.226687207 0.190886169 -0.032476041 0.008105509 0 0 0 0
916000000 0.23235169 0.14609608 -0.020193183 0.030315792 0 0 0 0
924000000 0.183785066 0.096161179 0.007655902 0.037962209 0 0 0 0
932000000 0.108789823 0.104653 0.031648419 0.021170631 0 0 0 0
940000000 0.10059373 0.227387681 0.035003244 -0.006255185 0 0 0 0
948000000 0.270387649 0.295420706 0.019443383 -0.023875216 0 0 0 0
956000000 0.45501548 0.200075343 9.0809e-05 -0.025233514 0 0 0 0
964000000 0.532186567 -0.013763859 -0.010495482 -0.015751307 0 0 0 0
972000000 0.491419076 -0.26409474 -0.013368083 -0.006442596 0 0 0 0
980000000 0.292027741 -0.459517031 -0.011040473 -0.000419038 0 0 0 0
988000000 0.023730976 -0.537258028 -0.009967408 0.002909723 0 0 0 0
996000000 -0.244637936 -0.493640959 -0.006750245 0.004160633 0 0 0 0
1004000000 -0.486289173 -0.364216148 -0.005170304 0.005416041 0 0 0 0
