# Hz S RI R 50
700000000 0.762438595 0.529700994 7.3347e-05 0.000775499 0 0 0 0
708000000 0.867089867 0.283458679 0.000145374 0.000932643 0 0 0 0
716000000 0.891717255 0.013923617 0.000131116 0.001333999 0 0 0 0
724000000 0.829826533 -0.262801438 0.000378597 0.001319556 0 0 0 0
732000000 0.680819094 -0.51430875 0.000439094 0.001466919 0 0 0 0
740000000 0.442759692 -0.704650044 0.000744718 0.001479447 0 0 0 0
748000000 0.136238068 -0.795052468 0.001262658 0.00141156 0 0 0 0
756000000 -0.199741065 -0.749456226 0.001498904 0.000917297 0 0 0 0
764000000 -0.495117902 -0.541783452 0.001608388 0.000599095 0 0 0 0
772000000 -0.658080399 -0.187547773 0.001533446 6.1288e-05 0 0 0 0
780000000 -0.577383577 0.234633907 0.001604847 -0.000692328 0 0 0 0
788000000 -0.220995813 0.532499074 0.000700131 -0.001634281 0 0 0 0
796000000 0.263730913 0.500505328 -0.001199928 -0.002388871 0 0 0 0
804000000 0.573539316 0.14180845 -0.003500136 -0.000794373 0 0 0 0
812000000 0.538160979 -0.3085379 -0.003616298 0.002174637 0 0 0 0
820000000 0.246991962 -0.583638012 -0.001123976 0.004113562 0 0 0 0
828000000 -0.125166058 -0.632442116 0.000933001 0.004169194 0 0 0 0
836000000 -0.432039529 -0.498583436 0.002923592 0.003322674 0 0 0 0
844000000 -0.629216492 -0.258665502 0.004624036 0.001764144 0 0 0 0
852000000 -0.701775252 0.010890056 0.005838776 0.00038534 0 0 0 0
860000000 -0.663926601 0.26973775 0.007179038 -0.001505794 0 0 0 0
868000000 -0.528601527 0.466593682 0.008402908 -0.004945833 0 0 0 0
876000000 -0.320719182 0.567852854 0.00865036 -0.009972152 0 0 0 0
884000000 -0.111358173 0.555175185 0.005062211 -0.016973145 0 0 0 0
892000000 0.041130132 0.437759101 -0.006381961 -0.023046452 0 0 0 0
900000000 0.266299277 0.270861595 -0.0265788 -0.017995625 0 0 0 0
908000000 0.260519057 0.192697927 -0.037149634 0.005280689 0 0 0 0
916000000 0.25009188 0.121158398 -0.026452738 0.034242067 0 0 0 0
924000000 0.190914317 0.055005941 0.005580372 0.045931823 0 0 0 0
932000000 0.085426829 0.076029531 0.039116386 0.027112778 0 0 0 0
940000000 0.064910843 0.229454159 0.042924169 -0.00953785 0 0 0 0
948000000 0.247279793 0.330612629 0.020080886 -0.030896155 0 0 0 0
956000000 0.447650998 0.235274255 -0.003061706 -0.028661562 0 0 0 0
964000000 0.547320067 -0.001871368 -0.013967639 -0.015979984 0 0 0 0
972000000 0.508668482 -0.257012158 -0.015242715 -0.005217328 0 0 0 0
980000000 0.304425656 -0.464571774 -0.011532409 0.001359408 0 0 0 0
988000000 0.024432189 -0.53695929 -0.008717709 0.003915231 0 0 0 0
996000000 -0.254283964 -0.502459883 -0.006083065 0.00527438 0 0 0 0
1004000000 -0.487365961 -0.356389909 -0.005698579 0.005578491 0 0 0 0
