# Hz S RI R 50
700000000 0.768500864 0.527230322 -6.3129e-05 0.000746192 0 0 0 0
708000000 0.866117179 0.282675027 -6.9574e-05 0.001002075 0 0 0 0
716000000 0.89149177 0.011805483 0.000126829 0.001085552 0 0 0 0
724000000 0.829666674 -0.259210765 0.000289757 0.001519143 0 0 0 0
732000000 0.680100619 -0.511830627 0.000694484 0.001565014 0 0 0 0
740000000 0.442716509 -0.702547669 0.00079777 0.001667038 0 0 0 0
748000000 0.139511585 -0.796447098 0.001170899 0.001271839 0 0 0 0
756000000 -0.199817985 -0.749700903 0.001589093 0.000904798 0 0 0 0
764000000 -0.491572499 -0.542214453 0.001669263 0.000370246 0 0 0 0
772000000 -0.655222833 -0.188589245 0.001607802 -3.9064e-05 0 0 0 0
780000000 -0.578121066 0.235129326 0.001309502 -0.000526443 0 0 0 0
788000000 -0.221249654 0.530181467 0.000458601 -0.001657057 0 0 0 0
796000000 0.261510312 0.501370131 -0.001147033 -0.002068067 0 0 0 0
804000000 0.574805557 0.143088817 -0.003467393 -0.000671374 0 0 0 0
812000000 0.539510726 -0.304119557 -0.003147198 0.002452424 0 0 0 0
820000000 0.246614977 -0.582528948 -0.001007804 0.004380148 0 0 0 0
828000000 -0.127731636 -0.634176611 0.001228767 0.004329293 0 0 0 0
836000000 -0.435125201 -0.49535638 0.003385407 0.003159575 0 0 0 0
844000000 -0.62801522 -0.25489515 0.004997541 0.001710336 0 0 0 0
852000000 -0.701705336 0.017154326 0.005913837 -0.000156152 0 0 0 0
860000000 -0.658579945 0.27597934 0.007239756 -0.002408065 0 0 0 0
868000000 -0.514876008 0.468904525 0.008119937 -0.005919585 0 0 0 0
876000000 -0.307458847 0.564621865 0.007459315 -0.011019906 0 0 0 0
884000000 -0.102062396 0.536195635 0.002837962 -0.016875509 0 0 0 0
892000000 0.029695754 0.410520464 -0.008139573 -0.019885178 0 0 0 0
900000000 0.244517087 0.260356336 -0.024939324 -0.013133274 0 0 0 0
908000000 0.235874906 0.20434311 -0.032825428 0.008587002 0 0 0 0
916000000 0.227738127 0.148739561 -0.019575593 0.032045032 0 0 0 0
924000000 0.194197162 0.075943939 0.008388152 0.03868458 0 0 0 0
932000000 0.104542717 0.097850196 0.033710803 0.020665243 0 0 0 0
940000000 0.091921605 0.230380952 0.035203188 -0.008238377 0 0 0 0
948000000 0.268797188 0.311821877 0.017651865 -0.025331316 0 0 0 0
956000000 0.451135218 0.203547582 -0.001252915 -0.024574393 0 0 0 0
964000000 0.551020443 -0.005897185 -0.010818688 -0.014872141 0 0 0 0
972000000 0.490059494 -0.269977241 -0.01297488 -0.006016413 0 0 0 0
980000000 0.28902316 -0.46510905 -0.011207337 -0.000314586 0 0 0 0
988000000 0.030595386 -0.54770261 -0.008499631 0.002969844 0 0 0 0
996000000 -0.247767969 -0.49458906 -0.006215951 0.003736099 0 0 0 0
1004000000 -0.491259574 -0.352489054 -0.004825831 0.005510793 0 0 0 0
