# Hz S RI R 50
700000000 0.764860987 0.536693215 6.9952e-05 0.000780715 0 0 0 0
708000000 0.867245733 0.286121159 0.000105515 0.000978196 0 0 0 0
716000000 0.891480207 0.012771548 0.000256488 0.001258696 0 0 0 0
724000000 0.83017224 -0.260898828 0.000458208 0.001387736 0 0 0 0
732000000 0.68562287 -0.511219739 0.000626355 0.001429147 0 0 0 0
740000000 0.445700287 -0.699357926 0.001041002 0.001414699 0 0 0 0
748000000 0.138562291 -0.79527831 0.001513672 0.001110571 0 0 0 0
756000000 -0.196923539 -0.75051099 0.001591123 0.000711779 0 0 0 0
764000000 -0.491204649 -0.548275411 0.001721539 0.000190329 0 0 0 0
772000000 -0.654932856 -0.193754225 0.001632974 -0.000297224 0 0 0 0
780000000 -0.584150314 0.226496189 0.001071486 -0.000879576 0 0 0 0
788000000 -0.233920782 0.531795322 2.013e-06 -0.001719731 0 0 0 0
796000000 0.251896798 0.511085271 -0.001810083 -0.002048293 0 0 0 0
804000000 0.574003279 0.159623757 -0.003700092 -9.9394e-05 0 0 0 0
812000000 0.549344122 -0.292762577 -0.00317285 0.003195551 0 0 0 0
820000000 0.260282307 -0.580194413 -0.00065469 0.00461876 0 0 0 0
828000000 -0.112932257 -0.640670657 0.001840018 0.004384244 0 0 0 0
836000000 -0.425510197 -0.509516 0.003646555 0.003295561 0 0 0 0
844000000 -0.629484295 -0.271374702 0.00514972 0.00168431 0 0 0 0
852000000 -0.704188823 0.007149857 0.006342815 -0.000267321 0 0 0 0
860000000 -0.673442542 0.266466677 0.007450182 -0.002603003 0 0 0 0
868000000 -0.534901142 0.472941905 0.008368914 -0.006306476 0 0 0 0
876000000 -0.321772575 0.573134064 0.007792726 -0.011258304 0 0 0 0
884000000 -0.109289996 0.551779568 0.002952518 -0.017933974 0 0 0 0
892000000 0.038905363 0.439235925 -0.009864092 -0.021061642 0 0 0 0
900000000 0.273283272 0.255040824 -0.028391515 -0.012547418 0 0 0 0
908000000 0.242425501 0.191911056 -0.035728726 0.011223735 0 0 0 0
916000000 0.237551882 0.14183484 -0.018270211 0.037148553 0 0 0 0
924000000 0.196397751 0.071886032 0.013695112 0.040616162 0 0 0 0
932000000 0.108916766 0.0925415 0.037300936 0.017705423 0 0 0 0
940000000 0.083786912 0.218921259 0.0353606 -0.012889502 0 0 0 0
948000000 0.270877778 0.31280297 0.014370931 -0.027553532 0 0 0 0
956000000 0.443342179 0.209961354 -0.004452961 -0.024795621 0 0 0 0
964000000 0.550423085 -0.005993267 -0.012234079 -0.012711546 0 0 0 0
972000000 0.495083838 -0.255609422 -0.01285497 -0.003813155 0 0 0 0
980000000 0.300680756 -0.466552257 -0.009742747 0.000685078 0 0 0 0
988000000 0.032425228 -0.54421544 -0.007946914 0.003387741 0 0 0 0
996000000 -0.244944825 -0.505299031 -0.005499053 0.004246618 0 0 0 0
1004000000 -0.482901364 -0.363125741 -0.005068864 0.004643934 0 0 0 0
