# Hz S RI R 50
700000000 0.767425715 0.526229262 5.3185e-05 0.000716797 0 0 0 0
708000000 0.866660833 0.284915745 -2.3631e-05 0.000935243 0 0 0 0
716000000 0.890777409 0.01745652 0.000157175 0.0014463 0 0 0 0
724000000 0.834272027 -0.264385461 0.000164637 0.001514896 0 0 0 0
732000000 0.681159079 -0.511342108 0.00069043 0.001587863 0 0 0 0
740000000 0.443917572 -0.702638983 0.000910086 0.001662857 0 0 0 0
748000000 0.139202579 -0.794988334 0.001127893 0.001355699 0 0 0 0
756000000 -0.19740267 -0.749904453 0.00150507 0.000881842 0 0 0 0
764000000 -0.494887977 -0.545254051 0.001539782 0.000193016 0 0 0 0
772000000 -0.658358931 -0.187439352 0.001448362 -0.000241497 0 0 0 0
780000000 -0.580017507 0.232491955 0.001163332 -0.000655042 0 0 0 0
788000000 -0.222043037 0.533127665 0.000483621 -0.001630993 0 0 0 0
796000000 0.263358473 0.503707945 -0.00164538 -0.001883378 0 0 0 0
804000000 0.575091719 0.144372507 -0.003647825 -9.6584e-05 0 0 0 0
812000000 0.542678713 -0.306154161 -0.003012257 0.002808957 0 0 0 0
820000000 0.245972096 -0.587589979 -0.000685387 0.004264194 0 0 0 0
828000000 -0.125326439 -0.635154604 0.001625262 0.003827431 0 0 0 0
836000000 -0.437722861 -0.496128857 0.003328131 0.002996917 0 0 0 0
844000000 -0.631314337 -0.259495109 0.004836414 0.001318435 0 0 0 0
852000000 -0.702668309 0.016481062 0.005911391 -0.000445747 0 0 0 0
860000000 -0.662524282 0.276267439 0.007011579 -0.002306647 0 0 0 0
868000000 -0.516179502 0.470139592 0.007630937 -0.005731674 0 0 0 0
876000000 -0.309088826 0.566277682 0.007174117 -0.01068964 0 0 0 0
884000000 -0.100792549 0.542733073 0.002697123 -0.016437936 0 0 0 0
892000000 0.038335051 0.410196274 -0.007912704 -0.019066046 0 0 0 0
900000000 0.244160801 0.251267969 -0.025172801 -0.01282718 0 0 0 0
908000000 0.226077601 0.192811399 -0.032107096 0.008375163 0 0 0 0
916000000 0.229886457 0.141855731 -0.018845178 0.03128625 0 0 0 0
924000000 0.194859713 0.081909947 0.008292028 0.036924861 0 0 0 0
932000000 0.109982743 0.0997321 0.031953018 0.019802307 0 0 0 0
940000000 0.083273619 0.222064971 0.034326937 -0.006871677 0 0 0 0
948000000 0.278526037 0.305682659 0.017361154 -0.024782927 0 0 0 0
956000000 0.450838625 0.212989374 -0.000724011 -0.0242158 0 0 0 0
964000000 0.552826285 -0.005484953 -0.010471657 -0.014040281 0 0 0 0
972000000 0.489423602 -0.257383167 -0.012413077 -0.006000509 0 0 0 0
980000000 0.29747495 -0.468750238 -0.011150719 -0.000523177 0 0 0 0
988000000 0.031236546 -0.545454204 -0.009072695 0.003012464 0 0 0 0
996000000 -0.261850863 -0.499400645 -0.006120763 0.003846097 0 0 0 0
1004000000 -0.49614647 -0.350229084 -0.00572977 0.004888242 0 0 0 0
