# Hz S RI R 50
700000000 0.766816616 0.529769003 4.9782e-05 0.000702191 0 0 0 0
708000000 0.864243447 0.283349543 -4.3598e-05 0.001032759 0 0 0 0
716000000 0.891689598 0.013667452 5.457e-06 0.001126547 0 0 0 0
724000000 0.834024488 -0.261166185 0.000362759 0.001514632 0 0 0 0
732000000 0.682153463 -0.510957479 0.00057349 0.001528678 0 0 0 0
740000000 0.443452864 -0.704482257 0.000960739 0.001452037 0 0 0 0
748000000 0.137132167 -0.795244753 0.001291706 0.001411429 0 0 0 0
756000000 -0.199078068 -0.749801278 0.001452237 0.001082028 0 0 0 0
764000000 -0.495888173 -0.542895078 0.001499409 0.000499051 0 0 0 0
772000000 -0.653107762 -0.181793674 0.001594888 -3.2939e-05 0 0 0 0
780000000 -0.578324556 0.233812302 0.001331386 -0.000608143 0 0 0 0
788000000 -0.2207475 0.531563937 0.000748135 -0.001437129 0 0 0 0
796000000 0.266053855 0.499539822 -0.001228508 -0.002229676 0 0 0 0
804000000 0.573126018 0.141279965 -0.003112913 -0.000811464 0 0 0 0
812000000 0.53829813 -0.307522028 -0.003539461 0.002241188 0 0 0 0
820000000 0.242472246 -0.581872642 -0.000954959 0.004111619 0 0 0 0
828000000 -0.125926569 -0.63031423 0.001123616 0.003975794 0 0 0 0
836000000 -0.432112962 -0.495869249 0.002900136 0.003063563 0 0 0 0
844000000 -0.624527871 -0.25703904 0.004643717 0.001615078 0 0 0 0
852000000 -0.695671498 0.014979875 0.005861238 0.000330996 0 0 0 0
860000000 -0.661454796 0.269709378 0.006928333 -0.001506251 0 0 0 0
868000000 -0.522526562 0.463138341 0.008307852 -0.004747319 0 0 0 0
876000000 -0.315273344 0.561092138 0.008624179 -0.009924427 0 0 0 0
884000000 -0.11186812 0.547902703 0.004910798 -0.016709137 0 0 0 0
892000000 0.037161912 0.430674403 -0.005461443 -0.02255428 0 0 0 0
900000000 0.270870566 0.257297605 -0.025711204 -0.016753358 0 0 0 0
908000000 0.250541329 0.192558541 -0.037238951 0.004949789 0 0 0 0
916000000 0.23773463 0.13197349 -0.026599431 0.033965088 0 0 0 0
924000000 0.18661642 0.060018833 0.006059039 0.046367429 0 0 0 0
932000000 0.103008039 0.082829751 0.039214145 0.027143349 0 0 0 0
940000000 0.075733505 0.222131624 0.042874045 -0.009968163 0 0 0 0
948000000 0.261909782 0.328292489 0.018588824 -0.030159309 0 0 0 0
956000000 0.446573525 0.222908675 -0.002391139 -0.027814006 0 0 0 0
964000000 0.555119931 -0.001916129 -0.013097311 -0.015532569 0 0 0 0
972000000 0.496058821 -0.256439507 -0.014062162 -0.005642324 0 0 0 0
980000000 0.307205379 -0.452879101 -0.012279441 7.609e-06 0 0 0 0
988000000 0.030786072 -0.537306547 -0.00901326 0.003622387 0 0 0 0
996000000 -0.255370438 -0.502066195 -0.006611982 0.005282723 0 0 0 0
1004000000 -0.49576202 -0.351423949 -0.005623705 0.005486296 0 0 0 0
