# Hz S RI R 50
700000000 0.76600635 0.530906498 3.8645e-05 0.000794423 0 0 0 0
708000000 0.863995254 0.285621672 3.9906e-05 0.001038702 0 0 0 0
716000000 0.888738334 0.01422833 0.000234611 0.001209541 0 0 0 0
724000000 0.834593594 -0.257872313 0.000205043 0.001403143 0 0 0 0
732000000 0.679796159 -0.513867855 0.00050932 0.001669849 0 0 0 0
740000000 0.443760663 -0.702581703 0.000996964 0.001573621 0 0 0 0
748000000 0.136346057 -0.79362297 0.001256546 0.001420177 0 0 0 0
756000000 -0.19858925 -0.74932307 0.001581602 0.000960678 0 0 0 0
764000000 -0.494189649 -0.54193741 0.001576598 0.00049216 0 0 0 0
772000000 -0.655688643 -0.18505676 0.001431853 4.1137e-05 0 0 0 0
780000000 -0.574460685 0.234958797 0.001182404 -0.000539501 0 0 0 0
788000000 -0.218808665 0.532830357 0.00041083 -0.001462219 0 0 0 0
796000000 0.26748979 0.500353634 -0.001091546 -0.002034054 0 0 0 0
804000000 0.572697579 0.137482047 -0.003250726 -0.000505702 0 0 0 0
812000000 0.533123612 -0.305939078 -0.00313088 0.002226307 0 0 0 0
820000000 0.242002174 -0.583474278 -0.000979402 0.004053391 0 0 0 0
828000000 -0.129777729 -0.631245911 0.001131223 0.003755135 0 0 0 0
836000000 -0.431601524 -0.494360715 0.002852329 0.003069869 0 0 0 0
844000000 -0.631902754 -0.256897747 0.00434171 0.001706837 0 0 0 0
852000000 -0.700174868 0.015440511 0.005406957 0.000387392 0 0 0 0
860000000 -0.66357541 0.271288007 0.006902714 -0.001190837 0 0 0 0
868000000 -0.519782364 0.466123193 0.00825861 -0.004431398 0 0 0 0
876000000 -0.312855869 0.567053675 0.008686621 -0.009783959 0 0 0 0
884000000 -0.111336432 0.54916948 0.005586181 -0.016689836 0 0 0 0
892000000 0.033053871 0.43119356 -0.005657671 -0.022836236 0 0 0 0
900000000 0.262250095 0.265101194 -0.024712579 -0.017778139 0 0 0 0
908000000 0.248890653 0.189463227 -0.037643253 0.004729456 0 0 0 0
916000000 0.236630454 0.134142711 -0.027037546 0.033864185 0 0 0 0
924000000 0.183414191 0.074473835 0.005719608 0.046458743 0 0 0 0
932000000 0.088467851 0.085770629 0.038551345 0.028012584 0 0 0 0
940000000 0.070735469 0.22961758 0.042377907 -0.009153466 0 0 0 0
948000000 0.261596858 0.317921459 0.020613167 -0.029825586 0 0 0 0
956000000 0.449934482 0.229767858 -0.002097635 -0.029096638 0 0 0 0
964000000 0.561321496 0.002522343 -0.013568173 -0.016214324 0 0 0 0
972000000 0.494844257 -0.263039201 -0.015437037 -0.006067293 0 0 0 0
980000000 0.297345459 -0.463206887 -0.012461276 -0.000216311 0 0 0 0
988000000 0.041807815 -0.546486437 -0.009388647 0.003596985 0 0 0 0
996000000 -0.260300993 -0.495694637 -0.00666145 0.004731755 0 0 0 0
1004000000 -0.489912867 -0.359841614 -0.005161175 0.005551216 0 0 0 0
