# Hz S RI R 50
700000000 0.763547003 0.528212189 -1.1455e-05 0.000768465 0 0 0 0
708000000 0.867034554 0.287040889 5.3527e-05 0.000919018 0 0 0 0
716000000 0.887907624 0.011150641 4.4771e-05 0.001341708 0 0 0 0
724000000 0.831942915 -0.263304144 0.000223141 0.001560876 0 0 0 0
732000000 0.682600378 -0.510340154 0.000518338 0.001480575 0 0 0 0
740000000 0.445363283 -0.700306415 0.000994306 0.001538682 0 0 0 0
748000000 0.141576275 -0.794176697 0.001286581 0.001166356 0 0 0 0
756000000 -0.194562092 -0.750771999 0.001427238 0.00076342 0 0 0 0
764000000 -0.490666687 -0.548861145 0.001556382 0.00026034 0 0 0 0
772000000 -0.655118823 -0.191201239 0.001680853 -0.000294656 0 0 0 0
780000000 -0.583037197 0.225832015 0.001067497 -0.00090341 0 0 0 0
788000000 -0.234255433 0.531545341 0.000175479 -0.001490442 0 0 0 0
796000000 0.25371164 0.509602963 -0.001466815 -0.002108254 0 0 0 0
804000000 0.571947574 0.157851174 -0.0036058 -0.00046084 0 0 0 0
812000000 0.546679019 -0.295329779 -0.003350502 0.002550061 0 0 0 0
820000000 0.260597378 -0.582996785 -0.000850771 0.00446966 0 0 0 0
828000000 -0.116070933 -0.640870273 0.001517754 0.004393833 0 0 0 0
836000000 -0.426852464 -0.509858965 0.003397263 0.003293442 0 0 0 0
844000000 -0.627034068 -0.274517387 0.005281173 0.001573526 0 0 0 0
852000000 -0.70947057 0.004507625 0.006388012 -0.000241238 0 0 0 0
860000000 -0.674367845 0.268663823 0.007628884 -0.002763446 0 0 0 0
868000000 -0.538072288 0.466453105 0.008112344 -0.006396828 0 0 0 0
876000000 -0.328743487 0.575716733 0.007113301 -0.011316622 0 0 0 0
884000000 -0.113618612 0.55889517 0.001981949 -0.017459392 0 0 0 0
892000000 0.043977178 0.447371512 -0.010215785 -0.019859159 0 0 0 0
900000000 0.283035814 0.26140803 -0.0268612 -0.010972965 0 0 0 0
908000000 0.256654769 0.196838378 -0.032088849 0.010770255 0 0 0 0
916000000 0.246045291 0.133611276 -0.017279341 0.033367779 0 0 0 0
924000000 0.210312053 0.066987648 0.011332686 0.037011396 0 0 0 0
932000000 0.101848281 0.069460406 0.03362029 0.017157606 0 0 0 0
940000000 0.080298535 0.20856823 0.033096335 -0.010367742 0 0 0 0
948000000 0.246298357 0.316237866 0.0151387 -0.025254307 0 0 0 0
956000000 0.433266758 0.209610506 -0.002538178 -0.023556577 0 0 0 0
964000000 0.539346933 0.019080853 -0.011668371 -0.01227226 0 0 0 0
972000000 0.49711278 -0.240757808 -0.012327969 -0.004112218 0 0 0 0
980000000 0.30350694 -0.457799643 -0.009424229 0.000468215 0 0 0 0
988000000 0.048839364 -0.544652283 -0.007241989 0.002908971 0 0 0 0
996000000 -0.247813344 -0.505886077 -0.005404837 0.003787094 0 0 0 0
1004000000 -0.484400659 -0.365942537 -0.005111802 0.004752044 0 0 0 0
