# Hz S RI R 50
700000000 0.767406642 0.528775036 4.0498e-05 0.000725113 0 0 0 0
708000000 0.865708827 0.280553042 1.9315e-05 0.001058908 0 0 0 0
716000000 0.893231689 0.015372312 0.000104288 0.001137652 0 0 0 0
724000000 0.832060813 -0.262071669 0.000217374 0.001483321 0 0 0 0
732000000 0.681662738 -0.513278186 0.000517602 0.001390322 0 0 0 0
740000000 0.44377914 -0.702408194 0.000967746 0.001557312 0 0 0 0
748000000 0.133800119 -0.793474137 0.001289689 0.001437545 0 0 0 0
756000000 -0.199055492 -0.748834431 0.001545598 0.000922103 0 0 0 0
764000000 -0.497079819 -0.541679441 0.001604201 0.000659028 0 0 0 0
772000000 -0.653944075 -0.187121182 0.001668664 0.000152642 0 0 0 0
780000000 -0.574903845 0.235326275 0.001559984 -0.000744659 0 0 0 0
788000000 -0.218367248 0.532037556 0.0005762 -0.001682924 0 0 0 0
796000000 0.26287499 0.502269446 -0.00123023 -0.002099275 0 0 0 0
804000000 0.570777297 0.141092181 -0.003526153 -0.000553793 0 0 0 0
812000000 0.535210728 -0.304147273 -0.003201033 0.00234316 0 0 0 0
820000000 0.241520717 -0.581024348 -0.000945826 0.004153556 0 0 0 0
828000000 -0.127696126 -0.629905223 0.001452916 0.00421669 0 0 0 0
836000000 -0.433573871 -0.492457628 0.002959949 0.002942838 0 0 0 0
844000000 -0.627591669 -0.253464937 0.00465844 0.00129188 0 0 0 0
852000000 -0.696246564 0.014703289 0.005745206 -0.000206103 0 0 0 0
860000000 -0.658842086 0.274072825 0.006716456 -0.001972879 0 0 0 0
868000000 -0.517194867 0.469462633 0.007970129 -0.005312005 0 0 0 0
876000000 -0.312359511 0.55938071 0.00782646 -0.01010066 0 0 0 0
884000000 -0.108022533 0.537901163 0.003798387 -0.016384409 0 0 0 0
892000000 0.026095904 0.420152425 -0.006372324 -0.020810844 0 0 0 0
900000000 0.251400351 0.273252815 -0.025213956 -0.014322538 0 0 0 0
908000000 0.241790592 0.211398616 -0.03283964 0.00599606 0 0 0 0
916000000 0.241037085 0.143410444 -0.022304246 0.030606284 0 0 0 0
924000000 0.199693039 0.066764958 0.005414654 0.03974796 0 0 0 0
932000000 0.099734067 0.077316604 0.032341774 0.023826047 0 0 0 0
940000000 0.07871633 0.221899598 0.037305563 -0.005909102 0 0 0 0
948000000 0.261073052 0.319932669 0.020032636 -0.025129275 0 0 0 0
956000000 0.444980829 0.219265177 0.000239476 -0.025937296 0 0 0 0
964000000 0.553431093 -0.000107886 -0.010300748 -0.015898602 0 0 0 0
972000000 0.486446321 -0.24614571 -0.013428423 -0.006877806 0 0 0 0
980000000 0.301476895 -0.458302497 -0.012037003 -0.0005913 0 0 0 0
988000000 0.026477189 -0.54981321 -0.008752316 0.003421668 0 0 0 0
996000000 -0.249889343 -0.500846028 -0.007114419 0.004668845 0 0 0 0
1004000000 -0.495803505 -0.367976665 -0.005311871 0.005097903 0 0 0 0
