# Hz S RI R 50
700000000 0.767887771 0.526915967 4.6602e-05 0.000725445 0 0 0 0
708000000 0.865899026 0.283051609 0.000147672 0.001039725 0 0 0 0
716000000 0.890546143 0.013462004 9.8079e-05 0.001283344 0 0 0 0
724000000 0.833723723 -0.262551724 0.000137073 0.001359809 0 0 0 0
732000000 0.682061433 -0.511432409 0.000487145 0.001618312 0 0 0 0
740000000 0.44184041 -0.702533245 0.000971972 0.001394505 0 0 0 0
748000000 0.13588643 -0.794300556 0.001246701 0.001433164 0 0 0 0
756000000 -0.200510367 -0.747005343 0.00143727 0.001039806 0 0 0 0
764000000 -0.497020363 -0.538836598 0.001404272 0.000595762 0 0 0 0
772000000 -0.652847886 -0.183942973 0.001488969 -4.4447e-05 0 0 0 0
780000000 -0.569564461 0.236858338 0.001176133 -0.000512727 0 0 0 0
788000000 -0.210445821 0.527648448 0.000543591 -0.001321653 0 0 0 0
796000000 0.269013434 0.488592594 -0.001259366 -0.001912289 0 0 0 0
804000000 0.568069338 0.129001036 -0.003053008 -0.000265526 0 0 0 0
812000000 0.520484983 -0.312335997 -0.002929155 0.002331079 0 0 0 0
820000000 0.229724869 -0.580526649 -0.000824058 0.00372747 0 0 0 0
828000000 -0.13397789 -0.622550845 0.001099526 0.003662635 0 0 0 0
836000000 -0.433409482 -0.482207477 0.002701854 0.002927687 0 0 0 0
844000000 -0.625764667 -0.244997903 0.004009777 0.001750549 0 0 0 0
852000000 -0.688545525 0.020541954 0.005271884 0.000421121 0 0 0 0
860000000 -0.649762511 0.276438564 0.007090894 -0.001336022 0 0 0 0
868000000 -0.505988121 0.46174556 0.008611862 -0.004531755 0 0 0 0
876000000 -0.304281324 0.550326585 0.009011324 -0.009793788 0 0 0 0
884000000 -0.108515195 0.52774316 0.005289539 -0.017196148 0 0 0 0
892000000 0.028828382 0.40907818 -0.009610707 -0.026032634 0 0 0 0
900000000 0.245292767 0.26764366 -0.026208581 -0.018023598 0 0 0 0
908000000 0.23286502 0.211361482 -0.037850622 0.005929085 0 0 0 0
916000000 0.228742882 0.141851916 -0.025590758 0.034785654 0 0 0 0
924000000 0.190103739 0.080572836 0.00750347 0.04629407 0 0 0 0
932000000 0.09764637 0.087966732 0.039695348 0.024396825 0 0 0 0
940000000 0.079491138 0.228637829 0.040425769 -0.01226475 0 0 0 0
948000000 0.263344764 0.319961488 0.016374176 -0.029831737 0 0 0 0
956000000 0.470263868 0.208742886 -0.004716007 -0.025657868 0 0 0 0
964000000 0.551587879 -0.02273353 -0.012079274 -0.01363685 0 0 0 0
972000000 0.495105624 -0.261572629 -0.013358893 -0.004974139 0 0 0 0
980000000 0.295950859 -0.469413369 -0.010533406 0.000312451 0 0 0 0
988000000 0.024757446 -0.550996065 -0.007640308 0.00325984 0 0 0 0
996000000 -0.260971546 -0.496778756 -0.006256613 0.004199914 0 0 0 0
1004000000 -0.489933401 -0.353397071 -0.005251626 0.005318481 0 0 0 0
