# Hz S RI R 50
700000000 0.764066576 0.530005335 7.2967e-05 0.000793504 0 0 0 0
708000000 0.863007187 0.285337001 2.1316e-05 0.001056525 0 0 0 0
716000000 0.890864551 0.012027371 0.000127411 0.001228307 0 0 0 0
724000000 0.835489332 -0.261767655 0.000493173 0.001458932 0 0 0 0
732000000 0.681250214 -0.512036383 0.000744894 0.001414263 0 0 0 0
740000000 0.445723235 -0.704392731 0.001060878 0.001447924 0 0 0 0
748000000 0.138522908 -0.793923139 0.00136032 0.001211361 0 0 0 0
756000000 -0.198269486 -0.750977814 0.001664806 0.000890975 0 0 0 0
764000000 -0.492540329 -0.542924284 0.001662263 0.000469732 0 0 0 0
772000000 -0.653161168 -0.186111912 0.001680228 -0.000330794 0 0 0 0
780000000 -0.577056944 0.230188027 0.001125878 -0.000960837 0 0 0 0
788000000 -0.22238332 0.53163439 0.000293292 -0.001853575 0 0 0 0
796000000 0.256658196 0.502487778 -0.001608562 -0.002040332 0 0 0 0
804000000 0.570288062 0.144179984 -0.003887643 -0.000336782 0 0 0 0
812000000 0.539079964 -0.300249069 -0.003468953 0.003122296 0 0 0 0
820000000 0.247926875 -0.580108642 -0.000763951 0.004844649 0 0 0 0
828000000 -0.125404894 -0.633851289 0.001886508 0.004452847 0 0 0 0
836000000 -0.431372284 -0.496959894 0.003801243 0.003344575 0 0 0 0
844000000 -0.631108582 -0.257870584 0.005461479 0.0015731 0 0 0 0
852000000 -0.70363909 0.013392177 0.006595216 -0.000481951 0 0 0 0
860000000 -0.659816324 0.275699526 0.007612009 -0.002975694 0 0 0 0
868000000 -0.519430696 0.468236148 0.008136039 -0.006769778 0 0 0 0
876000000 -0.308033019 0.564619302 0.006975802 -0.011821081 0 0 0 0
884000000 -0.102972485 0.540954947 0.00167705 -0.017823878 0 0 0 0
892000000 0.05524528 0.400252729 -0.009722806 -0.019634574 0 0 0 0
900000000 0.24394463 0.245429411 -0.027142319 -0.010887823 0 0 0 0
908000000 0.217540472 0.198296889 -0.032879836 0.01179776 0 0 0 0
916000000 0.217670068 0.155354231 -0.016654722 0.035134647 0 0 0 0
924000000 0.196034669 0.096454277 0.013144906 0.037039946 0 0 0 0
932000000 0.119574569 0.094662331 0.03553722 0.01639443 0 0 0 0
940000000 0.102415464 0.212622448 0.034048736 -0.011565185 0 0 0 0
948000000 0.271769762 0.301448583 0.014605222 -0.026755027 0 0 0 0
956000000 0.442690342 0.207498729 -0.004327961 -0.024085314 0 0 0 0
964000000 0.541415333 -0.011442041 -0.012514794 -0.012687118 0 0 0 0
972000000 0.484393179 -0.263066053 -0.012570656 -0.003702989 0 0 0 0
980000000 0.306135475 -0.456307798 -0.010335561 0.001024641 0 0 0 0
988000000 0.028405081 -0.542320132 -0.007742874 0.003291844 0 0 0 0
996000000 -0.250525146 -0.494849532 -0.005529141 0.004014837 0 0 0 0
1004000000 -0.495321422 -0.347182482 -0.00474133 0.004896029 0 0 0 0
