# Hz S RI R 50
700000000 0.766621589 0.524997472 0.000137214 0.000889978 0 0 0 0
708000000 0.868107438 0.284198939 -6.979e-06 0.000962946 0 0 0 0
716000000 0.891905248 0.011365586 0.000271128 0.001210007 0 0 0 0
724000000 0.83109939 -0.261088281 0.000320577 0.001258354 0 0 0 0
732000000 0.681290149 -0.511977612 0.000621785 0.001402971 0 0 0 0
740000000 0.442245721 -0.705058693 0.001006208 0.001581187 0 0 0 0
748000000 0.134751722 -0.794655203 0.001339668 0.001296263 0 0 0 0
756000000 -0.200723052 -0.750993013 0.001466935 0.00089238 0 0 0 0
764000000 -0.496680825 -0.541694819 0.001732095 0.000433879 0 0 0 0
772000000 -0.654778242 -0.183705464 0.001484466 7.6007e-05 0 0 0 0
780000000 -0.575303256 0.236229062 0.001321745 -0.000683543 0 0 0 0
788000000 -0.219827875 0.534245371 0.000535866 -0.00148826 0 0 0 0
796000000 0.268333941 0.500066578 -0.001433006 -0.002027937 0 0 0 0
804000000 0.574764013 0.13814114 -0.003335133 -0.000555396 0 0 0 0
812000000 0.534712493 -0.31020528 -0.003308764 0.002304031 0 0 0 0
820000000 0.24547708 -0.582614839 -0.000850073 0.003798677 0 0 0 0
828000000 -0.128596067 -0.631611347 0.000944322 0.003859511 0 0 0 0
836000000 -0.430841833 -0.498411118 0.002873185 0.002887596 0 0 0 0
844000000 -0.625177264 -0.258449196 0.004290121 0.001845114 0 0 0 0
852000000 -0.699412405 0.014113483 0.005573159 0.00042998 0 0 0 0
860000000 -0.663486182 0.273265212 0.007014232 -0.001348185 0 0 0 0
868000000 -0.525518476 0.464614391 0.008157681 -0.004766535 0 0 0 0
876000000 -0.314553081 0.568357229 0.008805783 -0.009559554 0 0 0 0
884000000 -0.109685249 0.547026276 0.005285559 -0.016650218 0 0 0 0
892000000 0.036874562 0.433144479 -0.005179306 -0.02268562 0 0 0 0
900000000 0.268960952 0.269309788 -0.025075547 -0.018261484 0 0 0 0
908000000 0.25391981 0.187739819 -0.03772132 0.004952424 0 0 0 0
916000000 0.232780516 0.12947905 -0.027022847 0.033521912 0 0 0 0
924000000 0.184567078 0.060220479 0.005441824 0.046638939 0 0 0 0
932000000 0.085648506 0.088089428 0.039005447 0.027701253 0 0 0 0
940000000 0.080383233 0.233526572 0.042863577 -0.008945147 0 0 0 0
948000000 0.265386611 0.329745978 0.020373377 -0.030579181 0 0 0 0
956000000 0.452427744 0.228890344 -0.001953103 -0.028422441 0 0 0 0
964000000 0.557783782 -0.008764093 -0.013195918 -0.016159273 0 0 0 0
972000000 0.489332944 -0.258649587 -0.015438612 -0.005715643 0 0 0 0
980000000 0.305773615 -0.472848057 -0.012223915 0.000229409 0 0 0 0
988000000 0.03124923 -0.543452203 -0.008543618 0.00396226 0 0 0 0
996000000 -0.255967229 -0.497941344 -0.00620962 0.005547943 0 0 0 0
1004000000 -0.482775956 -0.35257107 -0.004792174 0.005118908 0 0 0 0
