# Hz S RI R 50
700000000 0.766499459 0.530468344 7.5576e-05 0.00066969 0 0 0 0
708000000 0.868189454 0.282425493 0.00013981 0.000931817 0 0 0 0
716000000 0.892076134 0.009706932 0.000200687 0.001267812 0 0 0 0
724000000 0.834687352 -0.264115959 0.000432207 0.001507699 0 0 0 0
732000000 0.68082118 -0.513011693 0.000589529 0.001486707 0 0 0 0
740000000 0.44493395 -0.704754412 0.000888135 0.001443049 0 0 0 0
748000000 0.134289026 -0.793942213 0.001215219 0.001380743 0 0 0 0
756000000 -0.19972831 -0.748199582 0.001577758 0.000758983 0 0 0 0
764000000 -0.496183782 -0.541674196 0.001681488 0.000455615 0 0 0 0
772000000 -0.656803429 -0.182382628 0.001401952 -9.0595e-05 0 0 0 0
780000000 -0.576123714 0.236705988 0.001256804 -0.000764142 0 0 0 0
788000000 -0.214030191 0.533494651 0.000342137 -0.001490895 0 0 0 0
796000000 0.26738426 0.498872429 -0.001059227 -0.001561711 0 0 0 0
804000000 0.572751462 0.130827307 -0.003035886 -0.000417589 0 0 0 0
812000000 0.526604235 -0.31458038 -0.002873508 0.002500954 0 0 0 0
820000000 0.234256297 -0.583773195 -0.000714875 0.003778555 0 0 0 0
828000000 -0.137245282 -0.627000749 0.001286635 0.003510816 0 0 0 0
836000000 -0.438512653 -0.484545052 0.002971587 0.002737458 0 0 0 0
844000000 -0.622498512 -0.24374713 0.004182734 0.001425397 0 0 0 0
852000000 -0.694518923 0.024251203 0.005471161 -4.095e-05 0 0 0 0
860000000 -0.647523403 0.277800291 0.006474472 -0.001787659 0 0 0 0
868000000 -0.506545186 0.459065467 0.007786337 -0.004585496 0 0 0 0
876000000 -0.305351227 0.551342248 0.008019444 -0.009326978 0 0 0 0
884000000 -0.109502524 0.526450753 0.004660853 -0.01586431 0 0 0 0
892000000 0.022012343 0.415001839 -0.005198955 -0.021465983 0 0 0 0
900000000 0.246229648 0.269599556 -0.024189336 -0.015896622 0 0 0 0
908000000 0.239868864 0.204218968 -0.035393454 0.004113062 0 0 0 0
916000000 0.241029947 0.140018448 -0.02546136 0.031305484 0 0 0 0
924000000 0.195933982 0.072602488 0.004298178 0.043637823 0 0 0 0
932000000 0.093545228 0.09288977 0.036716111 0.026046801 0 0 0 0
940000000 0.084995634 0.232537105 0.040179338 -0.008209776 0 0 0 0
948000000 0.272717893 0.32503581 0.019120434 -0.027914606 0 0 0 0
956000000 0.457272917 0.21262066 -0.000808611 -0.025964194 0 0 0 0
964000000 0.555267214 -0.016240492 -0.011478558 -0.016184901 0 0 0 0
972000000 0.497234523 -0.26773408 -0.014419682 -0.007081122 0 0 0 0
980000000 0.300675749 -0.469006925 -0.01137378 -1.2867e-05 0 0 0 0
988000000 0.024467699 -0.540877282 -0.009572912 0.003600995 0 0 0 0
996000000 -0.249982208 -0.494695574 -0.006174789 0.004632669 0 0 0 0
1004000000 -0.487981259 -0.350309014 -0.004802842 0.00643134 0 0 0 0
