# Hz S RI R 50
700000000 0.762368142 0.528071165 -3.7567e-05 0.000785274 0 0 0 0
708000000 0.867745816 0.285360842 0.000115585 0.000894945 0 0 0 0
716000000 0.891951978 0.014287709 3.5986e-05 0.001351628 0 0 0 0
724000000 0.835380852 -0.267096281 0.000461726 0.00140781 0 0 0 0
732000000 0.682018697 -0.514954924 0.000630839 0.001521043 0 0 0 0
740000000 0.443315923 -0.701754271 0.000921373 0.001662843 0 0 0 0
748000000 0.137492224 -0.795031487 0.001350023 0.001489499 0 0 0 0
756000000 -0.197638049 -0.750365614 0.001394157 0.000922499 0 0 0 0
764000000 -0.494208872 -0.542405247 0.001711291 0.000458943 0 0 0 0
772000000 -0.654194951 -0.183677539 0.00152609 -0.00028702 0 0 0 0
780000000 -0.575667321 0.234300076 0.001242698 -0.000568946 0 0 0 0
788000000 -0.218868061 0.530817449 0.000236843 -0.001469275 0 0 0 0
796000000 0.269365608 0.496668905 -0.001309318 -0.001654202 0 0 0 0
804000000 0.57477051 0.135882526 -0.002981206 -0.000243214 0 0 0 0
812000000 0.533499121 -0.312065511 -0.002603468 0.002428689 0 0 0 0
820000000 0.235460788 -0.582872033 -0.000405175 0.003725548 0 0 0 0
828000000 -0.132795825 -0.62762773 0.00144905 0.00315354 0 0 0 0
836000000 -0.437273055 -0.487962931 0.002899677 0.002503674 0 0 0 0
844000000 -0.627248644 -0.2475432 0.004075062 0.001183258 0 0 0 0
852000000 -0.694859504 0.024427745 0.004932157 -1.405e-06 0 0 0 0
860000000 -0.647991299 0.273934364 0.005950206 -0.001651469 0 0 0 0
868000000 -0.507457733 0.46425265 0.007081978 -0.004171417 0 0 0 0
876000000 -0.30662775 0.549724936 0.007817083 -0.008490798 0 0 0 0
884000000 -0.107497967 0.525221586 0.004873534 -0.014760959 0 0 0 0
892000000 0.022218568 0.41260606 -0.004581699 -0.019537899 0 0 0 0
900000000 0.241665661 0.272705078 -0.022507879 -0.01668561 0 0 0 0
908000000 0.242585107 0.207821935 -0.033366195 0.002844973 0 0 0 0
916000000 0.237982749 0.155644655 -0.025299815 0.028835579 0 0 0 0
924000000 0.198242396 0.079084955 0.00206198 0.041608408 0 0 0 0
932000000 0.109579272 0.089716322 0.032256644 0.025806177 0 0 0 0
940000000 0.099065028 0.222619816 0.037561405 -0.005871364 0 0 0 0
948000000 0.267498791 0.319023191 0.019605565 -0.024771507 0 0 0 0
956000000 0.450498789 0.204091176 0.001033577 -0.024333313 0 0 0 0
964000000 0.550444662 -0.005435673 -0.009343594 -0.016285298 0 0 0 0
972000000 0.485497504 -0.254829436 -0.012562409 -0.007197622 0 0 0 0
980000000 0.30675587 -0.466093212 -0.011024102 -0.001407522 0 0 0 0
988000000 0.026581101 -0.534100532 -0.009263261 0.002587751 0 0 0 0
996000000 -0.270002454 -0.494573622 -0.006874427 0.003732836 0 0 0 0
1004000000 -0.481893718 -0.353936702 -0.005192386 0.005447386 0 0 0 0
