# Hz S RI R 50
700000000 0.763821899 0.531696677 -0.00010991 0.000792053 0 0 0 0
708000000 0.867005765 0.288175135 5.6148e-05 0.001224197 0 0 0 0
716000000 0.889777064 0.019121071 0.000178783 0.001375537 0 0 0 0
724000000 0.829942166 -0.260246962 0.000265647 0.001649211 0 0 0 0
732000000 0.682095825 -0.510374724 0.000817961 0.001672091 0 0 0 0
740000000 0.449676424 -0.701389253 0.001240497 0.001645875 0 0 0 0
748000000 0.142503634 -0.794114232 0.00165374 0.001517485 0 0 0 0
756000000 -0.190587148 -0.753240883 0.002134993 0.000951723 0 0 0 0
764000000 -0.487462311 -0.552344024 0.002229471 0.000378151 0 0 0 0
772000000 -0.658356428 -0.202702388 0.002096873 -0.000508793 0 0 0 0
780000000 -0.588598251 0.214298844 0.001959073 -0.001641016 0 0 0 0
788000000 -0.252877086 0.524452865 0.00102261 -0.002882491 0 0 0 0
796000000 0.229772895 0.51887834 -0.001989128 -0.004094324 0 0 0 0
804000000 0.563143253 0.185821279 -0.00538581 -0.002558503 0 0 0 0
812000000 0.560379862 -0.265483051 -0.00651736 0.002012484 0 0 0 0
820000000 0.289734363 -0.56576091 -0.004203421 0.005579703 0 0 0 0
828000000 -0.081234522 -0.641902923 -0.000834982 0.00700523 0 0 0 0
836000000 -0.400324702 -0.524492561 0.002223851 0.006842165 0 0 0 0
844000000 -0.611105263 -0.299949169 0.005444479 0.00585968 0 0 0 0
852000000 -0.704714119 -0.029976591 0.00862272 0.004090407 0 0 0 0
860000000 -0.689115345 0.233046427 0.011943771 0.001123498 0 0 0 0
868000000 -0.568554401 0.440903633 0.015047949 -0.004348925 0 0 0 0
876000000 -0.377238899 0.563818037 0.016172237 -0.013241172 0 0 0 0
884000000 -0.177391469 0.58714503 0.010956362 -0.025100907 0 0 0 0
892000000 0.016868138 0.500908374 0.01960339 -0.033138345 0 0 0 0
900000000 0.293263196 0.359458118 -0.034967776 -0.030229242 0 0 0 0
908000000 0.339335471 0.242129474 -0.057274229 -0.000405358 0 0 0 0
916000000 0.334971576 0.115514129 -0.048490796 0.045720107 0 0 0 0
924000000 0.261407107 0.007764977 -0.001096376 0.073613829 0 0 0 0
932000000 0.115154817 -0.002864387 0.055722054 0.048937134 0 0 0 0
940000000 0.044970806 0.144693374 0.066353991 -0.009845316 0 0 0 0
948000000 0.197920337 0.295946002 0.030677359 -0.044459875 0 0 0 0
956000000 0.391852289 0.224913775 -0.003361153 -0.03938207 0 0 0 0
964000000 0.513951599 0.034952599 -0.018297411 -0.020991371 0 0 0 0
972000000 0.489105314 -0.227388381 -0.018331831 -0.006982704 0 0 0 0
980000000 0.301500469 -0.434560149 -0.01421445 0.000686681 0 0 0 0
988000000 0.034944344 -0.522775411 -0.01125524 0.003288849 0 0 0 0
996000000 -0.23318611 -0.486928433 -0.008097493 0.005242318 0 0 0 0
1004000000 -0.473704934 -0.350078672 -0.006561967 0.006788175 0 0 0 0
