# Hz S RI R 50
700000000 0.767407894 0.529509127 8.91e-06 0.000779417 0 0 0 0
708000000 0.867022931 0.288526982 2.7844e-05 0.001001665 0 0 0 0
716000000 0.890242397 0.015740938 0.000117614 0.001363987 0 0 0 0
724000000 0.833281636 -0.260835707 0.000261902 0.001590629 0 0 0 0
732000000 0.684674263 -0.510540485 0.000612047 0.001778652 0 0 0 0
740000000 0.450820446 -0.701950311 0.001070449 0.001745272 0 0 0 0
748000000 0.143676057 -0.793805301 0.001397521 0.001493201 0 0 0 0
756000000 -0.189462602 -0.755550563 0.001844254 0.000997913 0 0 0 0
764000000 -0.488530963 -0.55444312 0.001710575 0.00048417 0 0 0 0
772000000 -0.65297228 -0.206250861 0.001860396 -0.000206974 0 0 0 0
780000000 -0.590820908 0.213351666 0.001658638 -0.000848003 0 0 0 0
788000000 -0.256643325 0.524238944 0.001049938 -0.002218498 0 0 0 0
796000000 0.228986591 0.521342039 -0.00161627 -0.003220536 0 0 0 0
804000000 0.562355399 0.188073039 -0.004641048 -0.001584432 0 0 0 0
812000000 0.563039064 -0.26467657 -0.005265562 0.002249828 0 0 0 0
820000000 0.288472384 -0.567372083 -0.002860452 0.005439799 0 0 0 0
828000000 -0.084128908 -0.643771111 0.000220936 0.006478722 0 0 0 0
836000000 -0.400334089 -0.529107809 0.003518251 0.005902579 0 0 0 0
844000000 -0.616860985 -0.302133232 0.006276529 0.003969698 0 0 0 0
852000000 -0.709275603 -0.032494373 0.009133991 0.00139551 0 0 0 0
860000000 -0.691567301 0.230324104 0.01107994 -0.002207794 0 0 0 0
868000000 -0.577388286 0.441907346 0.011905025 -0.007949844 0 0 0 0
876000000 -0.389081388 0.566382467 0.010264595 -0.015282866 0 0 0 0
884000000 -0.178490802 0.60245651 0.002931921 -0.023294813 0 0 0 0
892000000 0.01502523 0.529279351 -0.011709338 -0.027252761 0 0 0 0
900000000 0.323040634 0.358945548 -0.034183759 -0.017072254 0 0 0 0
908000000 0.352121055 0.217726677 -0.045719813 0.011042937 0 0 0 0
916000000 0.327907979 0.084740139 -0.030281525 0.046375848 0 0 0 0
924000000 0.229449346 0.006486429 0.013003474 0.05960083 0 0 0 0
932000000 0.104975916 0.019491512 0.055045112 0.031876802 0 0 0 0
940000000 0.047157529 0.154818981 0.057290188 -0.018990671 0 0 0 0
948000000 0.201184824 0.288263708 0.022099712 -0.045956186 0 0 0 0
956000000 0.391567707 0.222684726 -0.011493388 -0.038197964 0 0 0 0
964000000 0.521713674 0.032147068 -0.024094864 -0.017511734 0 0 0 0
972000000 0.479223608 -0.218897938 -0.022312292 -0.001310659 0 0 0 0
980000000 0.296976029 -0.424580007 -0.014660001 0.006545649 0 0 0 0
988000000 0.030072307 -0.521890103 -0.008458246 0.008623796 0 0 0 0
996000000 -0.23286581 -0.482712149 -0.003450933 0.008025515 0 0 0 0
1004000000 -0.467576593 -0.350789457 -0.002497019 0.006622619 0 0 0 0
