# Hz S RI R 50
700000000 0.768995702 0.530325174 4.0125e-05 0.000699151 0 0 0 0
708000000 0.864939093 0.284633725 -0.000184475 0.000912363 0 0 0 0
716000000 0.889592111 0.011024741 7.589e-05 0.001279314 0 0 0 0
724000000 0.830188512 -0.265357226 0.000186663 0.001502627 0 0 0 0
732000000 0.679529368 -0.510765373 0.000396999 0.001584957 0 0 0 0
740000000 0.444180995 -0.703196108 0.000732029 0.00161664 0 0 0 0
748000000 0.135134667 -0.793985128 0.001098313 0.001424838 0 0 0 0
756000000 -0.19877915 -0.746874034 0.00124261 0.001083821 0 0 0 0
764000000 -0.489814072 -0.54138869 0.001402016 0.001038967 0 0 0 0
772000000 -0.652461647 -0.188147544 0.001762314 0.000530308 0 0 0 0
780000000 -0.570632576 0.231068909 0.001932689 -0.000476156 0 0 0 0
788000000 -0.21860595 0.525129079 0.001111298 -0.001764987 0 0 0 0
796000000 0.260537236 0.492568016 -0.001091325 -0.002931372 0 0 0 0
804000000 0.561496496 0.133580148 -0.004296586 -0.001330817 0 0 0 0
812000000 0.523163199 -0.305741727 -0.004631736 0.002698577 0 0 0 0
820000000 0.233080983 -0.577387928 -0.001957544 0.005793839 0 0 0 0
828000000 -0.132615253 -0.617283523 0.001485836 0.006251914 0 0 0 0
836000000 -0.430005729 -0.481465846 0.005238559 0.00546643 0 0 0 0
844000000 -0.624309659 -0.247847169 0.008352098 0.002683715 0 0 0 0
852000000 -0.690590679 0.020211782 0.010501523 -0.001110432 0 0 0 0
860000000 -0.653578519 0.273050129 0.011582309 -0.005986965 0 0 0 0
868000000 -0.512885391 0.461919158 0.010730773 -0.013537245 0 0 0 0
876000000 -0.314812272 0.558582007 0.004719854 -0.02123323 0 0 0 0
884000000 -0.108535781 0.550734162 -0.008631057 -0.026288852 0 0 0 0
892000000 0.055662967 0.435198754 -0.027885627 -0.020390853 0 0 0 0
900000000 0.297876566 0.247190952 -0.044109463 0.0075961 0 0 0 0
908000000 0.237722888 0.129915177 -0.030039845 0.041414171 0 0 0 0
916000000 0.17274785 0.1043576 0.009380687 0.054493878 0 0 0 0
924000000 0.128755986 0.095572568 0.046323526 0.030732374 0 0 0 0
932000000 0.072363965 0.146869316 0.050551805 -0.012843132 0 0 0 0
940000000 0.099969938 0.286035239 0.022606393 -0.038245182 0 0 0 0
948000000 0.315873801 0.350643008 -0.005209927 -0.03381494 0 0 0 0
956000000 0.494336694 0.192843064 -0.016081873 -0.019330162 0 0 0 0
964000000 0.567173361 -0.035048026 -0.019036227 -0.006118215 0 0 0 0
972000000 0.488041877 -0.283588856 -0.015485984 0.003245699 0 0 0 0
980000000 0.2864497 -0.495296388 -0.009507862 0.007248003 0 0 0 0
988000000 0.009852224 -0.556315302 -0.004519598 0.008830668 0 0 0 0
996000000 -0.262319684 -0.492710947 -0.001579895 0.007208689 0 0 0 0
1004000000 -0.496600985 -0.34595558 0.000133886 0.004998673 0 0 0 0
