# Hz S RI R 50
700000000 0.766736805 0.532645165 -5.3914e-05 0.000692519 0 0 0 0
708000000 0.862464785 0.283992916 -0.000120314 0.001052659 0 0 0 0
716000000 0.891476094 0.012157585 9.4668e-05 0.001198139 0 0 0 0
724000000 0.835160911 -0.25856617 3.38e-05 0.001394592 0 0 0 0
732000000 0.681941509 -0.509202539 0.0004608 0.001734147 0 0 0 0
740000000 0.44176191 -0.698830902 0.000849262 0.001728691 0 0 0 0
748000000 0.138197556 -0.791293561 0.001120668 0.001507654 0 0 0 0
756000000 -0.196602225 -0.747277379 0.001322105 0.00096454 0 0 0 0
764000000 -0.49112609 -0.541292726 0.001552372 0.000644333 0 0 0 0
772000000 -0.652032434 -0.186866819 0.001629883 0.000162676 0 0 0 0
780000000 -0.571001946 0.233273535 0.001643109 -0.000844312 0 0 0 0
788000000 -0.215348228 0.526867389 0.000612451 -0.001762105 0 0 0 0
796000000 0.266767382 0.493085682 -0.001571933 -0.002399049 0 0 0 0
804000000 0.566968262 0.133945405 -0.003946495 -0.000320426 0 0 0 0
812000000 0.525137722 -0.311768382 -0.003752376 0.003187888 0 0 0 0
820000000 0.23145309 -0.581232905 -0.001024761 0.005634573 0 0 0 0
828000000 -0.135334566 -0.625052809 0.002061624 0.005742394 0 0 0 0
836000000 -0.437730789 -0.489048212 0.004972443 0.00451659 0 0 0 0
844000000 -0.625912487 -0.248858883 0.007847038 0.002084475 0 0 0 0
852000000 -0.695246875 0.023014904 0.009757341 -0.001573845 0 0 0 0
860000000 -0.656251966 0.279248058 0.010842422 -0.006101839 0 0 0 0
868000000 -0.521066904 0.465074419 0.009937528 -0.01292429 0 0 0 0
876000000 -0.314747542 0.571376323 0.004508531 -0.020619053 0 0 0 0
884000000 -0.102448962 0.563712418 -0.008541636 -0.025456164 0 0 0 0
892000000 0.068067282 0.442589014 -0.027606915 -0.01969242 0 0 0 0
900000000 0.312735676 0.231846988 -0.0427058 0.007376824 0 0 0 0
908000000 0.259205907 0.110976643 -0.028986848 0.041347954 0 0 0 0
916000000 0.169808909 0.07669232 0.011098411 0.0532833 0 0 0 0
924000000 0.096855148 0.088069073 0.046682905 0.02872393 0 0 0 0
932000000 0.051242023 0.154841229 0.050417259 -0.015122295 0 0 0 0
940000000 0.105209589 0.295851409 0.02054874 -0.038791224 0 0 0 0
948000000 0.312416762 0.352229058 -0.006601041 -0.034390546 0 0 0 0
956000000 0.495807796 0.207932427 -0.018497183 -0.019235374 0 0 0 0
964000000 0.562929511 -0.021186925 -0.019856244 -0.004279313 0 0 0 0
972000000 0.496810495 -0.277552783 -0.0152192 0.004662937 0 0 0 0
980000000 0.301154732 -0.46980977 -0.008574111 0.008717725 0 0 0 0
988000000 0.025199288 -0.550629794 -0.00336506 0.008695247 0 0 0 0
996000000 -0.266939491 -0.494841426 -0.000389783 0.006706799 0 0 0 0
1004000000 -0.492995113 -0.358216941 0.000573542 0.005494978 0 0 0 0
