# Hz S RI R 50
700000000 0.764075458 0.525722622 2.2213e-05 0.000609982 0 0 0 0
708000000 0.862972974 0.284285068 -0.000107863 0.000954678 0 0 0 0
716000000 0.888123512 0.01265054 1.223e-05 0.001265149 0 0 0 0
724000000 0.831242144 -0.259319812 0.000345273 0.001401435 0 0 0 0
732000000 0.68160516 -0.511722326 0.000581655 0.001653182 0 0 0 0
740000000 0.443386465 -0.701061844 0.000801115 0.001461013 0 0 0 0
748000000 0.135185882 -0.791989386 0.001105007 0.001401822 0 0 0 0
756000000 -0.197663873 -0.745751142 0.001207217 0.000968131 0 0 0 0
764000000 -0.491404145 -0.538493752 0.00141336 0.00050868 0 0 0 0
772000000 -0.649202346 -0.177112832 0.001694106 4.5046e-05 0 0 0 0
780000000 -0.562725484 0.236066937 0.001502219 -0.000591912 0 0 0 0
788000000 -0.20415236 0.523291587 0.000481241 -0.001643211 0 0 0 0
796000000 0.270800501 0.479621708 -0.001462218 -0.001918075 0 0 0 0
804000000 0.561845481 0.11476732 -0.003628161 -0.000146208 0 0 0 0
812000000 0.507202804 -0.318990349 -0.003424527 0.00309268 0 0 0 0
820000000 0.211641624 -0.575551748 -0.000838907 0.00499852 0 0 0 0
828000000 -0.148383945 -0.609328269 0.002137597 0.005231519 0 0 0 0
836000000 -0.438868045 -0.466484993 0.004578046 0.004008607 0 0 0 0
844000000 -0.620735704 -0.225858241 0.007045519 0.001871361 0 0 0 0
852000000 -0.67732954 0.034903656 0.00913967 -0.001112794 0 0 0 0
860000000 -0.629841923 0.279179126 0.010275062 -0.005767761 0 0 0 0
868000000 -0.486840575 0.454608738 0.00951552 -0.011985911 0 0 0 0
876000000 -0.294931352 0.539370417 0.004278931 -0.019357576 0 0 0 0
884000000 -0.10802178 0.516524612 -0.007346468 -0.02387746 0 0 0 0
892000000 0.036608811 0.410825729 -0.024936001 -0.018611451 0 0 0 0
900000000 0.260354489 0.239747971 -0.039480719 0.005014999 0 0 0 0
908000000 0.222964972 0.153173372 -0.028201507 0.036464039 0 0 0 0
916000000 0.174976751 0.125727266 0.007167113 0.04934743 0 0 0 0
924000000 0.126038819 0.103256523 0.042258277 0.028574455 0 0 0 0
932000000 0.067178919 0.183901563 0.046229291 -0.011882997 0 0 0 0
940000000 0.141770526 0.301434546 0.020172595 -0.033559996 0 0 0 0
948000000 0.348304808 0.326931089 -0.003510752 -0.030329026 0 0 0 0
956000000 0.499712467 0.174757272 -0.014379658 -0.019155431 0 0 0 0
964000000 0.556818068 -0.057396996 -0.017421085 -0.006637205 0 0 0 0
972000000 0.476139575 -0.289678841 -0.015102954 0.002135009 0 0 0 0
980000000 0.276204496 -0.475513935 -0.008968769 0.007176811 0 0 0 0
988000000 0.012791708 -0.546632468 -0.004321624 0.008597297 0 0 0 0
996000000 -0.263101518 -0.493409842 -0.0019068 0.006904336 0 0 0 0
1004000000 -0.497367233 -0.350684583 0.000451135 0.00587642 0 0 0 0
