# Hz S RI R 50
700000000 0.766343832 0.523986101 -5.7053e-05 0.000600882 0 0 0 0
708000000 0.863395988 0.281585216 -0.000198394 0.000988848 0 0 0 0
716000000 0.888281404 0.01253173 3.5887e-05 0.001300293 0 0 0 0
724000000 0.83317852 -0.260386377 0.00032614 0.001500572 0 0 0 0
732000000 0.680373847 -0.51079601 0.000354181 0.001539713 0 0 0 0
740000000 0.442681968 -0.703910231 0.000687617 0.001651901 0 0 0 0
748000000 0.134667277 -0.790445625 0.001167754 0.0014941 0 0 0 0
756000000 -0.196373835 -0.74670428 0.001352354 0.001221351 0 0 0 0
764000000 -0.492386311 -0.539348781 0.00160835 0.000826054 0 0 0 0
772000000 -0.650096535 -0.184147104 0.001806232 0.000344701 0 0 0 0
780000000 -0.568526983 0.233726605 0.001750962 -0.00077799 0 0 0 0
788000000 -0.209014669 0.523947119 0.000744023 -0.001945824 0 0 0 0
796000000 0.269381016 0.485836416 -0.001496343 -0.002505967 0 0 0 0
804000000 0.567067205 0.123712375 -0.004127438 -0.00039426 0 0 0 0
812000000 0.521158218 -0.317005872 -0.003869617 0.003083971 0 0 0 0
820000000 0.226416885 -0.581579267 -0.001066436 0.005593892 0 0 0 0
828000000 -0.14070715 -0.623161613 0.001952002 0.005703101 0 0 0 0
836000000 -0.437720984 -0.480510562 0.004931869 0.004352563 0 0 0 0
844000000 -0.632015764 -0.240158468 0.00751972 0.002166558 0 0 0 0
852000000 -0.696496725 0.027043214 0.009533504 -0.001021104 0 0 0 0
860000000 -0.653388142 0.278199166 0.010664012 -0.005773551 0 0 0 0
868000000 -0.515103161 0.466837823 0.009916986 -0.012178631 0 0 0 0
876000000 -0.308532029 0.564709424 0.004742234 -0.019854279 0 0 0 0
884000000 -0.100165307 0.554641067 -0.007499544 -0.024944929 0 0 0 0
892000000 0.066078528 0.426655918 -0.026584019 -0.01973132 0 0 0 0
900000000 0.297636121 0.232746213 -0.04151513 0.005429929 0 0 0 0
908000000 0.249960795 0.114435099 -0.029184818 0.038152888 0 0 0 0
916000000 0.174262225 0.072167932 0.008685793 0.051316574 0 0 0 0
924000000 0.100468151 0.084569156 0.043228879 0.028534783 0 0 0 0
932000000 0.047995902 0.165242075 0.047232858 -0.012221933 0 0 0 0
940000000 0.107305414 0.294407218 0.020381784 -0.034742347 0 0 0 0
948000000 0.332351416 0.340478926 -0.004589284 -0.03095467 0 0 0 0
956000000 0.512016654 0.186521112 -0.014788136 -0.017929347 0 0 0 0
964000000 0.571697771 -0.041897229 -0.017550477 -0.005967161 0 0 0 0
972000000 0.496723711 -0.288362503 -0.015127125 0.002326571 0 0 0 0
980000000 0.285660773 -0.47890228 -0.009308136 0.00730849 0 0 0 0
988000000 0.018332766 -0.531991481 -0.004853651 0.008033 0 0 0 0
996000000 -0.249757662 -0.501572728 -0.001128887 0.00696405 0 0 0 0
1004000000 -0.49332267 -0.339837104 -0.000820931 0.005392596 0 0 0 0
