# Hz S RI R 50
700000000 0.76571989 0.53212738 0.000111897 0.000620883 0 0 0 0
708000000 0.862380445 0.283557802 -3.2435e-05 0.000993355 0 0 0 0
716000000 0.885198593 0.014581358 -7.2364e-05 0.001280719 0 0 0 0
724000000 0.83163917 -0.259328454 0.000231962 0.001365806 0 0 0 0
732000000 0.677940547 -0.50981152 0.000365015 0.001628331 0 0 0 0
740000000 0.444314092 -0.702192664 0.000927944 0.001590145 0 0 0 0
748000000 0.136790975 -0.794194102 0.001253861 0.001370954 0 0 0 0
756000000 -0.197759434 -0.748762011 0.001276434 0.000930212 0 0 0 0
764000000 -0.49014312 -0.537623763 0.001489456 0.000779911 0 0 0 0
772000000 -0.648761928 -0.179281324 0.001866417 9.4947e-05 0 0 0 0
780000000 -0.568082034 0.239995613 0.001784981 -0.000818504 0 0 0 0
788000000 -0.206684023 0.52949661 0.000494099 -0.001953914 0 0 0 0
796000000 0.277779459 0.486350804 -0.002117398 -0.002479698 0 0 0 0
804000000 0.572610199 0.118788406 -0.004587626 -0.000289738 0 0 0 0
812000000 0.524009346 -0.325322002 -0.003949464 0.003790922 0 0 0 0
820000000 0.224797025 -0.589567363 -0.000582579 0.006218327 0 0 0 0
828000000 -0.146158441 -0.626314759 0.002685607 0.00589561 0 0 0 0
836000000 -0.444890737 -0.48426488 0.005709816 0.004032522 0 0 0 0
844000000 -0.633720397 -0.2441051 0.008172591 0.001278872 0 0 0 0
852000000 -0.701445758 0.028881538 0.009900107 -0.002461931 0 0 0 0
860000000 -0.657584249 0.286190807 0.010314055 -0.006977845 0 0 0 0
868000000 -0.515836179 0.477696955 0.008833698 -0.013592625 0 0 0 0
876000000 -0.307976096 0.579726576 0.002642544 -0.020476212 0 0 0 0
884000000 -0.088730126 0.568265974 -0.010399608 -0.023963622 0 0 0 0
892000000 0.092307977 0.441607981 -0.027506614 -0.01618769 0 0 0 0
900000000 0.336390376 0.214043885 -0.039596479 0.010670585 0 0 0 0
908000000 0.265675216 0.073231108 -0.023637132 0.042384508 0 0 0 0
916000000 0.145095318 0.038826543 0.015691192 0.049479614 0 0 0 0
924000000 0.054153133 0.06849984 0.045682031 0.021109825 0 0 0 0
932000000 0.024555725 0.191343769 0.042828004 -0.018786618 0 0 0 0
940000000 0.109574697 0.332177996 0.013591504 -0.036437649 0 0 0 0
948000000 0.333072066 0.358317345 -0.008684438 -0.027166048 0 0 0 0
956000000 0.501409053 0.203906863 -0.01539326 -0.013964372 0 0 0 0
964000000 0.571774065 -0.02818663 -0.015555037 -0.003658396 0 0 0 0
972000000 0.501026391 -0.277954041 -0.012488228 0.003685323 0 0 0 0
980000000 0.293630748 -0.482792973 -0.007367498 0.006601275 0 0 0 0
988000000 0.025346418 -0.550713002 -0.00356216 0.007215282 0 0 0 0
996000000 -0.266233175 -0.501835703 -0.000992821 0.005843358 0 0 0 0
1004000000 -0.499787032 -0.35344991 0.000133112 0.00461018 0 0 0 0
