# Hz S RI R 50
700000000 0.763710677 0.531534373 7.281e-06 0.000621825 0 0 0 0
708000000 0.864373743 0.284619003 -1.812e-06 0.000899541 0 0 0 0
716000000 0.890542387 0.016410458 0.000103658 0.00115955 0 0 0 0
724000000 0.83098483 -0.258560925 0.000204412 0.001549574 0 0 0 0
732000000 0.679312407 -0.511652171 0.000454353 0.001628901 0 0 0 0
740000000 0.441204279 -0.698598861 0.000907672 0.00161691 0 0 0 0
748000000 0.136354655 -0.790714263 0.0012601 0.001436514 0 0 0 0
756000000 -0.19677627 -0.747553646 0.001333354 0.001087675 0 0 0 0
764000000 -0.489948719 -0.540560781 0.001575907 0.000627459 0 0 0 0
772000000 -0.651365816 -0.187946081 0.001856768 9.3837e-05 0 0 0 0
780000000 -0.571137011 0.228192448 0.00182619 -0.000797339 0 0 0 0
788000000 -0.218135237 0.522342681 0.000523343 -0.002016244 0 0 0 0
796000000 0.256960064 0.491892278 -0.001880101 -0.002595672 0 0 0 0
804000000 0.559209942 0.136422365 -0.004425751 -0.000266343 0 0 0 0
812000000 0.526248216 -0.300081163 -0.00417016 0.003616648 0 0 0 0
820000000 0.23804599 -0.573927998 -0.0007248 0.006083331 0 0 0 0
828000000 -0.128736793 -0.618731439 0.002711831 0.00579477 0 0 0 0
836000000 -0.427076071 -0.48591426 0.005677255 0.004433659 0 0 0 0
844000000 -0.617275357 -0.252322077 0.008451593 0.001771253 0 0 0 0
852000000 -0.688566803 0.016606565 0.009965397 -0.002094845 0 0 0 0
860000000 -0.648833155 0.268675476 0.010778433 -0.007051173 0 0 0 0
868000000 -0.517674207 0.458150297 0.009312586 -0.014107672 0 0 0 0
876000000 -0.319751888 0.553072452 0.002926615 -0.021156238 0 0 0 0
884000000 -0.112099274 0.548274576 -0.010625263 -0.024801688 0 0 0 0
892000000 0.047062721 0.433882325 -0.028350405 -0.016477108 0 0 0 0
900000000 0.283623278 0.243027821 -0.040116265 0.011414651 0 0 0 0
908000000 0.231904014 0.1415506 -0.023688789 0.042131159 0 0 0 0
916000000 0.180508553 0.114876553 0.014537749 0.05005972 0 0 0 0
924000000 0.133382067 0.111569233 0.046182632 0.023709904 0 0 0 0
932000000 0.096708327 0.142447799 0.046646602 -0.01728479 0 0 0 0
940000000 0.112042628 0.271892309 0.017661973 -0.037705577 0 0 0 0
948000000 0.310587882 0.325861752 -0.007132394 -0.031065283 0 0 0 0
956000000 0.477563887 0.191399231 -0.017757773 -0.017598981 0 0 0 0
964000000 0.556441009 -0.032151635 -0.018807465 -0.004126947 0 0 0 0
972000000 0.484799087 -0.280703932 -0.014684898 0.004474165 0 0 0 0
980000000 0.291468292 -0.46474874 -0.008299802 0.008855628 0 0 0 0
988000000 0.023186601 -0.540555119 -0.002565139 0.008566228 0 0 0 0
996000000 -0.257532149 -0.492914408 0.000178882 0.007141801 0 0 0 0
1004000000 -0.486296981 -0.348425835 0.000748426 0.004876436 0 0 0 0
