# Hz S RI R 50
700000000 0.764799356 0.533222496 -7.155e-05 0.000701894 0 0 0 0
708000000 0.865682482 0.283683478 -2.8414e-05 0.001052904 0 0 0 0
716000000 0.893447041 0.013074727 0.000186125 0.001280086 0 0 0 0
724000000 0.831933379 -0.265506744 0.000158349 0.001521016 0 0 0 0
732000000 0.681762754 -0.511242687 0.000468887 0.001553171 0 0 0 0
740000000 0.443664103 -0.70231527 0.000983964 0.001497443 0 0 0 0
748000000 0.139057219 -0.792861759 0.001116578 0.001296634 0 0 0 0
756000000 -0.194961145 -0.748834669 0.001272064 0.001022727 0 0 0 0
764000000 -0.489513158 -0.541792869 0.001582038 0.000755104 0 0 0 0
772000000 -0.652147054 -0.188085809 0.001817502 9.1584e-05 0 0 0 0
780000000 -0.573539674 0.22845824 0.001602036 -0.000857187 0 0 0 0
788000000 -0.222221195 0.52560997 0.000520514 -0.001971888 0 0 0 0
796000000 0.257381707 0.495350748 -0.001875284 -0.002349438 0 0 0 0
804000000 0.567403256 0.143924832 -0.00453085 -0.000105194 0 0 0 0
812000000 0.528802394 -0.298922777 -0.004085494 0.003955836 0 0 0 0
820000000 0.242578968 -0.576522707 -0.000659144 0.006165967 0 0 0 0
828000000 -0.122274011 -0.62875396 0.002740549 0.005851355 0 0 0 0
836000000 -0.428255826 -0.494384378 0.00578953 0.004423875 0 0 0 0
844000000 -0.622322261 -0.259744644 0.008576855 0.001312435 0 0 0 0
852000000 -0.697951316 0.006553241 0.010295644 -0.00234782 0 0 0 0
860000000 -0.665233135 0.264378875 0.010650895 -0.007381729 0 0 0 0
868000000 -0.53477776 0.460267096 0.0089063 -0.014354024 0 0 0 0
876000000 -0.334556728 0.569096386 0.002536863 -0.021251309 0 0 0 0
884000000 -0.12044467 0.572621941 -0.011247768 -0.024502063 0 0 0 0
892000000 0.060222398 0.475085735 -0.028831804 -0.016466084 0 0 0 0
900000000 0.31247273 0.251848101 -0.040242765 0.011641248 0 0 0 0
908000000 0.26890707 0.135060742 -0.022766936 0.043182838 0 0 0 0
916000000 0.191998988 0.083905063 0.016010386 0.049981519 0 0 0 0
924000000 0.143288284 0.078826479 0.047302354 0.02209427 0 0 0 0
932000000 0.071185104 0.121775574 0.045807603 -0.018832199 0 0 0 0
940000000 0.07849621 0.255286902 0.016373811 -0.037758126 0 0 0 0
948000000 0.276463627 0.339068949 -0.007813611 -0.030807659 0 0 0 0
956000000 0.467768102 0.212994173 -0.017586605 -0.017801176 0 0 0 0
964000000 0.545665025 -0.008694736 -0.019211634 -0.003623047 0 0 0 0
972000000 0.494343817 -0.266347616 -0.015171515 0.005436735 0 0 0 0
980000000 0.310719788 -0.458493232 -0.008193747 0.009354516 0 0 0 0
988000000 0.03427954 -0.544903874 -0.002364935 0.009343104 0 0 0 0
996000000 -0.257070749 -0.501710712 0.000937547 0.007017582 0 0 0 0
1004000000 -0.473271757 -0.356238186 0.001313059 0.004665384 0 0 0 0
