# Hz S RI R 50
700000000 0.768642246 0.526975035 -0.000111206 0.000593219 0 0 0 0
708000000 0.866674423 0.286104083 -4.5943e-05 0.000968797 0 0 0 0
716000000 0.889648258 0.014273547 -1.8698e-05 0.001321406 0 0 0 0
724000000 0.829044759 -0.255613714 0.000234169 0.001347191 0 0 0 0
732000000 0.680661916 -0.509497344 0.000565506 0.001459183 0 0 0 0
740000000 0.445252805 -0.699826121 0.000893497 0.001398073 0 0 0 0
748000000 0.138678744 -0.795325875 0.001272828 0.0011724 0 0 0 0
756000000 -0.194816365 -0.749418556 0.00121846 0.00095573 0 0 0 0
764000000 -0.49010241 -0.542255282 0.00164727 0.00052361 0 0 0 0
772000000 -0.651200532 -0.190389692 0.001629435 8.1932e-05 0 0 0 0
780000000 -0.574098169 0.229525879 0.001360516 -0.000964086 0 0 0 0
788000000 -0.220454514 0.529515564 0.000326503 -0.001828231 0 0 0 0
796000000 0.260116875 0.496489852 -0.001720501 -0.001823273 0 0 0 0
804000000 0.568208038 0.140967577 -0.003859296 0.000351299 0 0 0 0
812000000 0.532847523 -0.302844524 -0.003324043 0.003851748 0 0 0 0
820000000 0.243631497 -0.579038023 -5.3718e-05 0.005487408 0 0 0 0
828000000 -0.124913677 -0.626321852 0.002855726 0.005056657 0 0 0 0
836000000 -0.428937822 -0.493731945 0.005433769 0.003624494 0 0 0 0
844000000 -0.623162865 -0.260475844 0.007442196 0.001079554 0 0 0 0
852000000 -0.699106812 0.010036786 0.009057085 -0.002200903 0 0 0 0
860000000 -0.663747072 0.267587989 0.00960384 -0.006621607 0 0 0 0
868000000 -0.529687762 0.464703619 0.008472898 -0.012455799 0 0 0 0
876000000 -0.32755962 0.570004701 0.003230155 -0.019392862 0 0 0 0
884000000 -0.118271119 0.571603953 -0.008673761 -0.023379839 0 0 0 0
892000000 0.056100569 0.458508908 -0.026172533 -0.017873387 0 0 0 0
900000000 0.322225958 0.251677453 -0.039310541 0.008336124 0 0 0 0
908000000 0.274079889 0.12967506 -0.026642028 0.039143584 0 0 0 0
916000000 0.194854736 0.081528559 0.011659123 0.050941389 0 0 0 0
924000000 0.129649907 0.064520314 0.045420739 0.025373697 0 0 0 0
932000000 0.049863822 0.12867403 0.046415876 -0.015241128 0 0 0 0
940000000 0.076384954 0.278494656 0.018949532 -0.035758521 0 0 0 0
948000000 0.285983622 0.354361146 -0.005805315 -0.031574063 0 0 0 0
956000000 0.481847554 0.217077925 -0.016833314 -0.018753869 0 0 0 0
964000000 0.553791165 -0.007037442 -0.019485516 -0.005202076 0 0 0 0
972000000 0.494956135 -0.260196268 -0.015464279 0.004972898 0 0 0 0
980000000 0.310580641 -0.459382116 -0.009189011 0.008718915 0 0 0 0
988000000 0.025292603 -0.542287468 -0.002977193 0.008923964 0 0 0 0
996000000 -0.251495063 -0.502312362 -0.00015814 0.007467926 0 0 0 0
1004000000 -0.485114276 -0.362693548 0.000929702 0.005359078 0 0 0 0
