# Hz S RI R 50
700000000 0.764377772 0.527170062 -5.1517e-05 0.000582041 0 0 0 0
708000000 0.862819135 0.285140782 -6.4781e-05 0.000923878 0 0 0 0
716000000 0.893574476 0.014700827 0.000150392 0.001302602 0 0 0 0
724000000 0.828278839 -0.260166317 0.000310786 0.001379663 0 0 0 0
732000000 0.680665075 -0.509455144 0.00053552 0.001613604 0 0 0 0
740000000 0.445188075 -0.699389994 0.000951967 0.001637485 0 0 0 0
748000000 0.137592077 -0.793013334 0.00116515 0.00137589 0 0 0 0
756000000 -0.195970699 -0.747363984 0.001489342 0.001011449 0 0 0 0
764000000 -0.489506244 -0.544589877 0.001485193 0.000452986 0 0 0 0
772000000 -0.648766398 -0.188140213 0.001421957 -8.3666e-05 0 0 0 0
780000000 -0.572645664 0.230208933 0.001233122 -0.000631705 0 0 0 0
788000000 -0.219734117 0.52470535 0.000280284 -0.001486889 0 0 0 0
796000000 0.257883042 0.495051443 -0.001694351 -0.001400675 0 0 0 0
804000000 0.565979123 0.139020174 -0.003493068 0.000638634 0 0 0 0
812000000 0.530095994 -0.303958773 -0.002681053 0.00333624 0 0 0 0
820000000 0.241112306 -0.578116416 0.000307236 0.004944057 0 0 0 0
828000000 -0.126816913 -0.627901315 0.002627587 0.004385177 0 0 0 0
836000000 -0.427859276 -0.492811024 0.004686645 0.003104543 0 0 0 0
844000000 -0.625280797 -0.256918877 0.006419542 0.000727334 0 0 0 0
852000000 -0.697768032 0.014836408 0.008023199 -0.00201489 0 0 0 0
860000000 -0.660540878 0.267283946 0.008654557 -0.005629373 0 0 0 0
868000000 -0.527202367 0.464969843 0.008049332 -0.010842955 0 0 0 0
876000000 -0.321706593 0.567365169 0.004029656 -0.017239142 0 0 0 0
884000000 -0.113758489 0.561587095 -0.00613587 -0.021785695 0 0 0 0
892000000 0.054570581 0.448771536 -0.019708286 -0.018329994 0 0 0 0
900000000 0.311708092 0.24761708 -0.037442799 0.004508118 0 0 0 0
908000000 0.26986441 0.140493258 -0.029137898 0.034067489 0 0 0 0
916000000 0.194929391 0.08424516 0.005690834 0.04942863 0 0 0 0
924000000 0.124781928 0.076410628 0.042009115 0.028862599 0 0 0 0
932000000 0.048690859 0.13163653 0.046940293 -0.011825386 0 0 0 0
940000000 0.083801418 0.281630992 0.020038178 -0.034867815 0 0 0 0
948000000 0.297974675 0.345504075 -0.004785762 -0.030131636 0 0 0 0
956000000 0.473916381 0.213629648 -0.015241545 -0.017457364 0 0 0 0
964000000 0.562624216 -0.015770243 -0.018249796 -0.004995958 0 0 0 0
972000000 0.490811944 -0.273213148 -0.014318891 0.003198585 0 0 0 0
980000000 0.296753644 -0.469060093 -0.00860923 0.00755696 0 0 0 0
988000000 0.033105883 -0.540290653 -0.004152854 0.008128072 0 0 0 0
996000000 -0.262351095 -0.489545196 -0.001268957 0.00635816 0 0 0 0
1004000000 -0.484738916 -0.349630475 0.000518134 0.00511058 0 0 0 0
