# Hz S RI R 50
700000000 0.762703955 0.525688886 -6.5111e-05 0.000508966 0 0 0 0
708000000 0.862823665 0.283036887 7.567e-05 0.00093739 0 0 0 0
716000000 0.889214754 0.013099208 -0.000129307 0.001374581 0 0 0 0
724000000 0.829896688 -0.264756917 4.7609e-05 0.001507715 0 0 0 0
732000000 0.679193139 -0.511616885 0.000299209 0.001616718 0 0 0 0
740000000 0.441659748 -0.701447844 0.000966537 0.001534411 0 0 0 0
748000000 0.134356126 -0.789919078 0.001171192 0.001531489 0 0 0 0
756000000 -0.19819726 -0.744056165 0.001252835 0.001127758 0 0 0 0
764000000 -0.493970483 -0.538072884 0.001411322 0.000838501 0 0 0 0
772000000 -0.646722912 -0.1785236 0.001563261 0.000262772 0 0 0 0
780000000 -0.562457323 0.234934031 0.001547074 -0.000653384 0 0 0 0
788000000 -0.202503561 0.519665241 0.000837287 -0.001894018 0 0 0 0
796000000 0.270339667 0.478428184 -0.001246185 -0.002076242 0 0 0 0
804000000 0.560590386 0.1119235 -0.003752992 -0.000484889 0 0 0 0
812000000 0.505076229 -0.320768028 -0.003740538 0.003082137 0 0 0 0
820000000 0.211918249 -0.577057778 -0.000992127 0.004936496 0 0 0 0
828000000 -0.149461224 -0.610197901 0.001768105 0.005377914 0 0 0 0
836000000 -0.442754715 -0.466284304 0.004397384 0.004312037 0 0 0 0
844000000 -0.622453212 -0.229490414 0.006923761 0.002264504 0 0 0 0
852000000 -0.680355787 0.038666233 0.009168697 -0.00093651 0 0 0 0
860000000 -0.630967259 0.283366858 0.010458324 -0.005217115 0 0 0 0
868000000 -0.488847315 0.458905875 0.010083876 -0.011643598 0 0 0 0
876000000 -0.289311647 0.539680361 0.005420823 -0.019352035 0 0 0 0
884000000 -0.097292922 0.515743732 -0.006529393 -0.024883763 0 0 0 0
892000000 0.035788204 0.395514965 -0.024017693 -0.020837757 0 0 0 0
900000000 0.263577759 0.223726972 -0.041031222 0.005101474 0 0 0 0
908000000 0.212196424 0.150335863 -0.028998691 0.036343026 0 0 0 0
916000000 0.165560185 0.116959765 0.006343479 0.04998409 0 0 0 0
924000000 0.109132587 0.110604591 0.041580382 0.029183728 0 0 0 0
932000000 0.06939651 0.188277155 0.045906756 -0.010430301 0 0 0 0
940000000 0.141618415 0.310367047 0.020640758 -0.032508697 0 0 0 0
948000000 0.358041763 0.33076325 -0.002844427 -0.029470212 0 0 0 0
956000000 0.517221271 0.177941426 -0.013092153 -0.018251979 0 0 0 0
964000000 0.568070709 -0.071018159 -0.01680522 -0.006816406 0 0 0 0
972000000 0.466199904 -0.298696368 -0.014467569 0.00067294 0 0 0 0
980000000 0.270403325 -0.488952398 -0.009553874 0.006082528 0 0 0 0
988000000 0.007312248 -0.53703171 -0.005609645 0.007336716 0 0 0 0
996000000 -0.2634615 -0.483895421 -0.002137131 0.00671988 0 0 0 0
1004000000 -0.489541679 -0.332572638 -0.000602918 0.005886539 0 0 0 0
