# Hz S RI R 50
700000000 0.764916718 0.523594975 -1.4345e-05 0.00051389 0 0 0 0
708000000 0.865353822 0.281450062 -0.000105974 0.000931359 0 0 0 0
716000000 0.889054179 0.012011262 -4.3698e-05 0.001260342 0 0 0 0
724000000 0.832537829 -0.261614471 6.1949e-05 0.001505717 0 0 0 0
732000000 0.679242789 -0.510388612 0.000389791 0.001694339 0 0 0 0
740000000 0.440817922 -0.703994333 0.000933934 0.001516442 0 0 0 0
748000000 0.137794911 -0.791849255 0.000984682 0.001281375 0 0 0 0
756000000 -0.198004826 -0.744810879 0.00157234 0.001197797 0 0 0 0
764000000 -0.490561276 -0.538533389 0.001658209 0.000818611 0 0 0 0
772000000 -0.648085296 -0.181386426 0.001936965 0.000286538 0 0 0 0
780000000 -0.563925266 0.235314562 0.001773769 -0.000812075 0 0 0 0
788000000 -0.204104959 0.520624041 0.000765089 -0.002055415 0 0 0 0
796000000 0.268660575 0.478178858 -0.001491272 -0.002449092 0 0 0 0
804000000 0.561102032 0.117447435 -0.004202527 -0.000773909 0 0 0 0
812000000 0.51051706 -0.316495031 -0.003967479 0.003152972 0 0 0 0
820000000 0.21626684 -0.57681775 -0.001087504 0.005670997 0 0 0 0
828000000 -0.148465707 -0.61153239 0.001978221 0.005743477 0 0 0 0
836000000 -0.438739448 -0.468988537 0.00517289 0.004619824 0 0 0 0
844000000 -0.618385195 -0.230459928 0.00763148 0.002060882 0 0 0 0
852000000 -0.680624067 0.034977979 0.009803329 -0.001163842 0 0 0 0
860000000 -0.632422983 0.280776888 0.010918929 -0.006013843 0 0 0 0
868000000 -0.493661671 0.456995278 0.009875468 -0.012807428 0 0 0 0
876000000 -0.288853824 0.543927192 0.00446687 -0.020403152 0 0 0 0
884000000 -0.095992207 0.519221663 -0.008435818 -0.025194862 0 0 0 0
892000000 0.035570506 0.394492089 -0.037201531 -0.031953059 0 0 0 0
900000000 0.255773812 0.224381461 -0.040354009 0.007100506 0 0 0 0
908000000 0.207390263 0.143530651 -0.027456166 0.039241034 0 0 0 0
916000000 0.163054779 0.126362204 0.00996106 0.050996318 0 0 0 0
924000000 0.116960577 0.129361927 0.044271759 0.02775407 0 0 0 0
932000000 0.079048372 0.182270571 0.047288395 -0.013363816 0 0 0 0
940000000 0.142332956 0.302291065 0.019387669 -0.036373786 0 0 0 0
948000000 0.357525527 0.323058217 -0.005282853 -0.030321845 0 0 0 0
956000000 0.509121835 0.190120369 -0.015664454 -0.017768504 0 0 0 0
964000000 0.565991818 -0.063989467 -0.017458943 -0.005619143 0 0 0 0
972000000 0.46377325 -0.293801754 -0.01420812 0.003040594 0 0 0 0
980000000 0.275953561 -0.480955511 -0.008813874 0.00693815 0 0 0 0
988000000 0.002812086 -0.544212818 -0.004586798 0.008220894 0 0 0 0
996000000 -0.267801672 -0.492254525 -0.001546903 0.007318043 0 0 0 0
1004000000 -0.494252562 -0.338025361 -0.000311659 0.005593478 0 0 0 0
