# Hz S RI R 50
700000000 0.76821196 0.526756882 -5.1005e-05 0.00064028 0 0 0 0
708000000 0.864774227 0.280383765 -6.5703e-05 0.001016153 0 0 0 0
716000000 0.888715088 0.016095254 0.000119235 0.001307384 0 0 0 0
724000000 0.834211647 -0.25965324 0.000164761 0.001395019 0 0 0 0
732000000 0.681880056 -0.511517822 0.000469624 0.001714972 0 0 0 0
740000000 0.442358791 -0.701966345 0.000908557 0.00133857 0 0 0 0
748000000 0.137080371 -0.791347205 0.001210394 0.001327017 0 0 0 0
756000000 -0.195937305 -0.747877418 0.001548437 0.001051781 0 0 0 0
764000000 -0.490897327 -0.539871513 0.001373966 0.000668553 0 0 0 0
772000000 -0.648678302 -0.185994744 0.00172361 0.000438992 0 0 0 0
780000000 -0.564997553 0.234194502 0.001522537 -0.00091285 0 0 0 0
788000000 -0.211631059 0.520542025 0.000505589 -0.001784837 0 0 0 0
796000000 0.261234104 0.481516778 -0.001524319 -0.002116164 0 0 0 0
804000000 0.556407988 0.123831883 -0.003892291 -0.000441608 0 0 0 0
812000000 0.51195544 -0.309945911 -0.003920279 0.003089028 0 0 0 0
820000000 0.221091195 -0.571988224 -0.001086816 0.005380663 0 0 0 0
828000000 -0.13788183 -0.606932044 0.002057559 0.005754557 0 0 0 0
836000000 -0.432186543 -0.468856483 0.005410969 0.004460334 0 0 0 0
844000000 -0.615428566 -0.233051389 0.007753366 0.00192304 0 0 0 0
852000000 -0.676588952 0.030094869 0.009710434 -0.001693603 0 0 0 0
860000000 -0.631738185 0.275144487 0.010496441 -0.005994901 0 0 0 0
868000000 -0.496498912 0.454354703 0.009529386 -0.012802068 0 0 0 0
876000000 -0.299281001 0.539968132 0.004242866 -0.020600136 0 0 0 0
884000000 -0.104527465 0.516854047 -0.008715487 -0.025035431 0 0 0 0
892000000 0.026659855 0.401700437 -0.027299946 -0.019001405 0 0 0 0
900000000 0.242147177 0.228870034 -0.040401868 0.007498525 0 0 0 0
908000000 0.200520336 0.164700567 -0.028121517 0.039282429 0 0 0 0
916000000 0.160430058 0.142484217 0.009276147 0.051400549 0 0 0 0
924000000 0.138987779 0.132082775 0.044320456 0.029139319 0 0 0 0
932000000 0.108039446 0.165719196 0.04929478 -0.011931885 0 0 0 0
940000000 0.146074846 0.287819057 0.02214984 -0.037217635 0 0 0 0
948000000 0.335063308 0.307882219 -0.004532199 -0.033624634 0 0 0 0
956000000 0.489645332 0.159996166 -0.016642114 -0.01962071 0 0 0 0
964000000 0.547890365 -0.057660792 -0.019217126 -0.006356043 0 0 0 0
972000000 0.476763457 -0.279926091 -0.016425853 0.003771091 0 0 0 0
980000000 0.274229824 -0.466614365 -0.010153456 0.008304798 0 0 0 0
988000000 0.003291525 -0.534509003 -0.004359979 0.009073019 0 0 0 0
996000000 -0.275092035 -0.493020623 -0.000505264 0.007653915 0 0 0 0
1004000000 -0.503624737 -0.348302245 0.000248836 0.005982773 0 0 0 0
