# Hz S RI R 50
700000000 0.763029217 0.528111994 2.3218e-05 0.000630365 0 0 0 0
708000000 0.865197837 0.28373757 -9.9402e-05 0.000805555 0 0 0 0
716000000 0.892207562 0.016057146 -0.000114996 0.001189975 0 0 0 0
724000000 0.829293608 -0.263354837 9.3225e-05 0.00150062 0 0 0 0
732000000 0.679791152 -0.507935166 0.000607484 0.001608784 0 0 0 0
740000000 0.445584952 -0.701335191 0.000758429 0.001508044 0 0 0 0
748000000 0.13871701 -0.792917788 0.001193474 0.001226557 0 0 0 0
756000000 -0.196183443 -0.745102047 0.001385734 0.001190239 0 0 0 0
764000000 -0.489209204 -0.539409101 0.00162589 0.000634767 0 0 0 0
772000000 -0.649853467 -0.185290426 0.001887895 0.000223379 0 0 0 0
780000000 -0.569138646 0.23062846 0.00162754 -0.000699674 0 0 0 0
788000000 -0.213624581 0.52454102 0.000591394 -0.001908119 0 0 0 0
796000000 0.263840973 0.48635742 -0.001877769 -0.002352242 0 0 0 0
804000000 0.562550604 0.127472788 -0.004256414 -0.000165156 0 0 0 0
812000000 0.523378849 -0.312166333 -0.0039898 0.003581092 0 0 0 0
820000000 0.227496564 -0.578221678 -0.00091865 0.006004012 0 0 0 0
828000000 -0.138690873 -0.619843244 0.002529962 0.005899001 0 0 0 0
836000000 -0.432533949 -0.481795251 0.005624742 0.004173242 0 0 0 0
844000000 -0.625392436 -0.242790624 0.008352929 0.001606528 0 0 0 0
852000000 -0.688584983 0.025495136 0.010018049 -0.002295829 0 0 0 0
860000000 -0.64681226 0.275121539 0.010479352 -0.00694572 0 0 0 0
868000000 -0.510332405 0.463221579 0.009110763 -0.01342353 0 0 0 0
876000000 -0.304386019 0.560164272 0.003070777 -0.020418621 0 0 0 0
884000000 -0.104089841 0.54270929 -0.009517711 -0.024255257 0 0 0 0
892000000 0.068606503 0.402693808 -0.024814469 -0.015661319 0 0 0 0
900000000 0.278654754 0.226920843 -0.041177738 0.008941692 0 0 0 0
908000000 0.233657777 0.12892583 -0.02665149 0.041194673 0 0 0 0
916000000 0.160624235 0.099947646 0.012696542 0.052276138 0 0 0 0
924000000 0.117521807 0.104652389 0.047576755 0.026358939 0 0 0 0
932000000 0.066548623 0.165224164 0.0494887 -0.017047472 0 0 0 0
940000000 0.117182269 0.29989928 0.01819344 -0.04057819 0 0 0 0
948000000 0.335966885 0.329987078 -0.009938335 -0.031683415 0 0 0 0
956000000 0.490638673 0.192395389 -0.018602879 -0.01717185 0 0 0 0
964000000 0.561734259 -0.048017092 -0.019101558 -0.003118407 0 0 0 0
972000000 0.476884096 -0.284707576 -0.014578131 0.005319353 0 0 0 0
980000000 0.294419586 -0.468424022 -0.008237592 0.008762904 0 0 0 0
988000000 0.023279767 -0.539799332 -0.00260766 0.009307265 0 0 0 0
996000000 -0.26359567 -0.498532593 0.00034605 0.006278558 0 0 0 0
1004000000 -0.499671429 -0.357272595 0.001235858 0.005228076 0 0 0 0
