# Hz S RI R 50
700000000 0.76701796 0.525511682 -3.5902e-05 0.000646778 0 0 0 0
708000000 0.865244507 0.283685207 1.0083e-05 0.001056964 0 0 0 0
716000000 0.888387203 0.013225818 8.2272e-05 0.001277277 0 0 0 0
724000000 0.826437771 -0.263872116 6.9003e-05 0.001501143 0 0 0 0
732000000 0.680045366 -0.510636389 0.000346783 0.001648217 0 0 0 0
740000000 0.440245509 -0.701140999 0.000733934 0.001755831 0 0 0 0
748000000 0.137316733 -0.792592704 0.001311168 0.001218831 0 0 0 0
756000000 -0.19571346 -0.744516909 0.001218422 0.001082125 0 0 0 0
764000000 -0.489280819 -0.538683354 0.00163507 0.000656245 0 0 0 0
772000000 -0.644978046 -0.184029713 0.001639398 7.4336e-05 0 0 0 0
780000000 -0.567502319 0.229402005 0.001366725 -0.000651556 0 0 0 0
788000000 -0.2119717 0.516958773 0.000387077 -0.001726538 0 0 0 0
796000000 0.258859217 0.480141133 -0.001407003 -0.002144814 0 0 0 0
804000000 0.555514276 0.125207781 -0.003828517 -0.000246113 0 0 0 0
812000000 0.51086986 -0.309631884 -0.003578311 0.003204128 0 0 0 0
820000000 0.222124218 -0.568313002 -0.000620963 0.005349818 0 0 0 0
828000000 -0.137251704 -0.609277963 0.002303157 0.00524012 0 0 0 0
836000000 -0.430122762 -0.469344258 0.004865483 0.004083463 0 0 0 0
844000000 -0.615854859 -0.232650548 0.00731488 0.001584452 0 0 0 0
852000000 -0.676542103 0.030965179 0.009085634 -0.001663873 0 0 0 0
860000000 -0.632487773 0.273933112 0.009608273 -0.005849963 0 0 0 0
868000000 -0.494962394 0.451872646 0.008929668 -0.011969687 0 0 0 0
876000000 -0.293290585 0.535774111 0.004114745 -0.018902713 0 0 0 0
884000000 -0.107803001 0.511257708 -0.007308223 -0.023435801 0 0 0 0
892000000 0.026307746 0.393597126 -0.024448037 -0.018559087 0 0 0 0
900000000 0.238701805 0.233160823 -0.038260038 0.004929972 0 0 0 0
908000000 0.196852356 0.165429577 -0.027919089 0.035643983 0 0 0 0
916000000 0.167493581 0.146423608 0.007152774 0.049390766 0 0 0 0
924000000 0.132335811 0.133360236 0.041969195 0.029111009 0 0 0 0
932000000 0.101631037 0.166818752 0.046906288 -0.011406771 0 0 0 0
940000000 0.14679709 0.291225016 0.020924028 -0.034797094 0 0 0 0
948000000 0.350630074 0.320644646 -0.004035243 -0.031351964 0 0 0 0
956000000 0.505914688 0.166795849 -0.015299737 -0.018336493 0 0 0 0
964000000 0.562869012 -0.05977042 -0.017587337 -0.00610601 0 0 0 0
972000000 0.475908219 -0.298564761 -0.014847473 0.002603746 0 0 0 0
980000000 0.261307179 -0.483783185 -0.009423423 0.006585828 0 0 0 0
988000000 0.008276898 -0.538904845 -0.005215866 0.008154308 0 0 0 0
996000000 -0.268713474 -0.486468404 -0.00146639 0.007232181 0 0 0 0
1004000000 -0.495333433 -0.339082628 -0.000317676 0.006117814 0 0 0 0
