# Hz S RI R 50
700000000 0.761316955 0.527065455 2.3793e-05 0.000617624 0 0 0 0
708000000 0.86567527 0.281382948 -5.6707e-05 0.000869357 0 0 0 0
716000000 0.885792791 0.012615274 -2.042e-05 0.001338953 0 0 0 0
724000000 0.833592355 -0.257353246 0.000183561 0.001376384 0 0 0 0
732000000 0.679187357 -0.514695405 0.000544678 0.001489203 0 0 0 0
740000000 0.440739393 -0.70154488 0.000770386 0.0016949 0 0 0 0
748000000 0.136660054 -0.791709005 0.001235503 0.001379135 0 0 0 0
756000000 -0.197016626 -0.74546647 0.001379548 0.001262481 0 0 0 0
764000000 -0.489554852 -0.539196193 0.001661703 0.000819776 0 0 0 0
772000000 -0.6475811 -0.18457067 0.001729819 0.000437545 0 0 0 0
780000000 -0.56594783 0.230223253 0.001505549 -0.000614195 0 0 0 0
788000000 -0.209596037 0.51890999 0.000693556 -0.001689395 0 0 0 0
796000000 0.26555711 0.48307234 -0.00158183 -0.002416479 0 0 0 0
804000000 0.560207009 0.120498925 -0.004130053 -0.000546976 0 0 0 0
812000000 0.512800693 -0.315398544 -0.004018381 0.003487505 0 0 0 0
820000000 0.223172292 -0.575179994 -0.001049359 0.005448691 0 0 0 0
828000000 -0.142450138 -0.612040281 0.002344274 0.005606278 0 0 0 0
836000000 -0.433858513 -0.474027544 0.0049627 0.004293363 0 0 0 0
844000000 -0.617335021 -0.235963791 0.007638303 0.001682276 0 0 0 0
852000000 -0.68120855 0.034382395 0.009384271 -0.001504202 0 0 0 0
860000000 -0.636545836 0.279288619 0.010338274 -0.006141388 0 0 0 0
868000000 -0.499032199 0.455314964 0.009413694 -0.012650527 0 0 0 0
876000000 -0.299395263 0.544269502 0.004103092 -0.019860988 0 0 0 0
884000000 -0.106104649 0.523633718 -0.008224119 -0.024258229 0 0 0 0
892000000 0.035308472 0.425222814 -0.026985473 -0.019071254 0 0 0 0
900000000 0.261567741 0.229925021 -0.040239278 0.006749394 0 0 0 0
908000000 0.220819801 0.137316346 -0.027509216 0.038844998 0 0 0 0
916000000 0.168452471 0.122405983 0.009675425 0.050518129 0 0 0 0
924000000 0.122840195 0.118039689 0.043523512 0.027551213 0 0 0 0
932000000 0.082904092 0.170338556 0.046745963 -0.013134685 0 0 0 0
940000000 0.138614669 0.2987383 0.020116887 -0.034859005 0 0 0 0
948000000 0.339618533 0.327501028 -0.004976181 -0.030696472 0 0 0 0
956000000 0.507505297 0.177730232 -0.01486515 -0.018807698 0 0 0 0
964000000 0.566054344 -0.05399651 -0.018030986 -0.006245278 0 0 0 0
972000000 0.479538559 -0.29311189 -0.014803548 0.002280832 0 0 0 0
980000000 0.286202967 -0.481436759 -0.009553963 0.007492032 0 0 0 0
988000000 0.009811748 -0.535546898 -0.004909542 0.008921123 0 0 0 0
996000000 -0.268110811 -0.488197952 -0.001596398 0.006851058 0 0 0 0
1004000000 -0.489006012 -0.347796887 0.000501007 0.006005032 0 0 0 0
