# Hz S RI R 50
700000000 0.767074644 0.528640151 -7.1822e-05 0.000654187 0 0 0 0
708000000 0.862321376 0.28561908 -6.8081e-05 0.000961483 0 0 0 0
716000000 0.890525281 0.013092056 -5.3487e-05 0.001159923 0 0 0 0
724000000 0.827984094 -0.256875157 0.000240165 0.001603845 0 0 0 0
732000000 0.680530071 -0.508385181 0.00045477 0.001661033 0 0 0 0
740000000 0.443169862 -0.700481534 0.00080388 0.001605622 0 0 0 0
748000000 0.140595853 -0.792226731 0.001165551 0.001245643 0 0 0 0
756000000 -0.193159088 -0.745962142 0.001326042 0.001073383 0 0 0 0
764000000 -0.489824086 -0.54329127 0.001436859 0.000520448 0 0 0 0
772000000 -0.649533808 -0.189830183 0.00151909 0.000200947 0 0 0 0
780000000 -0.572937965 0.227355822 0.001482079 -0.000545381 0 0 0 0
788000000 -0.222168222 0.519713342 0.000573068 -0.001658834 0 0 0 0
796000000 0.254613429 0.493106722 -0.001440273 -0.002091146 0 0 0 0
804000000 0.56223303 0.139569208 -0.00369546 -0.000219813 0 0 0 0
812000000 0.524236261 -0.300611674 -0.003435056 0.003379473 0 0 0 0
820000000 0.237584382 -0.57350099 -0.000705429 0.005288442 0 0 0 0
828000000 -0.128053992 -0.621473789 0.002364626 0.005315812 0 0 0 0
836000000 -0.427274942 -0.48465678 0.004815155 0.003962433 0 0 0 0
844000000 -0.617878675 -0.246449559 0.007405632 0.001448639 0 0 0 0
852000000 -0.686612665 0.019462082 0.009055514 -0.001668562 0 0 0 0
860000000 -0.650351941 0.269645482 0.009882868 -0.005975589 0 0 0 0
868000000 -0.51227355 0.458697557 0.009065602 -0.012458144 0 0 0 0
876000000 -0.313257932 0.556001663 0.003857933 -0.019042255 0 0 0 0
884000000 -0.109242923 0.5443964 -0.007677862 -0.023550633 0 0 0 0
892000000 0.019259572 0.438380539 -0.031917821 -0.003104052 0 0 0 0
900000000 0.277245789 0.242928236 -0.039759695 0.005441042 0 0 0 0
908000000 0.237111508 0.146279484 -0.028090115 0.03770731 0 0 0 0
916000000 0.176868796 0.116695821 0.008920117 0.050603602 0 0 0 0
924000000 0.141565576 0.104409359 0.043352983 0.028083905 0 0 0 0
932000000 0.077891446 0.143006131 0.047768034 -0.012879658 0 0 0 0
940000000 0.10845147 0.277696162 0.020160691 -0.03578677 0 0 0 0
948000000 0.317680954 0.333946257 -0.005288832 -0.031056031 0 0 0 0
956000000 0.483239322 0.183602839 -0.015686525 -0.018234834 0 0 0 0
964000000 0.562373995 -0.041696596 -0.018291281 -0.00539573 0 0 0 0
972000000 0.48994714 -0.285127073 -0.015368438 0.003243634 0 0 0 0
980000000 0.282747149 -0.47466433 -0.009020057 0.007884175 0 0 0 0
988000000 0.020261472 -0.543732345 -0.004086554 0.00849679 0 0 0 0
996000000 -0.257231384 -0.498278856 -0.001253375 0.00757588 0 0 0 0
1004000000 -0.502413809 -0.356495529 0.000594492 0.005482473 0 0 0 0
