# Hz S RI R 50
700000000 0.764968276 0.527027845 3.746e-05 0.000512539 0 0 0 0
708000000 0.863491714 0.286063671 3.9232e-05 0.001052017 0 0 0 0
716000000 0.889805972 0.010032162 0.000102263 0.001179052 0 0 0 0
724000000 0.828233778 -0.259856015 9.36e-05 0.001508763 0 0 0 0
732000000 0.681069314 -0.510076642 0.000362635 0.001659989 0 0 0 0
740000000 0.444440722 -0.699693799 0.000872499 0.001533936 0 0 0 0
748000000 0.137402668 -0.79184091 0.0010372 0.001365414 0 0 0 0
756000000 -0.19785197 -0.746082127 0.001415023 0.001116342 0 0 0 0
764000000 -0.490050226 -0.539592802 0.001495897 0.000970424 0 0 0 0
772000000 -0.648881793 -0.185006543 0.001672038 0.000430095 0 0 0 0
780000000 -0.564700424 0.232973337 0.001894812 -0.000670355 0 0 0 0
788000000 -0.212377071 0.52156341 0.000884874 -0.001794888 0 0 0 0
796000000 0.261897176 0.482817471 -0.001501285 -0.002531911 0 0 0 0
804000000 0.558468878 0.126733958 -0.004053404 -0.000556722 0 0 0 0
812000000 0.514150798 -0.310981959 -0.00402369 0.003040547 0 0 0 0
820000000 0.223833248 -0.572737216 -0.000999705 0.005274426 0 0 0 0
828000000 -0.134814321 -0.612787604 0.001818462 0.005536323 0 0 0 0
836000000 -0.434663802 -0.47110328 0.0045665 0.004430042 0 0 0 0
844000000 -0.61913383 -0.236523002 0.007215939 0.002304533 0 0 0 0
852000000 -0.683108925 0.028209874 0.009134565 -0.001170528 0 0 0 0
860000000 -0.638094782 0.272143036 0.010513302 -0.005222094 0 0 0 0
868000000 -0.499341726 0.455349117 0.009983013 -0.011858159 0 0 0 0
876000000 -0.302396148 0.544804275 0.005225528 -0.019490329 0 0 0 0
884000000 -0.105060756 0.529124498 -0.006832275 -0.02491142 0 0 0 0
892000000 -0.05741021 0.462532699 -0.029898326 -0.021621624 0 0 0 0
900000000 0.25557354 0.234264135 -0.039905648 0.005613391 0 0 0 0
908000000 0.220072701 0.150275856 -0.029069487 0.037200257 0 0 0 0
916000000 0.179009839 0.111294738 0.006631567 0.050587844 0 0 0 0
924000000 0.131416648 0.108096651 0.04175648 0.030197961 0 0 0 0
932000000 0.063924349 0.160831257 0.046871084 -0.009484448 0 0 0 0
940000000 0.126603424 0.299179255 0.022300105 -0.032821167 0 0 0 0
948000000 0.341325789 0.331977576 -0.001394451 -0.030762128 0 0 0 0
956000000 0.498904287 0.178382053 -0.012819034 -0.020624246 0 0 0 0
964000000 0.564048647 -0.048879664 -0.017352599 -0.007928487 0 0 0 0
972000000 0.482212126 -0.30050528 -0.016060899 0.001406774 0 0 0 0
980000000 0.277466297 -0.481927007 -0.01089309 0.006680365 0 0 0 0
988000000 0.005700282 -0.548160672 -0.006166072 0.008422469 0 0 0 0
996000000 -0.264156281 -0.497879892 -0.001744267 0.008226304 0 0 0 0
1004000000 -0.490429937 -0.345274567 -0.00061401 0.007035587 0 0 0 0
