# Hz S RI R 50
700000000 0.763642847 0.526510834 6.4628e-05 0.000569517 0 0 0 0
708000000 0.86323142 0.284743696 -0.000179377 0.0008869 0 0 0 0
716000000 0.891898989 0.01573137 0.00022317 0.001245529 0 0 0 0
724000000 0.829012036 -0.25534296 0.000209206 0.001612793 0 0 0 0
732000000 0.681391716 -0.512220442 0.000483869 0.001698399 0 0 0 0
740000000 0.442264646 -0.699065089 0.000742769 0.001704392 0 0 0 0
748000000 0.135602116 -0.793293237 0.001036024 0.001449431 0 0 0 0
756000000 -0.19713664 -0.745348811 0.001329934 0.001209892 0 0 0 0
764000000 -0.489479839 -0.542858123 0.001499006 0.000741492 0 0 0 0
772000000 -0.650380909 -0.181924492 0.001930097 0.000387045 0 0 0 0
780000000 -0.57006973 0.23319374 0.001833935 -0.000562345 0 0 0 0
788000000 -0.211710795 0.52524811 0.001047019 -0.002087577 0 0 0 0
796000000 0.263497471 0.484666585 -0.001397373 -0.002492344 0 0 0 0
804000000 0.564764618 0.128086328 -0.003955489 -0.000801195 0 0 0 0
812000000 0.518259048 -0.307872414 -0.004116103 0.003144911 0 0 0 0
820000000 0.228198885 -0.575942754 -0.001160527 0.005509664 0 0 0 0
828000000 -0.137258604 -0.616255998 0.002063587 0.00577434 0 0 0 0
836000000 -0.435553252 -0.478475391 0.004698734 0.004486054 0 0 0 0
844000000 -0.619870841 -0.242498904 0.007481689 0.002171553 0 0 0 0
852000000 -0.689656317 0.02264112 0.009438427 -0.001020604 0 0 0 0
860000000 -0.644332885 0.275125563 0.010807924 -0.005581941 0 0 0 0
868000000 -0.51035422 0.461296528 0.010099674 -0.012209619 0 0 0 0
876000000 -0.308916002 0.552907288 0.005179122 -0.019929878 0 0 0 0
884000000 -0.105488263 0.541981816 -0.007321673 -0.02527444 0 0 0 0
892000000 0.076271414 0.438109517 -0.025398127 -0.01475793 0 0 0 0
900000000 0.289756685 0.238548204 -0.042176663 0.006254688 0 0 0 0
908000000 0.2350526 0.133100777 -0.029539933 0.038544856 0 0 0 0
916000000 0.170682281 0.091024592 0.008294681 0.051470465 0 0 0 0
924000000 0.105789028 0.10908547 0.04305363 0.028791224 0 0 0 0
932000000 0.054300043 0.169770792 0.047253753 -0.011523948 0 0 0 0
940000000 0.119411945 0.299813508 0.021815629 -0.034097906 0 0 0 0
948000000 0.329586148 0.351077646 -0.002619676 -0.031289223 0 0 0 0
956000000 0.502420783 0.188452675 -0.014148438 -0.020000342 0 0 0 0
964000000 0.564006447 -0.046657856 -0.018127545 -0.007368727 0 0 0 0
972000000 0.485144913 -0.29110974 -0.015694592 0.001854473 0 0 0 0
980000000 0.283233851 -0.482683211 -0.01048579 0.007421736 0 0 0 0
988000000 0.017188418 -0.535207271 -0.005601913 0.00898342 0 0 0 0
996000000 -0.258798182 -0.502742111 -0.001409877 0.007527617 0 0 0 0
1004000000 -0.494928985 -0.350628226 -0.000347829 0.006532347 0 0 0 0
