# Hz S RI R 50
700000000 0.76523745 0.532050251 3.1309e-05 0.000626039 0 0 0 0
708000000 0.865288078 0.284441858 -5.6003e-05 0.000886789 0 0 0 0
716000000 0.891589522 0.011686868 8.3393e-05 0.001320794 0 0 0 0
724000000 0.826178729 -0.261309504 0.000223491 0.001365218 0 0 0 0
732000000 0.68223226 -0.508730351 0.0004869 0.001748739 0 0 0 0
740000000 0.444318085 -0.698918998 0.000791921 0.001441244 0 0 0 0
748000000 0.137037694 -0.792697846 0.001202462 0.001323589 0 0 0 0
756000000 -0.197100102 -0.745974183 0.001303765 0.000994977 0 0 0 0
764000000 -0.490534991 -0.540620386 0.001552798 0.001059456 0 0 0 0
772000000 -0.648006737 -0.182698324 0.001875663 0.000472953 0 0 0 0
780000000 -0.568753361 0.229966342 0.001830871 -0.000529382 0 0 0 0
788000000 -0.211123645 0.520972788 0.000885853 -0.002090012 0 0 0 0
796000000 0.26628533 0.487055808 -0.001364482 -0.002774232 0 0 0 0
804000000 0.562582969 0.126054301 -0.004332273 -0.000851081 0 0 0 0
812000000 0.518814384 -0.309763669 -0.00452722 0.003219653 0 0 0 0
820000000 0.228979974 -0.575442433 -0.001413456 0.005712657 0 0 0 0
828000000 -0.13731043 -0.620664417 0.001802151 0.006030975 0 0 0 0
836000000 -0.433668017 -0.478098154 0.005096343 0.004839024 0 0 0 0
844000000 -0.623674631 -0.239226326 0.007814919 0.002357457 0 0 0 0
852000000 -0.69075644 0.025314876 0.010069389 -0.001100784 0 0 0 0
860000000 -0.644756793 0.27646315 0.011375278 -0.006133682 0 0 0 0
868000000 -0.510451138 0.46535331 0.010299112 -0.01291812 0 0 0 0
876000000 -0.307719886 0.56046313 0.004927708 -0.020816909 0 0 0 0
884000000 -0.099044375 0.547267019 -0.008391927 -0.02606761 0 0 0 0
892000000 -0.285123884 0.289844095 -0.024306496 0.003820358 0 0 0 0
900000000 0.298544853 0.225998818 -0.042888484 0.008272781 0 0 0 0
908000000 0.235304817 0.128661289 -0.028175128 0.041020318 0 0 0 0
916000000 0.166500538 0.090901285 0.010858082 0.052057966 0 0 0 0
924000000 0.104834258 0.097962684 0.044981285 0.027394643 0 0 0 0
932000000 0.060141347 0.166601061 0.047156248 -0.01271416 0 0 0 0
940000000 0.113607965 0.299671977 0.020346255 -0.034529339 0 0 0 0
948000000 0.329824477 0.336655765 -0.003145875 -0.03057686 0 0 0 0
956000000 0.487782716 0.196251526 -0.015181507 -0.019855922 0 0 0 0
964000000 0.565313994 -0.04170078 -0.018439728 -0.007645441 0 0 0 0
972000000 0.485734105 -0.288072407 -0.01561332 0.002311203 0 0 0 0
980000000 0.295969247 -0.475002706 -0.009832096 0.007681247 0 0 0 0
988000000 0.01248302 -0.545112907 -0.005212847 0.009445675 0 0 0 0
996000000 -0.262784987 -0.491234928 -0.00157428 0.008547828 0 0 0 0
1004000000 -0.493170499 -0.34106779 0.000133202 0.005931326 0 0 0 0
