# Hz S RI R 50
700000000 0.766976714 0.529751062 -6.68e-07 0.000660607 0 0 0 0
708000000 0.864003717 0.286262452 -2.1974e-05 0.00100293 0 0 0 0
716000000 0.890903472 0.01227728 -0.000127757 0.001216413 0 0 0 0
724000000 0.829041182 -0.260266929 0.000212157 0.001357364 0 0 0 0
732000000 0.681135952 -0.508403658 0.000345209 0.001463661 0 0 0 0
740000000 0.443255603 -0.69934386 0.000801811 0.001592438 0 0 0 0
748000000 0.138019949 -0.790715754 0.001162249 0.001426138 0 0 0 0
756000000 -0.195823937 -0.744236946 0.001370841 0.001060777 0 0 0 0
764000000 -0.488884001 -0.539760589 0.001545357 0.000711128 0 0 0 0
772000000 -0.650743782 -0.18659541 0.001656502 0.000313822 0 0 0 0
780000000 -0.567316234 0.23237963 0.001802476 -0.000749085 0 0 0 0
788000000 -0.211488083 0.524042844 0.000974551 -0.002042576 0 0 0 0
796000000 0.262013316 0.485302418 -0.001281454 -0.002569697 0 0 0 0
804000000 0.561999142 0.129183068 -0.00421821 -0.000479812 0 0 0 0
812000000 0.521692335 -0.309291988 -0.004277272 0.003208732 0 0 0 0
820000000 0.229027763 -0.577065467 -0.00091225 0.005659779 0 0 0 0
828000000 -0.137804418 -0.617164492 0.002214067 0.005617669 0 0 0 0
836000000 -0.432857364 -0.477695405 0.005180903 0.004526815 0 0 0 0
844000000 -0.61872518 -0.243092447 0.007758788 0.002038751 0 0 0 0
852000000 -0.687003254 0.025568436 0.009514556 -0.001505516 0 0 0 0
860000000 -0.645556628 0.27363947 0.010663848 -0.006148692 0 0 0 0
868000000 -0.511173248 0.460356473 0.009639548 -0.01264586 0 0 0 0
876000000 -0.309306502 0.556904673 0.004376793 -0.020088355 0 0 0 0
884000000 -0.101875826 0.544237732 -0.008410134 -0.024901492 0 0 0 0
892000000 0.055772073 0.502737522 -0.04589099 -0.008253468 0 0 0 0
900000000 0.286909669 0.232562467 -0.040550291 0.007461092 0 0 0 0
908000000 0.241106554 0.135444909 -0.027691554 0.039901949 0 0 0 0
916000000 0.175823807 0.101293444 0.010321056 0.051464583 0 0 0 0
924000000 0.118652433 0.097401686 0.044592253 0.028085177 0 0 0 0
932000000 0.062363211 0.166797161 0.047434441 -0.013226804 0 0 0 0
940000000 0.111170209 0.291946679 0.020561743 -0.035539139 0 0 0 0
948000000 0.329101204 0.342298567 -0.004455312 -0.031830593 0 0 0 0
956000000 0.504247605 0.187721073 -0.016135137 -0.019421588 0 0 0 0
964000000 0.561698317 -0.045753348 -0.018908619 -0.006642811 0 0 0 0
972000000 0.486391305 -0.28540647 -0.015902493 0.003474143 0 0 0 0
980000000 0.282688021 -0.480471819 -0.00980578 0.008373758 0 0 0 0
988000000 0.021837677 -0.54453653 -0.004448396 0.009149972 0 0 0 0
996000000 -0.280453115 -0.494398891 -0.000453003 0.007211251 0 0 0 0
1004000000 -0.490106403 -0.347405791 0.000513035 0.006401421 0 0 0 0
