# Hz S RI R 50
700000000 0.76084125 0.530740082 -6.1124e-05 0.000636313 0 0 0 0
708000000 0.864005684 0.286048144 -2.2694e-05 0.000934271 0 0 0 0
716000000 0.890451431 0.014363901 -8.2536e-05 0.001300406 0 0 0 0
724000000 0.831784784 -0.257952004 0.000191545 0.001407471 0 0 0 0
732000000 0.681990385 -0.512585878 0.000565282 0.001450503 0 0 0 0
740000000 0.443913787 -0.70003736 0.000792252 0.001550056 0 0 0 0
748000000 0.13799034 -0.790569722 0.00120684 0.001417933 0 0 0 0
756000000 -0.196462154 -0.748307466 0.001246735 0.000958248 0 0 0 0
764000000 -0.491593003 -0.540095984 0.001436124 0.000980327 0 0 0 0
772000000 -0.646506607 -0.184460178 0.001781735 0.000437782 0 0 0 0
780000000 -0.565674304 0.231487214 0.00166155 -0.000838985 0 0 0 0
788000000 -0.209400355 0.524715185 0.000656546 -0.002030489 0 0 0 0
796000000 0.262164205 0.484632551 -0.001665369 -0.002415265 0 0 0 0
804000000 0.562803566 0.123177789 -0.004230588 -0.00048193 0 0 0 0
812000000 0.517188847 -0.312247067 -0.004083998 0.003363138 0 0 0 0
820000000 0.225525557 -0.579956889 -0.000892388 0.005595438 0 0 0 0
828000000 -0.140937149 -0.615950763 0.002441291 0.005618233 0 0 0 0
836000000 -0.438759207 -0.479243844 0.005081688 0.004446827 0 0 0 0
844000000 -0.622813224 -0.24176076 0.007772039 0.001837065 0 0 0 0
852000000 -0.684902071 0.025382569 0.009617431 -0.001456703 0 0 0 0
860000000 -0.645994305 0.273266375 0.010730781 -0.006190141 0 0 0 0
868000000 -0.507863581 0.464812517 0.009714328 -0.012934161 0 0 0 0
876000000 -0.306825488 0.556358516 0.004153938 -0.02026415 0 0 0 0
884000000 -0.102315597 0.541951358 -0.008817381 -0.025053024 0 0 0 0
892000000 -0.109211184 0.341878771 -0.04624512 0.004485142 0 0 0 0
900000000 0.289219677 0.232503697 -0.040651481 0.007695449 0 0 0 0
908000000 0.236568719 0.128195196 -0.027664227 0.039546884 0 0 0 0
916000000 0.168819963 0.095522813 0.011496376 0.051538098 0 0 0 0
924000000 0.104831837 0.093671716 0.044918313 0.026424258 0 0 0 0
932000000 0.058358512 0.17112419 0.0466015 -0.013883048 0 0 0 0
940000000 0.11375375 0.306888282 0.018917221 -0.035555321 0 0 0 0
948000000 0.336738169 0.342139273 -0.004085138 -0.030813006 0 0 0 0
956000000 0.515937685 0.192001491 -0.015676151 -0.018982518 0 0 0 0
964000000 0.562695086 -0.03949308 -0.018234925 -0.006471371 0 0 0 0
972000000 0.486879795 -0.286973923 -0.016165258 0.002488759 0 0 0 0
980000000 0.278630077 -0.47638911 -0.010737606 0.007576693 0 0 0 0
988000000 0.007229989 -0.545737028 -0.004680044 0.009023809 0 0 0 0
996000000 -0.260699689 -0.492977023 -0.00074246 0.007842407 0 0 0 0
1004000000 -0.497073471 -0.349201411 0.000191362 0.006098592 0 0 0 0
