# Hz S RI R 50
700000000 0.768597483 0.528932631 -2.4682e-05 0.00058726 0 0 0 0
708000000 0.865768671 0.28453508 -3.8779e-05 0.000836561 0 0 0 0
716000000 0.888189017 0.01442705 -4.1379e-05 0.001296603 0 0 0 0
724000000 0.829590916 -0.264161199 7.6879e-05 0.001516542 0 0 0 0
732000000 0.681575953 -0.511319696 0.000314852 0.001704617 0 0 0 0
740000000 0.441886603 -0.699420511 0.000745678 0.001717775 0 0 0 0
748000000 0.137390211 -0.793030083 0.001097835 0.001253736 0 0 0 0
756000000 -0.196970403 -0.746024966 0.001208219 0.000973948 0 0 0 0
764000000 -0.489279717 -0.541392803 0.00152455 0.000759437 0 0 0 0
772000000 -0.649706661 -0.185570731 0.001687174 0.000359821 0 0 0 0
780000000 -0.567673206 0.231390446 0.00185794 -0.000759251 0 0 0 0
788000000 -0.213961839 0.523691058 0.000731955 -0.0019462 0 0 0 0
796000000 0.26359409 0.486253112 -0.001383385 -0.002412899 0 0 0 0
804000000 0.564589679 0.131412014 -0.004209898 -0.000865152 0 0 0 0
812000000 0.518981337 -0.312530517 -0.004304977 0.003213493 0 0 0 0
820000000 0.228136226 -0.57942903 -0.001263223 0.005620378 0 0 0 0
828000000 -0.137288928 -0.618513047 0.002087154 0.006087134 0 0 0 0
836000000 -0.438309609 -0.479540646 0.005319938 0.004571725 0 0 0 0
844000000 -0.625797092 -0.243256598 0.008205126 0.001994377 0 0 0 0
852000000 -0.689161777 0.026129527 0.010173885 -0.001679031 0 0 0 0
860000000 -0.648972988 0.277801215 0.011092274 -0.006431712 0 0 0 0
868000000 -0.509349703 0.464595317 0.009618674 -0.01322039 0 0 0 0
876000000 -0.310539484 0.557625949 0.003901826 -0.02073097 0 0 0 0
884000000 -0.103563107 0.546615421 -0.009062401 -0.025108538 0 0 0 0
892000000 0.067906305 0.415063649 -0.035452857 -0.017388299 0 0 0 0
900000000 0.294241249 0.236485734 -0.041480228 0.00812747 0 0 0 0
908000000 0.247896954 0.126485258 -0.027301721 0.040355507 0 0 0 0
916000000 0.170861542 0.08482103 0.011799253 0.051117449 0 0 0 0
924000000 0.101400978 0.090980254 0.044954683 0.026391174 0 0 0 0
932000000 0.056906558 0.168504834 0.046602934 -0.014006873 0 0 0 0
940000000 0.111302621 0.308911532 0.019056953 -0.035231046 0 0 0 0
948000000 0.336167752 0.337009131 -0.004761505 -0.03010003 0 0 0 0
956000000 0.503755927 0.195445999 -0.015530169 -0.018946891 0 0 0 0
964000000 0.571662127 -0.034014873 -0.018382627 -0.006948762 0 0 0 0
972000000 0.49418047 -0.279557257 -0.016143662 0.00307419 0 0 0 0
980000000 0.289324462 -0.45529446 -0.009807806 0.008228201 0 0 0 0
988000000 0.018296586 -0.534441351 -0.004521075 0.009344564 0 0 0 0
996000000 -0.26010695 -0.48725894 -0.000598211 0.007462377 0 0 0 0
1004000000 -0.492044329 -0.341883391 0.001277339 0.006857672 0 0 0 0
