# Hz S RI R 50
700000000 0.765910863 0.527064025 -6.4771e-05 0.000618749 0 0 0 0
708000000 0.864096224 0.286425888 -0.000239144 0.000916434 0 0 0 0
716000000 0.892466306 0.011344296 0.000190279 0.001216217 0 0 0 0
724000000 0.833405852 -0.26077643 0.000463374 0.001588827 0 0 0 0
732000000 0.681754291 -0.50970292 0.000416244 0.001691202 0 0 0 0
740000000 0.445185363 -0.701756298 0.000738442 0.001535503 0 0 0 0
748000000 0.137985706 -0.794029951 0.001302321 0.001243367 0 0 0 0
756000000 -0.197183504 -0.746096909 0.001401462 0.001054335 0 0 0 0
764000000 -0.49093914 -0.542244434 0.001326138 0.000527559 0 0 0 0
772000000 -0.646872878 -0.18436478 0.001721678 0.000185957 0 0 0 0
780000000 -0.569116353 0.233779773 0.001746485 -0.000700674 0 0 0 0
788000000 -0.213910803 0.524159967 0.000881655 -0.001793868 0 0 0 0
796000000 0.264302492 0.487902432 -0.001528123 -0.002321421 0 0 0 0
804000000 0.565631568 0.130335465 -0.004208037 -0.000310198 0 0 0 0
812000000 0.522578358 -0.311852753 -0.00397484 0.003127302 0 0 0 0
820000000 0.232720628 -0.578930139 -0.001130014 0.005376139 0 0 0 0
828000000 -0.137830659 -0.621859371 0.001932217 0.005633065 0 0 0 0
836000000 -0.436100274 -0.485921412 0.00462332 0.004469705 0 0 0 0
844000000 -0.622134745 -0.240525409 0.0074993 0.002492623 0 0 0 0
852000000 -0.694715976 0.02646989 0.009566421 -0.001080498 0 0 0 0
860000000 -0.650396943 0.2766819 0.010932242 -0.005630491 0 0 0 0
868000000 -0.512774348 0.46279332 0.010277419 -0.012640728 0 0 0 0
876000000 -0.311870515 0.564834415 0.004924778 -0.020684042 0 0 0 0
884000000 -0.099759615 0.549242734 -0.008262382 -0.025550127 0 0 0 0
892000000 0.059463124 0.423683404 -0.027496919 -0.020052241 0 0 0 0
900000000 0.289023548 0.223393619 -0.042425744 0.006845681 0 0 0 0
908000000 0.235870718 0.122763596 -0.028703285 0.040943048 0 0 0 0
916000000 0.17253232 0.087691813 0.010237644 0.052546489 0 0 0 0
924000000 0.105531387 0.093023613 0.04479542 0.028699958 0 0 0 0
932000000 0.054089467 0.16712065 0.04893662 -0.012187474 0 0 0 0
940000000 0.11921323 0.302455097 0.02252775 -0.036808125 0 0 0 0
948000000 0.329499185 0.342461109 -0.004460413 -0.034054771 0 0 0 0
956000000 0.495069444 0.194906532 -0.017173049 -0.019967161 0 0 0 0
964000000 0.565859079 -0.034582644 -0.020254923 -0.00598158 0 0 0 0
972000000 0.486916661 -0.295170247 -0.015881294 0.003808957 0 0 0 0
980000000 0.280243277 -0.475531399 -0.009544583 0.008574222 0 0 0 0
988000000 0.017286412 -0.544144511 -0.004598797 0.009739329 0 0 0 0
996000000 -0.266124755 -0.49609065 -0.000760228 0.007367383 0 0 0 0
1004000000 -0.498292505 -0.345529913 0.001403191 0.006331169 0 0 0 0
