# Hz S RI R 50
700000000 0.766024529 0.527373969 -0.00012029 0.000676295 0 0 0 0
708000000 0.866274476 0.283782094 -3.9415e-05 0.000889077 0 0 0 0
716000000 0.892208516 0.016587246 0.00013413 0.00117618 0 0 0 0
724000000 0.827842116 -0.256383806 0.000123002 0.001304555 0 0 0 0
732000000 0.683732986 -0.50941044 0.000585507 0.001508305 0 0 0 0
740000000 0.445405632 -0.699702322 0.000883237 0.001604171 0 0 0 0
748000000 0.138574689 -0.791941046 0.001137099 0.001201881 0 0 0 0
756000000 -0.196354165 -0.747199594 0.001347695 0.001187041 0 0 0 0
764000000 -0.487221479 -0.542627632 0.001431311 0.000646164 0 0 0 0
772000000 -0.646873831 -0.182853549 0.001827127 0.000239941 0 0 0 0
780000000 -0.570268988 0.23060514 0.001425586 -0.000588072 0 0 0 0
788000000 -0.214871704 0.522416174 0.000769255 -0.001918052 0 0 0 0
796000000 0.261036723 0.489241749 -0.001292417 -0.002121859 0 0 0 0
804000000 0.565011858 0.1284983 -0.003988501 -0.00039742 0 0 0 0
812000000 0.518194258 -0.306370168 -0.003638075 0.00301091 0 0 0 0
820000000 0.230657637 -0.576682567 -0.001133961 0.005361323 0 0 0 0
828000000 -0.135547369 -0.615896642 0.0021123 0.005501046 0 0 0 0
836000000 -0.432378113 -0.479983001 0.00494394 0.00418058 0 0 0 0
844000000 -0.617606818 -0.240122944 0.007514432 0.001985474 0 0 0 0
852000000 -0.686881959 0.021619655 0.009293304 -0.001577392 0 0 0 0
860000000 -0.645664334 0.275366842 0.010358902 -0.006034362 0 0 0 0
868000000 -0.504512429 0.459315031 0.009386196 -0.012483526 0 0 0 0
876000000 -0.308835119 0.555381357 0.004290551 -0.019577177 0 0 0 0
884000000 -0.106153316 0.53548038 -0.007829968 -0.024020796 0 0 0 0
892000000 0.066578082 0.386092394 -0.056959316 -0.014708645 0 0 0 0
900000000 0.272082328 0.240912184 -0.039289858 0.006668232 0 0 0 0
908000000 0.24604693 0.141775533 -0.02770356 0.037289571 0 0 0 0
916000000 0.182625174 0.096570007 0.008952733 0.0502141 0 0 0 0
924000000 0.123527847 0.094499707 0.042426127 0.027729073 0 0 0 0
932000000 0.067241974 0.160576432 0.046465933 -0.012413116 0 0 0 0
940000000 0.113099001 0.290571361 0.019714303 -0.034322045 0 0 0 0
948000000 0.333539724 0.323281794 -0.004476876 -0.030548678 0 0 0 0
956000000 0.497577965 0.187960103 -0.015140287 -0.018789429 0 0 0 0
964000000 0.558152377 -0.039918053 -0.017446804 -0.00597195 0 0 0 0
972000000 0.479798823 -0.285773664 -0.014647412 0.002820501 0 0 0 0
980000000 0.281159639 -0.481224089 -0.009533105 0.006776455 0 0 0 0
988000000 0.021930478 -0.549694955 -0.004549357 0.009362155 0 0 0 0
996000000 -0.264252722 -0.492189198 -0.001821042 0.007048702 0 0 0 0
1004000000 -0.505026519 -0.348923563 0.000434831 0.005835634 0 0 0 0
