# Hz S RI R 50
700000000 0.764678955 0.527350366 -3.522e-06 0.000665219 0 0 0 0
708000000 0.863722205 0.284799396 8.5993e-05 0.000955842 0 0 0 0
716000000 0.890259921 0.015461858 1.1788e-05 0.001149146 0 0 0 0
724000000 0.827253997 -0.255426257 0.000284346 0.001568742 0 0 0 0
732000000 0.681774079 -0.507439911 0.000376741 0.001403169 0 0 0 0
740000000 0.444469898 -0.69826585 0.000806631 0.00142451 0 0 0 0
748000000 0.138829469 -0.790279209 0.001277797 0.001399764 0 0 0 0
756000000 -0.195451512 -0.745343387 0.001508548 0.00087544 0 0 0 0
764000000 -0.489739835 -0.538051307 0.001475019 0.0006668 0 0 0 0
772000000 -0.646213948 -0.182133644 0.001551959 0.000170874 0 0 0 0
780000000 -0.567144036 0.230223417 0.00120107 -0.000481666 0 0 0 0
788000000 -0.213633731 0.519741714 0.000471757 -0.001374539 0 0 0 0
796000000 0.262051582 0.485141783 -0.001127536 -0.001844956 0 0 0 0
804000000 0.559824168 0.12776713 -0.003042369 -0.000550465 0 0 0 0
812000000 0.517001032 -0.304914534 -0.003110434 0.00217361 0 0 0 0
820000000 0.229852125 -0.573028266 -0.000950582 0.004035785 0 0 0 0
828000000 -0.134089097 -0.615627825 0.001025693 0.004230666 0 0 0 0
836000000 -0.430846363 -0.477757394 0.003098389 0.003718115 0 0 0 0
844000000 -0.621669054 -0.24041067 0.005685784 0.002473916 0 0 0 0
852000000 -0.685322701 0.023740688 0.007766149 0.000363678 0 0 0 0
860000000 -0.640746891 0.274288088 0.009609937 -0.003034317 0 0 0 0
868000000 -0.501497328 0.455303132 0.010428393 -0.008797117 0 0 0 0
876000000 -0.30257973 0.54461503 0.007737646 -0.016380934 0 0 0 0
884000000 -0.10295993 0.528485178 -0.001917236 -0.023386172 0 0 0 0
892000000 -0.048510432 0.554939925 0.012114069 0.029760982 0 0 0 0
900000000 0.250842869 0.241326719 -0.037489563 -0.004254284 0 0 0 0
908000000 0.228871211 0.164767369 -0.034984342 0.027712831 0 0 0 0
916000000 0.189228072 0.125239133 -0.004410743 0.049023833 0 0 0 0
924000000 0.138867974 0.10336931 0.033643681 0.036921188 0 0 0 0
932000000 0.071556575 0.15570119 0.047273859 -0.001157032 0 0 0 0
940000000 0.120719172 0.298619359 0.026338474 -0.027526926 0 0 0 0
948000000 0.323433637 0.336594045 0.003265297 -0.029633846 0 0 0 0
956000000 0.492181748 0.184062674 -0.009478135 -0.020919678 0 0 0 0
964000000 0.55497545 -0.048843771 -0.014402224 -0.009806349 0 0 0 0
972000000 0.48480454 -0.292706221 -0.01454489 -0.001249799 0 0 0 0
980000000 0.278252631 -0.475177139 -0.0109294 0.003900408 0 0 0 0
988000000 0.017906682 -0.540637731 -0.006962995 0.006392029 0 0 0 0
996000000 -0.250201463 -0.491131186 -0.004200382 0.006181728 0 0 0 0
1004000000 -0.486837178 -0.34175828 -0.002093586 0.006502497 0 0 0 0
