# Hz S RI R 50
700000000 0.764760851 0.531655192 7.7688e-05 0.000581645 0 0 0 0
708000000 0.863507032 0.286990433 -0.000106331 0.000921647 0 0 0 0
716000000 0.890747249 0.016895201 7.7562e-05 0.001241924 0 0 0 0
724000000 0.830441713 -0.262195736 0.000287233 0.001348699 0 0 0 0
732000000 0.683246493 -0.507707595 0.000528546 0.00154077 0 0 0 0
740000000 0.445144593 -0.700579643 0.000792641 0.001468784 0 0 0 0
748000000 0.139903694 -0.792915344 0.001085132 0.001317332 0 0 0 0
756000000 -0.195357725 -0.74716705 0.001278824 0.0010397 0 0 0 0
764000000 -0.488108813 -0.540651023 0.001352474 0.000777756 0 0 0 0
772000000 -0.64752376 -0.188401669 0.001604903 0.000460889 0 0 0 0
780000000 -0.571871757 0.228557944 0.001408105 -0.000308494 0 0 0 0
788000000 -0.219784051 0.526799261 0.001071394 -0.001453892 0 0 0 0
796000000 0.259099066 0.493560165 -0.000821821 -0.002156285 0 0 0 0
804000000 0.567096948 0.141611739 -0.003187284 -0.00091046 0 0 0 0
812000000 0.528408408 -0.301775395 -0.003453976 0.002004611 0 0 0 0
820000000 0.240617841 -0.57896161 -0.001408322 0.004494113 0 0 0 0
828000000 -0.127483367 -0.627476394 0.001053075 0.004700739 0 0 0 0
836000000 -0.431376785 -0.490519851 0.003091817 0.003874234 0 0 0 0
844000000 -0.625456094 -0.255356311 0.005780184 0.002668513 0 0 0 0
852000000 -0.699067056 0.009612087 0.007913487 0.000367226 0 0 0 0
860000000 -0.657558739 0.266958951 0.009411884 -0.003101972 0 0 0 0
868000000 -0.531541585 0.461807459 0.010347314 -0.008563946 0 0 0 0
876000000 -0.325013607 0.569001555 0.007964149 -0.015886791 0 0 0 0
884000000 -0.113988913 0.559913992 -0.00083458 -0.0233731 0 0 0 0
892000000 0.226223513 0.447299182 -0.012089353 -0.029126912 0 0 0 0
900000000 0.308578431 0.258068054 -0.03811777 -0.005574234 0 0 0 0
908000000 0.271768093 0.143197745 -0.037866096 0.026420744 0 0 0 0
916000000 0.208260163 0.082501962 -0.008519586 0.050356365 0 0 0 0
924000000 0.127426356 0.060833644 0.032084207 0.040865086 0 0 0 0
932000000 0.042364966 0.133663818 0.049144282 0.002613141 0 0 0 0
940000000 0.079734191 0.282797008 0.030422689 -0.028619561 0 0 0 0
948000000 0.307985216 0.352981328 0.005186144 -0.031978785 0 0 0 0
956000000 0.480476647 0.209260433 -0.00970677 -0.023928681 0 0 0 0
964000000 0.571217238 -0.02364909 -0.016382938 -0.010943057 0 0 0 0
972000000 0.497378647 -0.276480615 -0.016051646 -0.001956383 0 0 0 0
980000000 0.296848267 -0.473018109 -0.012293583 0.004948269 0 0 0 0
988000000 0.035661354 -0.544518411 -0.008000049 0.007835821 0 0 0 0
996000000 -0.248510763 -0.49215573 -0.004341542 0.007730823 0 0 0 0
1004000000 -0.493784934 -0.352108269 -0.001271515 0.007140886 0 0 0 0
