# Hz S RI R 50
700000000 0.764894664 0.532553791 6.9358e-05 0.000716735 0 0 0 0
708000000 0.864064574 0.284217655 -7.3598e-05 0.000998613 0 0 0 0
716000000 0.888931035 0.019016856 4.7743e-05 0.001211718 0 0 0 0
724000000 0.82801181 -0.256522387 0.000203661 0.001478462 0 0 0 0
732000000 0.682021617 -0.508612334 0.000467453 0.001439842 0 0 0 0
740000000 0.447595685 -0.698558866 0.000838492 0.001588308 0 0 0 0
748000000 0.140198513 -0.789035439 0.001106313 0.001482027 0 0 0 0
756000000 -0.192312732 -0.747574627 0.001365312 0.001006588 0 0 0 0
764000000 -0.490052044 -0.542758285 0.001353194 0.00080674 0 0 0 0
772000000 -0.652979195 -0.188454017 0.001392008 0.000442406 0 0 0 0
780000000 -0.576487362 0.228587448 0.001461755 -0.000294752 0 0 0 0
788000000 -0.223165169 0.527096033 0.000942248 -0.001219642 0 0 0 0
796000000 0.258926272 0.495465487 -0.000687267 -0.002111089 0 0 0 0
804000000 0.567160069 0.140755191 -0.003156456 -0.001101578 0 0 0 0
812000000 0.532024204 -0.301068723 -0.003501735 0.001798457 0 0 0 0
820000000 0.245547071 -0.578472197 -0.001636015 0.003875597 0 0 0 0
828000000 -0.122353099 -0.627666294 0.000548593 0.004580556 0 0 0 0
836000000 -0.426005691 -0.496883302 0.002983871 0.004140416 0 0 0 0
844000000 -0.62026757 -0.25947982 0.005686133 0.002899448 0 0 0 0
852000000 -0.699312031 0.009915581 0.007913921 0.000564805 0 0 0 0
860000000 -0.66513431 0.264706701 0.009916891 -0.002894032 0 0 0 0
868000000 -0.528770267 0.462378531 0.010681069 -0.008556331 0 0 0 0
876000000 -0.329541116 0.570712864 0.0085539 -0.016071399 0 0 0 0
884000000 -0.120190978 0.56504482 -0.00036589 -0.023480027 0 0 0 0
892000000 0.070999763 0.5027076 -0.019338199 -0.018968477 0 0 0 0
900000000 0.311433494 0.2634781 -0.03793589 -0.006201033 0 0 0 0
908000000 0.284777909 0.144764661 -0.038965452 0.025940479 0 0 0 0
916000000 0.20500043 0.072794362 -0.009008355 0.050880335 0 0 0 0
924000000 0.134424015 0.049646865 0.032056674 0.042519718 0 0 0 0
932000000 0.046388138 0.117451645 0.050322465 0.003855047 0 0 0 0
940000000 0.077378556 0.276801526 0.032039251 -0.028623338 0 0 0 0
948000000 0.295057028 0.354218482 0.004908017 -0.033919714 0 0 0 0
956000000 0.468803256 0.213738277 -0.010602195 -0.024187656 0 0 0 0
964000000 0.557697892 -0.01296645 -0.016999654 -0.01168847 0 0 0 0
972000000 0.490125358 -0.27056846 -0.0162875 -0.001401804 0 0 0 0
980000000 0.305038779 -0.464973598 -0.011975574 0.005412575 0 0 0 0
988000000 0.024623412 -0.544878423 -0.007578735 0.007845694 0 0 0 0
996000000 -0.252342522 -0.492857694 -0.003646647 0.007931487 0 0 0 0
1004000000 -0.49052155 -0.348787724 -0.001102107 0.007676455 0 0 0 0
