# Hz S RI R 50
700000000 0.765068054 0.533839583 -1.615e-06 0.000666612 0 0 0 0
708000000 0.867158889 0.287384629 -1.9567e-05 0.00102952 0 0 0 0
716000000 0.890665471 0.017064813 0.000183087 0.001223821 0 0 0 0
724000000 0.829624593 -0.260061264 0.000163944 0.001381189 0 0 0 0
732000000 0.682785511 -0.510148167 0.000451735 0.001592795 0 0 0 0
740000000 0.443627089 -0.699283778 0.000764224 0.001384844 0 0 0 0
748000000 0.137756854 -0.792325258 0.001034117 0.001434434 0 0 0 0
756000000 -0.196854919 -0.749412834 0.001343192 0.001195445 0 0 0 0
764000000 -0.492116004 -0.540624082 0.001348751 0.000722212 0 0 0 0
772000000 -0.649573564 -0.186217263 0.001648714 0.000256295 0 0 0 0
780000000 -0.570026516 0.230453461 0.00159767 -0.000372411 0 0 0 0
788000000 -0.215686529 0.524009823 0.000957128 -0.001782743 0 0 0 0
796000000 0.259131282 0.491789549 -0.000960604 -0.00211189 0 0 0 0
804000000 0.568587422 0.138587027 -0.003303103 -0.000934155 0 0 0 0
812000000 0.528869152 -0.305410683 -0.003594542 0.002272265 0 0 0 0
820000000 0.240298673 -0.576323747 -0.001512627 0.004688512 0 0 0 0
828000000 -0.129683196 -0.625665843 0.000979384 0.004865633 0 0 0 0
836000000 -0.431196719 -0.491118997 0.003588396 0.004110828 0 0 0 0
844000000 -0.62405157 -0.253153502 0.006037039 0.002740015 0 0 0 0
852000000 -0.69892323 0.014532322 0.008233919 0.000339032 0 0 0 0
860000000 -0.660252153 0.270890593 0.009890546 -0.003462381 0 0 0 0
868000000 -0.524839818 0.465883165 0.010344188 -0.008980074 0 0 0 0
876000000 -0.321788161 0.56979084 0.007845696 -0.016307387 0 0 0 0
884000000 -0.112867429 0.566411793 -0.001573574 -0.023462537 0 0 0 0
892000000 0.06543947 0.428833276 -0.028809912 -0.040894649 0 0 0 0
900000000 0.318640559 0.254018843 -0.039186161 -0.004713384 0 0 0 0
908000000 0.275371015 0.132938146 -0.037542913 0.027000438 0 0 0 0
916000000 0.195797473 0.066284522 -0.00660035 0.051601856 0 0 0 0
924000000 0.111191794 0.056251455 0.034318659 0.039926949 0 0 0 0
932000000 0.032094158 0.142400234 0.050164271 0.000926872 0 0 0 0
940000000 0.087247461 0.299665749 0.029270883 -0.029742948 0 0 0 0
948000000 0.313675105 0.363587647 0.003180035 -0.032163195 0 0 0 0
956000000 0.486375331 0.215171784 -0.010324343 -0.022808324 0 0 0 0
964000000 0.568601667 -0.034134812 -0.016840821 -0.011234858 0 0 0 0
972000000 0.488126426 -0.274236857 -0.016364285 -0.001422064 0 0 0 0
980000000 0.284944176 -0.475325524 -0.011733017 0.004807937 0 0 0 0
988000000 0.018986595 -0.545074343 -0.007388699 0.007080071 0 0 0 0
996000000 -0.264293044 -0.497459799 -0.004042664 0.008305503 0 0 0 0
1004000000 -0.474311113 -0.348504424 -0.002387765 0.007743657 0 0 0 0
