# Hz S RI R 50
700000000 0.766451537 0.530787765 5.7311e-05 0.000579052 0 0 0 0
708000000 0.863496363 0.285259306 1.324e-05 0.001018798 0 0 0 0
716000000 0.890642106 0.014602824 4.543e-05 0.001190322 0 0 0 0
724000000 0.831230163 -0.255365729 0.000139883 0.001329171 0 0 0 0
732000000 0.680037856 -0.508580029 0.000345783 0.001535316 0 0 0 0
740000000 0.442006349 -0.701292574 0.000683096 0.001676331 0 0 0 0
748000000 0.137707993 -0.791737139 0.001001853 0.001275765 0 0 0 0
756000000 -0.198959499 -0.746791303 0.001421713 0.001193128 0 0 0 0
764000000 -0.49060887 -0.538114845 0.001507108 0.000710439 0 0 0 0
772000000 -0.647512435 -0.180751651 0.001792147 0.000345165 0 0 0 0
780000000 -0.566687047 0.235784724 0.001723445 -0.000590418 0 0 0 0
788000000 -0.208651974 0.524665892 0.001076412 -0.001696918 0 0 0 0
796000000 0.270332247 0.489212542 -0.000974543 -0.002531904 0 0 0 0
804000000 0.567218422 0.126527383 -0.00352162 -0.001076338 0 0 0 0
812000000 0.524371266 -0.314692735 -0.003917492 0.002317045 0 0 0 0
820000000 0.230688884 -0.58246088 -0.001742919 0.00464687 0 0 0 0
828000000 -0.136759504 -0.623547673 0.001133785 0.00497876 0 0 0 0
836000000 -0.434234082 -0.487512201 0.00374285 0.00438284 0 0 0 0
844000000 -0.627556085 -0.249456733 0.006206968 0.002554493 0 0 0 0
852000000 -0.69758594 0.021694416 0.008371413 8.2012e-05 0 0 0 0
860000000 -0.655344426 0.275676548 0.010009909 -0.003666578 0 0 0 0
868000000 -0.517941534 0.466614902 0.010596211 -0.009446658 0 0 0 0
876000000 -0.314659863 0.571319878 0.007690288 -0.016990389 0 0 0 0
884000000 -0.105108931 0.558108389 -0.00209251 -0.023988708 0 0 0 0
892000000 -0.01529886 0.430152267 0.001518481 0.01885982 0 0 0 0
900000000 0.312188327 0.252269685 -0.039541583 -0.003813843 0 0 0 0
908000000 0.275123357 0.123550429 -0.03714618 0.029182143 0 0 0 0
916000000 0.187298595 0.060744192 -0.005008852 0.051554605 0 0 0 0
924000000 0.08736997 0.058310721 0.034746784 0.039721313 0 0 0 0
932000000 0.020351627 0.162407085 0.050210792 -0.000243947 0 0 0 0
940000000 0.090258516 0.320951491 0.029605597 -0.030657144 0 0 0 0
948000000 0.327019125 0.348615884 0.002992412 -0.032721374 0 0 0 0
956000000 0.494797319 0.201533108 -0.011136145 -0.022645819 0 0 0 0
964000000 0.575489759 -0.035808034 -0.016750602 -0.010174152 0 0 0 0
972000000 0.487853884 -0.279580354 -0.016168761 -0.000950093 0 0 0 0
980000000 0.277561485 -0.471466034 -0.011754361 0.004736084 0 0 0 0
988000000 0.028357516 -0.539323866 -0.007254756 0.008036518 0 0 0 0
996000000 -0.25177741 -0.488945901 -0.00362442 0.007445931 0 0 0 0
1004000000 -0.492871075 -0.349299967 -0.001398636 0.007455813 0 0 0 0
