# Hz S RI R 50
700000000 0.765180706 0.533036589 -3.4351e-05 0.000566916 0 0 0 0
708000000 0.864312469 0.28703013 -2.8071e-05 0.000986924 0 0 0 0
716000000 0.887871861 0.016870243 9.0277e-05 0.00116945 0 0 0 0
724000000 0.834212422 -0.254020124 0.00031542 0.001474386 0 0 0 0
732000000 0.683517992 -0.508991539 0.000431064 0.001605331 0 0 0 0
740000000 0.450003206 -0.70050317 0.000704174 0.001557741 0 0 0 0
748000000 0.141497716 -0.792556405 0.001009924 0.001354659 0 0 0 0
756000000 -0.194891899 -0.747242867 0.001447162 0.001177475 0 0 0 0
764000000 -0.488912045 -0.541128456 0.001446135 0.000824679 0 0 0 0
772000000 -0.64953953 -0.18638125 0.001559808 0.000370622 0 0 0 0
780000000 -0.571692168 0.229129478 0.001736424 -0.000505829 0 0 0 0
788000000 -0.22073768 0.523685812 0.000935697 -0.001787532 0 0 0 0
796000000 0.259680479 0.495378971 -0.001077043 -0.002426482 0 0 0 0
804000000 0.567604601 0.1376338 -0.003684455 -0.001133598 0 0 0 0
812000000 0.533870458 -0.302410274 -0.003875612 0.002221772 0 0 0 0
820000000 0.242863133 -0.578168809 -0.001613593 0.004656981 0 0 0 0
828000000 -0.123236127 -0.627832472 0.001247046 0.005203312 0 0 0 0
836000000 -0.431514322 -0.494661271 0.003628771 0.004592346 0 0 0 0
844000000 -0.63116616 -0.257489264 0.006437666 0.002625324 0 0 0 0
852000000 -0.699737906 0.01019752 0.00845925 -4.7796e-05 0 0 0 0
860000000 -0.664589464 0.268656045 0.010042064 -0.003593662 0 0 0 0
868000000 -0.529081106 0.463385879 0.010687774 -0.009369472 0 0 0 0
876000000 -0.326744258 0.574117362 0.007621011 -0.017191216 0 0 0 0
884000000 -0.115432091 0.568341016 -0.002180545 -0.024064065 0 0 0 0
892000000 -0.030476966 0.439743489 -0.02304068 0.029842093 0 0 0 0
900000000 0.318055421 0.265174239 -0.038977153 -0.00384321 0 0 0 0
908000000 0.2858603 0.131899699 -0.037210386 0.02933056 0 0 0 0
916000000 0.208586633 0.067076683 -0.004713402 0.051998786 0 0 0 0
924000000 0.115877225 0.054153013 0.035657234 0.039810281 0 0 0 0
932000000 0.041025158 0.130505084 0.050623442 -0.000101174 0 0 0 0
940000000 0.073807813 0.288479298 0.029439942 -0.030642893 0 0 0 0
948000000 0.308978646 0.35974279 0.002833422 -0.033239956 0 0 0 0
956000000 0.487863779 0.21844466 -0.011956332 -0.022808669 0 0 0 0
964000000 0.569272816 -0.023521121 -0.017121274 -0.010024876 0 0 0 0
972000000 0.486503928 -0.264908343 -0.016579195 -0.00094765 0 0 0 0
980000000 0.304022252 -0.47017154 -0.011981609 0.00546287 0 0 0 0
988000000 0.026125334 -0.549883961 -0.007441781 0.008339039 0 0 0 0
996000000 -0.253140389 -0.493807345 -0.004391227 0.007709197 0 0 0 0
1004000000 -0.48451054 -0.347669363 -0.000997687 0.006803843 0 0 0 0
