# Hz S RI R 50
700000000 0.76635921 0.53336215 6.6661e-05 0.000639412 0 0 0 0
708000000 0.866254568 0.287197202 0.000105935 0.00092579 0 0 0 0
716000000 0.892405748 0.013859268 0.000136421 0.001199752 0 0 0 0
724000000 0.836601912 -0.259688854 0.000325105 0.001512061 0 0 0 0
732000000 0.684426665 -0.507349669 0.000497675 0.00145011 0 0 0 0
740000000 0.445816755 -0.699658572 0.000754614 0.001747022 0 0 0 0
748000000 0.141037896 -0.793328344 0.001280025 0.001468187 0 0 0 0
756000000 -0.194048732 -0.747560977 0.001283574 0.001049974 0 0 0 0
764000000 -0.489979088 -0.540539681 0.001631925 0.000732889 0 0 0 0
772000000 -0.652038753 -0.185435816 0.001876514 0.000375994 0 0 0 0
780000000 -0.574077308 0.229209735 0.00162634 -0.00061598 0 0 0 0
788000000 -0.219246447 0.527025103 0.000962824 -0.001627066 0 0 0 0
796000000 0.261423259 0.494907796 -0.001011684 -0.002448444 0 0 0 0
804000000 0.568126738 0.140092998 -0.003621284 -0.000860886 0 0 0 0
812000000 0.528824388 -0.302737206 -0.003957273 0.002430647 0 0 0 0
820000000 0.241192251 -0.579984724 -0.001564367 0.00482229 0 0 0 0
828000000 -0.12864384 -0.630325257 0.000987321 0.005030752 0 0 0 0
836000000 -0.432978779 -0.495078831 0.003531865 0.004367835 0 0 0 0
844000000 -0.626061677 -0.255904793 0.006303308 0.002744739 0 0 0 0
852000000 -0.699327707 0.013152481 0.008505311 5.6769e-05 0 0 0 0
860000000 -0.663589596 0.271472543 0.010193923 -0.003731162 0 0 0 0
868000000 -0.527905523 0.464824795 0.010781527 -0.009713015 0 0 0 0
876000000 -0.320851832 0.573817014 0.007594278 -0.017483081 0 0 0 0
884000000 -0.111467935 0.56828463 -0.002769475 -0.024563217 0 0 0 0
892000000 0.086180947 0.483368724 -0.01644333 -0.008900818 0 0 0 0
900000000 0.309437125 0.255401909 -0.039504006 -0.002734983 0 0 0 0
908000000 0.275473803 0.123961754 -0.036407303 0.030753359 0 0 0 0
916000000 0.193298578 0.064243532 -0.003217859 0.052590776 0 0 0 0
924000000 0.109145663 0.055451948 0.036289956 0.038543898 0 0 0 0
932000000 0.037221249 0.140100583 0.05076513 -0.002036571 0 0 0 0
940000000 0.083391748 0.292571514 0.028409492 -0.031375274 0 0 0 0
948000000 0.309473067 0.353607386 0.001982903 -0.032596267 0 0 0 0
956000000 0.500449061 0.20507057 -0.012231321 -0.022212697 0 0 0 0
964000000 0.566879034 -0.028736028 -0.016856014 -0.010487968 0 0 0 0
972000000 0.491448611 -0.273190885 -0.016300937 -0.001013336 0 0 0 0
980000000 0.297859162 -0.468064516 -0.011769164 0.005374452 0 0 0 0
988000000 0.038650754 -0.547914266 -0.00679381 0.008458469 0 0 0 0
996000000 -0.252159178 -0.502521812 -0.003478047 0.007493108 0 0 0 0
1004000000 -0.486658394 -0.365111082 -0.001544311 0.006957547 0 0 0 0
