# Hz S RI R 50
700000000 0.759010791 0.531200051 -1.4727e-05 0.000631399 0 0 0 0
708000000 0.863758027 0.286593228 -3.0214e-05 0.001056314 0 0 0 0
716000000 0.8891173 0.017799563 9.7463e-05 0.001131938 0 0 0 0
724000000 0.830967366 -0.261601746 0.000335086 0.00133345 0 0 0 0
732000000 0.680101752 -0.509808003 0.000340669 0.00154644 0 0 0 0
740000000 0.446130335 -0.700155019 0.000917807 0.001661649 0 0 0 0
748000000 0.139943704 -0.793605148 0.001013345 0.001350606 0 0 0 0
756000000 -0.194038912 -0.748060703 0.001269301 0.001163696 0 0 0 0
764000000 -0.488882005 -0.541019439 0.001569339 0.000663244 0 0 0 0
772000000 -0.652841866 -0.186243817 0.001607986 0.000282403 0 0 0 0
780000000 -0.573190093 0.231238976 0.001702138 -0.000734857 0 0 0 0
788000000 -0.215430945 0.525098502 0.000776264 -0.001748707 0 0 0 0
796000000 0.265605032 0.494306266 -0.001180421 -0.002389611 0 0 0 0
804000000 0.570624589 0.13569729 -0.003662472 -0.000833743 0 0 0 0
812000000 0.528897762 -0.305220931 -0.003847613 0.002473443 0 0 0 0
820000000 0.237040862 -0.579994857 -0.001489466 0.00499835 0 0 0 0
828000000 -0.131411179 -0.627216041 0.001248114 0.005142176 0 0 0 0
836000000 -0.43053469 -0.492420732 0.003873166 0.004502838 0 0 0 0
844000000 -0.624717235 -0.25384441 0.006452817 0.002810361 0 0 0 0
852000000 -0.702448546 0.015515358 0.008690742 0.000231416 0 0 0 0
860000000 -0.660179674 0.274495869 0.010453116 -0.003911871 0 0 0 0
868000000 -0.528794646 0.465764969 0.010904788 -0.010039702 0 0 0 0
876000000 -0.323175698 0.572074294 0.007581108 -0.018135175 0 0 0 0
884000000 -0.108027689 0.565872251 -0.003116934 -0.025109224 0 0 0 0
892000000 -0.015192556 0.622238099 -0.025758113 -0.022799946 0 0 0 0
900000000 0.323222607 0.258888959 -0.041278608 -0.001633341 0 0 0 0
908000000 0.280133217 0.123132437 -0.035617385 0.031866218 0 0 0 0
916000000 0.191615223 0.050889506 -0.001504912 0.052429437 0 0 0 0
924000000 0.102066017 0.058168921 0.037985015 0.037292513 0 0 0 0
932000000 0.028313824 0.147152081 0.050839971 -0.002992704 0 0 0 0
940000000 0.087231315 0.302159786 0.02737282 -0.032254263 0 0 0 0
948000000 0.316615283 0.350010633 0.000393583 -0.033108767 0 0 0 0
956000000 0.489338696 0.205866739 -0.012751666 -0.021947313 0 0 0 0
964000000 0.569880545 -0.022769017 -0.017283404 -0.009317116 0 0 0 0
972000000 0.497417688 -0.276380836 -0.016212152 -0.000193744 0 0 0 0
980000000 0.294843375 -0.466744482 -0.010984462 0.005691773 0 0 0 0
988000000 0.037228155 -0.546452403 -0.006390049 0.008091512 0 0 0 0
996000000 -0.247193366 -0.494443118 -0.003166982 0.007721018 0 0 0 0
1004000000 -0.478716343 -0.350211203 -0.001387414 0.006626287 0 0 0 0
