# Hz S RI R 50
700000000 0.763464391 0.528497219 4.8933e-05 0.000656042 0 0 0 0
708000000 0.862734615 0.286949098 -8.939e-06 0.000858487 0 0 0 0
716000000 0.892615973 0.019594954 -6.4963e-05 0.001156414 0 0 0 0
724000000 0.834044456 -0.261802881 0.000290779 0.001424646 0 0 0 0
732000000 0.685611426 -0.511296689 0.000559971 0.001513751 0 0 0 0
740000000 0.444451749 -0.700898289 0.000852889 0.001406671 0 0 0 0
748000000 0.139609947 -0.789818048 0.00117837 0.001512856 0 0 0 0
756000000 -0.194190889 -0.747467875 0.001474706 0.001102765 0 0 0 0
764000000 -0.490020394 -0.543286204 0.001561546 0.00079534 0 0 0 0
772000000 -0.651455521 -0.192995846 0.001592506 0.000142013 0 0 0 0
780000000 -0.576921224 0.227385595 0.00171917 -0.000660873 0 0 0 0
788000000 -0.228132322 0.528002977 0.00083052 -0.00156743 0 0 0 0
796000000 0.255799502 0.499333351 -0.001204828 -0.002305599 0 0 0 0
804000000 0.56883049 0.145182833 -0.003583983 -0.000847033 0 0 0 0
812000000 0.540020048 -0.303252249 -0.003819228 0.002411935 0 0 0 0
820000000 0.246815443 -0.579298496 -0.001537818 0.004666685 0 0 0 0
828000000 -0.123047366 -0.633550822 0.001186221 0.004902425 0 0 0 0
836000000 -0.428859263 -0.498209327 0.003728939 0.004350435 0 0 0 0
844000000 -0.624975264 -0.259806424 0.006124335 0.002976062 0 0 0 0
852000000 -0.703427791 0.010140298 0.008550827 0.000192814 0 0 0 0
860000000 -0.667248308 0.265944272 0.010299074 -0.003609163 0 0 0 0
868000000 -0.532306194 0.467226803 0.01072116 -0.009667116 0 0 0 0
876000000 -0.334203362 0.57173711 0.007767016 -0.017217462 0 0 0 0
884000000 -0.113163441 0.573561429 -0.002172399 -0.024291539 0 0 0 0
892000000 0.013489461 0.413424372 -0.032135028 -0.020748069 0 0 0 0
900000000 0.319343358 0.259434252 -0.039299905 -0.003435791 0 0 0 0
908000000 0.292507439 0.129274681 -0.036934707 0.030094485 0 0 0 0
916000000 0.209437116 0.061333939 -0.004167332 0.052001148 0 0 0 0
924000000 0.120770379 0.039302367 0.035797528 0.039011675 0 0 0 0
932000000 0.030411425 0.116274684 0.050933428 -0.001350311 0 0 0 0
940000000 0.069092042 0.284922838 0.028588052 -0.031173713 0 0 0 0
948000000 0.281936228 0.359631836 0.002801662 -0.03297916 0 0 0 0
956000000 0.481218516 0.224256172 -0.011987439 -0.022856129 0 0 0 0
964000000 0.569863379 -0.006177012 -0.017869856 -0.010492617 0 0 0 0
972000000 0.495878458 -0.263945728 -0.016689229 -0.000655651 0 0 0 0
980000000 0.298911869 -0.452973395 -0.01133289 0.00525141 0 0 0 0
988000000 0.033976148 -0.548939526 -0.007331476 0.007689937 0 0 0 0
996000000 -0.256189882 -0.494059383 -0.00380609 0.007936064 0 0 0 0
1004000000 -0.485044926 -0.350601285 -0.001428808 0.006862835 0 0 0 0
