# Hz S RI R 50
700000000 0.766147255 0.526788234 3.0558e-05 0.00049461 0 0 0 0
708000000 0.86447972 0.282076388 -1.1097e-05 0.001003193 0 0 0 0
716000000 0.888196766 0.016460673 1.3477e-05 0.001037336 0 0 0 0
724000000 0.828414797 -0.257592707 0.000165381 0.001522691 0 0 0 0
732000000 0.683199882 -0.509950399 0.000365498 0.001690197 0 0 0 0
740000000 0.444128066 -0.700196564 0.000684496 0.001518336 0 0 0 0
748000000 0.136946424 -0.791798055 0.001036059 0.00145476 0 0 0 0
756000000 -0.195120126 -0.746421515 0.001288685 0.001124975 0 0 0 0
764000000 -0.492463678 -0.541406571 0.001443912 0.000766177 0 0 0 0
772000000 -0.647527337 -0.185255229 0.001923401 0.000390402 0 0 0 0
780000000 -0.56870079 0.234646469 0.001968582 -0.000651107 0 0 0 0
788000000 -0.209767326 0.525324106 0.001004772 -0.002208736 0 0 0 0
796000000 0.267639189 0.486537158 -0.001705951 -0.002810733 0 0 0 0
804000000 0.56368196 0.124772332 -0.00460861 -0.000718035 0 0 0 0
812000000 0.518699586 -0.314621895 -0.004403637 0.003403783 0 0 0 0
820000000 0.224312096 -0.581690132 -0.001386674 0.006123814 0 0 0 0
828000000 -0.142303705 -0.620040118 0.002004221 0.006265329 0 0 0 0
836000000 -0.438587188 -0.479832351 0.005440552 0.004878288 0 0 0 0
844000000 -0.628702342 -0.240865826 0.008322697 0.002261266 0 0 0 0
852000000 -0.691532909 0.025957789 0.010207663 -0.001473708 0 0 0 0
860000000 -0.649436295 0.278778612 0.011331436 -0.006255748 0 0 0 0
868000000 -0.513689398 0.466967254 0.010372567 -0.013558994 0 0 0 0
876000000 -0.305024534 0.562565505 0.004448683 -0.021421242 0 0 0 0
884000000 -0.098837167 0.550817012 -0.009031852 -0.02599517 0 0 0 0
892000000 0.065789006 0.429907053 -0.028279757 -0.019862649 0 0 0 0
900000000 0.2964423 0.235030487 -0.043699812 0.007867013 0 0 0 0
908000000 0.241923943 0.120459623 -0.028686624 0.042234387 0 0 0 0
916000000 0.169775471 0.078935392 0.010854477 0.053837005 0 0 0 0
924000000 0.096943311 0.089397773 0.047598198 0.028463693 0 0 0 0
932000000 0.047122694 0.164747208 0.049958948 -0.014361292 0 0 0 0
940000000 0.114465296 0.306362807 0.020232873 -0.038238931 0 0 0 0
948000000 0.340922325 0.331025928 -0.005804934 -0.032614458 0 0 0 0
956000000 0.504701316 0.192176848 -0.016803363 -0.019058829 0 0 0 0
964000000 0.566093504 -0.039097357 -0.018535964 -0.006150479 0 0 0 0
972000000 0.484316974 -0.285488843 -0.015610692 0.004433951 0 0 0 0
980000000 0.288594931 -0.471793889 -0.009524442 0.008126376 0 0 0 0
988000000 0.015386053 -0.548802733 -0.004655699 0.009480284 0 0 0 0
996000000 -0.269813567 -0.495554476 -0.000802809 0.007915335 0 0 0 0
1004000000 -0.498331815 -0.35409817 0.00102765 0.006315514 0 0 0 0
