# Hz S RI R 50
700000000 0.762893021 0.53122735 6.134e-06 0.000627235 0 0 0 0
708000000 0.864971935 0.287711352 -2.7524e-05 0.000820862 0 0 0 0
716000000 0.892628848 0.016345685 -6.539e-05 0.001200933 0 0 0 0
724000000 0.834593176 -0.259271025 9.9947e-05 0.001328931 0 0 0 0
732000000 0.683235347 -0.508818686 0.000605941 0.001624213 0 0 0 0
740000000 0.445116102 -0.697920083 0.000943774 0.00160246 0 0 0 0
748000000 0.13737066 -0.790934085 0.001144897 0.001591231 0 0 0 0
756000000 -0.196183562 -0.747397899 0.001255801 0.00116173 0 0 0 0
764000000 -0.491977721 -0.539261519 0.001577749 0.000883883 0 0 0 0
772000000 -0.649257361 -0.186195299 0.001787239 0.000243434 0 0 0 0
780000000 -0.56971997 0.233744531 0.001678237 -0.00040375 0 0 0 0
788000000 -0.21231085 0.525620162 0.000674901 -0.001596746 0 0 0 0
796000000 0.265774756 0.489738196 -0.000992466 -0.002180133 0 0 0 0
804000000 0.567286372 0.128584638 -0.00322253 -0.000649268 0 0 0 0
812000000 0.526836156 -0.309387743 -0.003453846 0.002392745 0 0 0 0
820000000 0.2329043 -0.582615435 -0.001067629 0.004669242 0 0 0 0
828000000 -0.133300349 -0.626742243 0.001236935 0.004774838 0 0 0 0
836000000 -0.436949193 -0.490164786 0.003573041 0.004186199 0 0 0 0
844000000 -0.628711462 -0.251750707 0.005903813 0.002569759 0 0 0 0
852000000 -0.700673878 0.019512729 0.007847081 0.000202232 0 0 0 0
860000000 -0.66328901 0.276428431 0.009626525 -0.003388803 0 0 0 0
868000000 -0.525564014 0.469524711 0.010470977 -0.008878875 0 0 0 0
876000000 -0.318124264 0.575757086 0.007891166 -0.016386287 0 0 0 0
884000000 -0.101637005 0.564699828 -0.001523309 -0.023641193 0 0 0 0
892000000 0.091938704 0.493928194 -0.014540895 -0.022129122 0 0 0 0
900000000 0.314516186 0.260777771 -0.039087317 -0.004678172 0 0 0 0
908000000 0.280511051 0.124516464 -0.036665927 0.028062138 0 0 0 0
916000000 0.191471427 0.055477801 -0.004802084 0.051019374 0 0 0 0
924000000 0.093078806 0.047936823 0.034712824 0.038964636 0 0 0 0
932000000 0.015085126 0.154917895 0.049127846 -0.000976378 0 0 0 0
940000000 0.095722362 0.319046884 0.028317043 -0.029391745 0 0 0 0
948000000 0.330687791 0.360965341 0.003125274 -0.031020712 0 0 0 0
956000000 0.497263759 0.205526366 -0.010927314 -0.022475065 0 0 0 0
964000000 0.571345806 -0.032508291 -0.015912009 -0.01088403 0 0 0 0
972000000 0.486259967 -0.281065016 -0.016297116 -0.000891662 0 0 0 0
980000000 0.295025825 -0.464475095 -0.011543351 0.004869723 0 0 0 0
988000000 0.023820953 -0.528720915 -0.007280352 0.006994405 0 0 0 0
996000000 -0.247466772 -0.489579916 -0.003919564 0.007454952 0 0 0 0
1004000000 -0.481928616 -0.349602997 -0.001739013 0.007293693 0 0 0 0
