# Hz S RI R 50
700000000 0.76284331 0.530813574 -8.686e-06 0.000712918 0 0 0 0
708000000 0.863672256 0.287709087 6.684e-05 0.00101754 0 0 0 0
716000000 0.892746329 0.019354796 0.000237119 0.001306448 0 0 0 0
724000000 0.833356976 -0.257906526 0.000175146 0.00143829 0 0 0 0
732000000 0.683103978 -0.507545113 0.000660295 0.001561996 0 0 0 0
740000000 0.443967819 -0.697525262 0.000877867 0.00137178 0 0 0 0
748000000 0.141761347 -0.790587007 0.001051347 0.001054412 0 0 0 0
756000000 -0.192419335 -0.745769262 0.001241432 0.000895664 0 0 0 0
764000000 -0.485905081 -0.541634023 0.001324254 0.000652028 0 0 0 0
772000000 -0.646605968 -0.191711112 0.001374365 0.00036246 0 0 0 0
780000000 -0.567472577 0.226240292 0.00154368 -0.000194093 0 0 0 0
788000000 -0.216751813 0.517205417 0.001033701 -0.001415309 0 0 0 0
796000000 0.250852823 0.481971859 -0.000715746 -0.001919539 0 0 0 0
804000000 0.552456796 0.136307373 -0.003232271 -0.00091513 0 0 0 0
812000000 0.515717685 -0.298828721 -0.003408805 0.00206473 0 0 0 0
820000000 0.227686733 -0.565976679 -0.001451368 0.004526523 0 0 0 0
828000000 -0.130275219 -0.607995629 0.001303929 0.004751767 0 0 0 0
836000000 -0.42213273 -0.471930682 0.003771796 0.004133102 0 0 0 0
844000000 -0.610194385 -0.24044691 0.006181129 0.00230372 0 0 0 0
852000000 -0.675392627 0.024104448 0.008209321 -0.00015401 0 0 0 0
860000000 -0.633850216 0.268218398 0.009816103 -0.003798449 0 0 0 0
868000000 -0.495751291 0.44129759 0.010089983 -0.009831172 0 0 0 0
876000000 -0.303524404 0.531863212 0.00646623 -0.017128173 0 0 0 0
884000000 -0.121038742 0.510361671 -0.003619397 -0.023342279 0 0 0 0
892000000 0.020859949 0.348530858 -0.023448955 -0.020776746 0 0 0 0
900000000 0.224500745 0.246130496 -0.037317451 -0.001147686 0 0 0 0
908000000 0.211429342 0.187203496 -0.031627893 0.028856208 0 0 0 0
916000000 0.192345485 0.151551648 -0.002136575 0.046526417 0 0 0 0
924000000 0.156134665 0.116927504 0.032865215 0.034330427 0 0 0 0
932000000 0.104933276 0.140789374 0.045313756 -0.001641878 0 0 0 0
940000000 0.124591171 0.268145292 0.026339704 -0.027678128 0 0 0 0
948000000 0.315819263 0.318027883 0.002653269 -0.029425369 0 0 0 0
956000000 0.481892973 0.187022536 -0.009515247 -0.020527478 0 0 0 0
964000000 0.554628312 -0.042793728 -0.014456361 -0.010238403 0 0 0 0
972000000 0.47765848 -0.286895573 -0.014563413 -0.001860245 0 0 0 0
980000000 0.282632857 -0.476964682 -0.011513386 0.003742507 0 0 0 0
988000000 0.015185602 -0.54012674 -0.00794244 0.006120036 0 0 0 0
996000000 -0.257348507 -0.488250732 -0.004540597 0.006929593 0 0 0 0
1004000000 -0.491319298 -0.34494844 -0.002161954 0.006768812 0 0 0 0
