# Hz S RI R 50
700000000 0.759801089 0.533833384 0.000102796 0.000871868 0 0 0 0
708000000 0.86472392 0.287955135 0.000179322 0.001017294 0 0 0 0
716000000 0.892047464 0.018039248 0.000150822 0.001261031 0 0 0 0
724000000 0.83376801 -0.254845857 0.000172709 0.001375905 0 0 0 0
732000000 0.682726144 -0.508850991 0.00045575 0.001648339 0 0 0 0
740000000 0.445503622 -0.7022776 0.000787792 0.001608482 0 0 0 0
748000000 0.141068205 -0.792918503 0.001173858 0.001273717 0 0 0 0
756000000 -0.192251011 -0.747715651 0.001282611 0.001083502 0 0 0 0
764000000 -0.487424463 -0.543673336 0.001422747 0.000910478 0 0 0 0
772000000 -0.649785459 -0.193622112 0.001452979 0.000369085 0 0 0 0
780000000 -0.573048949 0.225040361 0.001686558 -5.4156e-05 0 0 0 0
788000000 -0.224921464 0.521681785 0.001077439 -0.001454839 0 0 0 0
796000000 0.255722612 0.494099915 -0.000629661 -0.002167939 0 0 0 0
804000000 0.563456416 0.138786837 -0.003293792 -0.001238747 0 0 0 0
812000000 0.527640461 -0.298490643 -0.003475788 0.002012751 0 0 0 0
820000000 0.241261571 -0.570283353 -0.001427469 0.004196898 0 0 0 0
828000000 -0.124581851 -0.622035562 0.000957236 0.00458101 0 0 0 0
836000000 -0.424624025 -0.490153342 0.003550038 0.003945529 0 0 0 0
844000000 -0.615320205 -0.25152409 0.006054189 0.002538318 0 0 0 0
852000000 -0.686981797 0.013768697 0.008236452 -5.3329e-05 0 0 0 0
860000000 -0.65254122 0.264648556 0.009677913 -0.00364098 0 0 0 0
868000000 -0.517237126 0.452226042 0.010113173 -0.009464117 0 0 0 0
876000000 -0.319318145 0.55226165 0.006891765 -0.016687897 0 0 0 0
884000000 -0.117667831 0.54145509 -0.002596248 -0.023206397 0 0 0 0
892000000 0.040048778 0.442966282 -0.020396653 -0.018225667 0 0 0 0
900000000 0.279959797 0.244600474 -0.037080232 -0.001711727 0 0 0 0
908000000 0.24377413 0.167443335 -0.033736437 0.027953134 0 0 0 0
916000000 0.204267621 0.112747453 -0.003919053 0.047334615 0 0 0 0
924000000 0.152243465 0.077103242 0.031891599 0.036019049 0 0 0 0
932000000 0.07439503 0.123491898 0.045863479 0.001132958 0 0 0 0
940000000 0.086082957 0.26578477 0.027874264 -0.026891499 0 0 0 0
948000000 0.302730768 0.349821805 0.003920335 -0.030104674 0 0 0 0
956000000 0.477911591 0.209748864 -0.008993528 -0.021811738 0 0 0 0
964000000 0.564440011 -0.022031363 -0.015263997 -0.011034685 0 0 0 0
972000000 0.493041515 -0.269679933 -0.014571445 -0.002376685 0 0 0 0
980000000 0.288201332 -0.469647735 -0.011543102 0.00354204 0 0 0 0
988000000 0.027097987 -0.54988414 -0.00856803 0.006567213 0 0 0 0
996000000 -0.251604318 -0.507975578 -0.004672426 0.007905693 0 0 0 0
1004000000 -0.494702219 -0.349845051 -0.002847154 0.00691491 0 0 0 0
