# Hz S RI R 50
700000000 0.76609987 0.532209455 -1.3741e-05 0.000672288 0 0 0 0
708000000 0.862720012 0.286263108 2.128e-05 0.000968907 0 0 0 0
716000000 0.892024338 0.014192521 0.000241038 0.001200414 0 0 0 0
724000000 0.832981586 -0.254657238 0.000209533 0.00137483 0 0 0 0
732000000 0.680960655 -0.509307682 0.000588813 0.001422711 0 0 0 0
740000000 0.445635288 -0.698838949 0.000802816 0.001566908 0 0 0 0
748000000 0.140416175 -0.791995465 0.001070265 0.001193712 0 0 0 0
756000000 -0.195330634 -0.746322154 0.001319006 0.00096919 0 0 0 0
764000000 -0.488960385 -0.539362609 0.001216617 0.000624807 0 0 0 0
772000000 -0.645891547 -0.185580834 0.00130239 0.000298735 0 0 0 0
780000000 -0.568229377 0.228159591 0.001331517 -0.000310518 0 0 0 0
788000000 -0.21334733 0.517349064 0.000635643 -0.001150863 0 0 0 0
796000000 0.257056623 0.480261057 -0.001074963 -0.001593288 0 0 0 0
804000000 0.554074943 0.128376051 -0.002895223 -0.000175782 0 0 0 0
812000000 0.512050271 -0.302665114 -0.002872962 0.002289915 0 0 0 0
820000000 0.225004494 -0.56625241 -0.000742763 0.004134875 0 0 0 0
828000000 -0.135468617 -0.609227657 0.001431393 0.004324128 0 0 0 0
836000000 -0.429359555 -0.471531808 0.003747431 0.003360606 0 0 0 0
844000000 -0.613370418 -0.236226201 0.005893169 0.00176905 0 0 0 0
852000000 -0.677718102 0.027716265 0.007583902 -0.000603 0 0 0 0
860000000 -0.628927886 0.273867845 0.008791278 -0.00399496 0 0 0 0
868000000 -0.490909606 0.449450254 0.009098386 -0.009160056 0 0 0 0
876000000 -0.29434055 0.531842648 0.006111584 -0.016017936 0 0 0 0
884000000 -0.106359645 0.502990126 -0.003238095 -0.021752219 0 0 0 0
892000000 0.015917288 0.409910291 -0.020450282 -0.01278379 0 0 0 0
900000000 0.225166678 0.236939445 -0.035780161 -0.001872409 0 0 0 0
908000000 0.205916389 0.18359892 -0.031017774 0.027366949 0 0 0 0
916000000 0.179589927 0.154102206 -0.002101363 0.045474804 0 0 0 0
924000000 0.150801971 0.125531047 0.032579634 0.033647459 0 0 0 0
932000000 0.099345155 0.161244913 0.044155403 -0.002533171 0 0 0 0
940000000 0.12964712 0.286414921 0.024198645 -0.027896856 0 0 0 0
948000000 0.334902942 0.318044543 0.001555029 -0.028294909 0 0 0 0
956000000 0.496282696 0.184657126 -0.010566031 -0.01888198 0 0 0 0
964000000 0.56394273 -0.045478336 -0.014479609 -0.008199765 0 0 0 0
972000000 0.479774445 -0.295608907 -0.013205184 -0.001268629 0 0 0 0
980000000 0.270764827 -0.473178207 -0.009483409 0.003237839 0 0 0 0
988000000 0.009628175 -0.547925174 -0.006595605 0.005479442 0 0 0 0
996000000 -0.265638053 -0.492045283 -0.004151716 0.005735513 0 0 0 0
1004000000 -0.491897523 -0.333449214 -0.002001105 0.006356746 0 0 0 0
