# Hz S RI R 50
700000000 0.760838091 0.532485544 3.6237e-05 0.000657598 0 0 0 0
708000000 0.863409817 0.288101434 -3.2192e-05 0.000987261 0 0 0 0
716000000 0.890151619 0.016181625 -3.4991e-05 0.001233891 0 0 0 0
724000000 0.830783069 -0.260106384 0.000354524 0.001420705 0 0 0 0
732000000 0.683614552 -0.509365618 0.000472794 0.00137717 0 0 0 0
740000000 0.445338308 -0.700848758 0.000966642 0.001461971 0 0 0 0
748000000 0.139377117 -0.78989619 0.001102664 0.001141605 0 0 0 0
756000000 -0.196585655 -0.747443675 0.001296457 0.000938759 0 0 0 0
764000000 -0.490274757 -0.541373789 0.001525466 0.000711446 0 0 0 0
772000000 -0.644163727 -0.185633361 0.001383659 0.000183138 0 0 0 0
780000000 -0.567944407 0.226398274 0.001391018 -0.000391649 0 0 0 0
788000000 -0.216116294 0.520468056 0.000851146 -0.001126512 0 0 0 0
796000000 0.25956884 0.48451969 -0.0007015 -0.001958211 0 0 0 0
804000000 0.558573484 0.130867689 -0.003010533 -0.000736824 0 0 0 0
812000000 0.513540506 -0.305306971 -0.00313423 0.002161514 0 0 0 0
820000000 0.228163868 -0.570553541 -0.001027821 0.004068569 0 0 0 0
828000000 -0.13376066 -0.612121582 0.001261338 0.004268572 0 0 0 0
836000000 -0.426716893 -0.474818259 0.003550189 0.003627719 0 0 0 0
844000000 -0.618549823 -0.240616664 0.005990223 0.002079307 0 0 0 0
852000000 -0.679348707 0.025289168 0.007456379 -0.000393276 0 0 0 0
860000000 -0.63820666 0.274027258 0.009073037 -0.003855417 0 0 0 0
868000000 -0.497353255 0.452087193 0.009647649 -0.009204224 0 0 0 0
876000000 -0.29447025 0.540975153 0.00659256 -0.016211209 0 0 0 0
884000000 -0.105345986 0.516776025 -0.002834863 -0.022365601 0 0 0 0
892000000 0.021164702 0.393842488 -0.021482134 -0.021808823 0 0 0 0
900000000 0.237703859 0.235805988 -0.036611225 -0.002681968 0 0 0 0
908000000 0.208456769 0.185079321 -0.032259311 0.027979381 0 0 0 0
916000000 0.181219443 0.138991579 -0.002898411 0.046049322 0 0 0 0
924000000 0.153247669 0.119706213 0.032382518 0.034635055 0 0 0 0
932000000 0.09801948 0.152092605 0.044896401 -0.001046507 0 0 0 0
940000000 0.117218911 0.272259384 0.025778125 -0.027835246 0 0 0 0
948000000 0.324405252 0.331239849 0.002298879 -0.02931893 0 0 0 0
956000000 0.493135392 0.19110772 -0.010181928 -0.020122455 0 0 0 0
964000000 0.562524259 -0.046784553 -0.014286172 -0.008929725 0 0 0 0
972000000 0.484971314 -0.298048377 -0.014353596 -0.001014396 0 0 0 0
980000000 0.274197459 -0.486395746 -0.010831763 0.003738178 0 0 0 0
988000000 0.012753894 -0.55012238 -0.007196907 0.006511824 0 0 0 0
996000000 -0.26190418 -0.492899924 -0.004135968 0.006922408 0 0 0 0
1004000000 -0.496585071 -0.356191456 -0.001843027 0.006529917 0 0 0 0
