# Hz S RI R 50
700000000 0.763495028 0.530013799 4.447e-06 0.000628686 0 0 0 0
708000000 0.862625837 0.28687781 -6.5134e-05 0.000974535 0 0 0 0
716000000 0.890622615 0.01675108 -9.7414e-05 0.001227058 0 0 0 0
724000000 0.829235613 -0.254431277 0.000352145 0.001603707 0 0 0 0
732000000 0.685223162 -0.507012784 0.000481226 0.001372396 0 0 0 0
740000000 0.446689486 -0.697561979 0.000683507 0.001361078 0 0 0 0
748000000 0.139704719 -0.789799809 0.001237767 0.001392751 0 0 0 0
756000000 -0.192826732 -0.745273053 0.001243306 0.000866557 0 0 0 0
764000000 -0.488554656 -0.542474925 0.001227111 0.000739996 0 0 0 0
772000000 -0.647765338 -0.189832925 0.001558658 0.000558734 0 0 0 0
780000000 -0.568539679 0.227813392 0.001525817 -0.000343281 0 0 0 0
788000000 -0.215981781 0.518685877 0.000986132 -0.00135825 0 0 0 0
796000000 0.25710532 0.48493427 -0.000718601 -0.001762828 0 0 0 0
804000000 0.557540357 0.130576997 -0.003105954 -0.000779701 0 0 0 0
812000000 0.519013643 -0.300165057 -0.003122731 0.002126319 0 0 0 0
820000000 0.231741011 -0.570552945 -0.001065108 0.004085859 0 0 0 0
828000000 -0.132062643 -0.615334153 0.001281339 0.004527068 0 0 0 0
836000000 -0.429069072 -0.476593822 0.003429858 0.003983219 0 0 0 0
844000000 -0.615637362 -0.244557693 0.005932443 0.002401563 0 0 0 0
852000000 -0.682002604 0.018831389 0.007751551 -0.000245843 0 0 0 0
860000000 -0.639334797 0.271156281 0.009615535 -0.003415018 0 0 0 0
868000000 -0.505585014 0.453704595 0.010104374 -0.009104711 0 0 0 0
876000000 -0.299182951 0.542172014 0.006973113 -0.016479302 0 0 0 0
884000000 -0.106117762 0.524551093 -0.002759985 -0.022982466 0 0 0 0
892000000 0.04162655 0.39388144 -0.020861998 -0.019080769 0 0 0 0
900000000 0.249119564 0.243760257 -0.036497242 -0.002540479 0 0 0 0
908000000 0.214299589 0.168141677 -0.032675337 0.028395242 0 0 0 0
916000000 0.176972627 0.140439838 -0.002792964 0.046587493 0 0 0 0
924000000 0.158125206 0.103305622 0.032339364 0.035019543 0 0 0 0
932000000 0.085045598 0.146681398 0.045546479 -0.000353907 0 0 0 0
940000000 0.109935253 0.273546189 0.026701198 -0.027157085 0 0 0 0
948000000 0.314382672 0.325463622 0.003419972 -0.029275033 0 0 0 0
956000000 0.490213721 0.196953892 -0.00976077 -0.021348334 0 0 0 0
964000000 0.569930195 -0.044377125 -0.014953005 -0.010253693 0 0 0 0
972000000 0.484712064 -0.290195971 -0.01440109 -0.001691613 0 0 0 0
980000000 0.29338327 -0.482081562 -0.010966653 0.004305329 0 0 0 0
988000000 0.022485001 -0.552949488 -0.007830795 0.006753037 0 0 0 0
996000000 -0.273952215 -0.493451446 -0.003907164 0.006879277 0 0 0 0
1004000000 -0.493044286 -0.3443861 -0.002445921 0.006699143 0 0 0 0
