# Hz S RI R 50
700000000 0.762275397 0.531939268 -4.946e-06 0.000519327 0 0 0 0
708000000 0.863050818 0.287937313 -1.4275e-05 0.001062886 0 0 0 0
716000000 0.892037928 0.0192048 -1.6099e-05 0.00117247 0 0 0 0
724000000 0.836308062 -0.258283436 0.000368298 0.001408844 0 0 0 0
732000000 0.684821486 -0.507799208 0.000628866 0.001542265 0 0 0 0
740000000 0.446131408 -0.697121381 0.000784027 0.001427701 0 0 0 0
748000000 0.138663277 -0.791443884 0.001056363 0.001320436 0 0 0 0
756000000 -0.195235922 -0.7482813 0.001197661 0.000943296 0 0 0 0
764000000 -0.489575207 -0.542722046 0.001438053 0.000816604 0 0 0 0
772000000 -0.645528078 -0.188332721 0.001548904 0.000560188 0 0 0 0
780000000 -0.569270372 0.226447626 0.001631501 -0.0001963 0 0 0 0
788000000 -0.216926872 0.519925773 0.00102399 -0.001458826 0 0 0 0
796000000 0.255325734 0.487562835 -0.000713989 -0.001854293 0 0 0 0
804000000 0.55618447 0.133038431 -0.00318926 -0.000835608 0 0 0 0
812000000 0.519708096 -0.302623093 -0.003292883 0.002083457 0 0 0 0
820000000 0.233099266 -0.569558978 -0.001133948 0.004184503 0 0 0 0
828000000 -0.130305498 -0.61661154 0.001035262 0.004453191 0 0 0 0
836000000 -0.425687968 -0.478949308 0.00365294 0.003862991 0 0 0 0
844000000 -0.617038786 -0.248483076 0.005912395 0.002324985 0 0 0 0
852000000 -0.682904958 0.019867369 0.007906639 -0.000195703 0 0 0 0
860000000 -0.645787715 0.2679089 0.009429747 -0.003477685 0 0 0 0
868000000 -0.509813845 0.455572724 0.009840168 -0.009208213 0 0 0 0
876000000 -0.308092176 0.549609959 0.007051238 -0.016383515 0 0 0 0
884000000 -0.111518755 0.532738327 -0.002255276 -0.022789437 0 0 0 0
892000000 0.039395835 0.431845277 -0.01822998 -0.018441256 0 0 0 0
900000000 0.254913061 0.247272714 -0.038186345 -0.002713106 0 0 0 0
908000000 0.234662279 0.16865924 -0.033337555 0.027821034 0 0 0 0
916000000 0.187159121 0.127954438 -0.00357931 0.046980697 0 0 0 0
924000000 0.158453822 0.107397601 0.031824432 0.035742405 0 0 0 0
932000000 0.08373297 0.131842285 0.045802362 0.00050596 0 0 0 0
940000000 0.105187088 0.273455828 0.027399694 -0.026975197 0 0 0 0
948000000 0.303465694 0.332984119 0.003645823 -0.030194625 0 0 0 0
956000000 0.489952713 0.210279643 -0.010052803 -0.021517714 0 0 0 0
964000000 0.564668834 -0.037062402 -0.015164153 -0.010337243 0 0 0 0
972000000 0.48842746 -0.272563159 -0.015113521 -0.001723532 0 0 0 0
980000000 0.297201216 -0.481765061 -0.010805223 0.003748357 0 0 0 0
988000000 0.027862401 -0.5488891 -0.007150129 0.006608875 0 0 0 0
996000000 -0.258936911 -0.497950553 -0.004432345 0.007066084 0 0 0 0
1004000000 -0.494674295 -0.350182712 -0.002301311 0.00688321 0 0 0 0
