# Hz S RI R 50
700000000 0.766243398 0.529553949 -8.1789e-05 0.000665182 0 0 0 0
708000000 0.863249838 0.290042161 4.3404e-05 0.000871774 0 0 0 0
716000000 0.890817403 0.018704921 3.5968e-05 0.001156087 0 0 0 0
724000000 0.834345936 -0.259193032 0.00037084 0.001431718 0 0 0 0
732000000 0.682840943 -0.506737947 0.000473917 0.001415148 0 0 0 0
740000000 0.445872753 -0.699311017 0.000842974 0.001359657 0 0 0 0
748000000 0.14235191 -0.790803492 0.001130035 0.001326567 0 0 0 0
756000000 -0.191692963 -0.748605847 0.001192081 0.001071356 0 0 0 0
764000000 -0.488200932 -0.5428887 0.001150826 0.000841381 0 0 0 0
772000000 -0.646493017 -0.189538627 0.001515423 0.000521107 0 0 0 0
780000000 -0.571910619 0.227215021 0.001693946 -0.000204994 0 0 0 0
788000000 -0.221815213 0.520626246 0.000966327 -0.001131947 0 0 0 0
796000000 0.254328012 0.491663277 -0.000342653 -0.002023923 0 0 0 0
804000000 0.559729278 0.138987705 -0.002787886 -0.000901219 0 0 0 0
812000000 0.525184214 -0.299901336 -0.00346716 0.001831458 0 0 0 0
820000000 0.238149598 -0.570884704 -0.001168277 0.004109088 0 0 0 0
828000000 -0.125081866 -0.620428264 0.0011121 0.00463521 0 0 0 0
836000000 -0.423680156 -0.487061709 0.003371548 0.004260198 0 0 0 0
844000000 -0.618125796 -0.250699341 0.005663832 0.00244491 0 0 0 0
852000000 -0.689108908 0.012801932 0.00791216 5.2048e-05 0 0 0 0
860000000 -0.649697601 0.266745686 0.009612378 -0.003478048 0 0 0 0
868000000 -0.516164779 0.454286813 0.010363263 -0.009103944 0 0 0 0
876000000 -0.31617847 0.551323771 0.007288135 -0.01672572 0 0 0 0
884000000 -0.115268468 0.541621327 -0.002468784 -0.023191558 0 0 0 0
892000000 0.038117535 0.430272459 -0.016737259 -0.020310575 0 0 0 0
900000000 0.282209634 0.255431741 -0.038004368 -0.001796605 0 0 0 0
908000000 0.238043531 0.161787301 -0.032850414 0.028318632 0 0 0 0
916000000 0.193388029 0.121765382 -0.003292744 0.04669426 0 0 0 0
924000000 0.153316065 0.08596979 0.032113317 0.035069499 0 0 0 0
932000000 0.094156727 0.118012584 0.045573081 0.000759143 0 0 0 0
940000000 0.085898108 0.26139903 0.027604421 -0.027196068 0 0 0 0
948000000 0.29083985 0.333370864 0.003653946 -0.030526475 0 0 0 0
956000000 0.471581906 0.228485584 -0.009860686 -0.021598147 0 0 0 0
964000000 0.565959632 -0.018443847 -0.014806425 -0.009709697 0 0 0 0
972000000 0.495994597 -0.269254893 -0.015171114 -0.001952634 0 0 0 0
980000000 0.30437383 -0.482615679 -0.010992682 0.004077656 0 0 0 0
988000000 0.027571523 -0.546599149 -0.007236482 0.006376138 0 0 0 0
996000000 -0.254114091 -0.4986566 -0.003750717 0.007287418 0 0 0 0
1004000000 -0.499678522 -0.353342324 -0.002695668 0.00616138 0 0 0 0
