# Hz S RI R 50
700000000 0.76226902 0.52995336 0.000157359 0.000586379 0 0 0 0
708000000 0.861236214 0.290062993 -7.7863e-05 0.001088104 0 0 0 0
716000000 0.891434907 0.01731445 0.000157897 0.001158691 0 0 0 0
724000000 0.834587574 -0.262132048 0.000284751 0.001313647 0 0 0 0
732000000 0.682699382 -0.506707489 0.000490597 0.001560444 0 0 0 0
740000000 0.443949609 -0.697592496 0.000750503 0.001605452 0 0 0 0
748000000 0.138481199 -0.791197955 0.001075843 0.001497544 0 0 0 0
756000000 -0.19391638 -0.746757268 0.001190256 0.001181521 0 0 0 0
764000000 -0.489557027 -0.538574337 0.00152244 0.000803662 0 0 0 0
772000000 -0.647445917 -0.186000302 0.001448609 0.000372895 0 0 0 0
780000000 -0.562845826 0.23246698 0.001753539 -0.000354062 0 0 0 0
788000000 -0.207480564 0.521866738 0.001130876 -0.001318447 0 0 0 0
796000000 0.265692681 0.47852692 -0.000725609 -0.002474745 0 0 0 0
804000000 0.560920476 0.120576418 -0.003349358 -0.001188722 0 0 0 0
812000000 0.515546262 -0.3142865 -0.004010734 0.001904 0 0 0 0
820000000 0.220994696 -0.573811113 -0.001740535 0.004336245 0 0 0 0
828000000 -0.139992639 -0.614155888 0.000843827 0.005084206 0 0 0 0
836000000 -0.435735046 -0.470527261 0.003397541 0.004390527 0 0 0 0
844000000 -0.616625726 -0.234657108 0.006114118 0.002790083 0 0 0 0
852000000 -0.684123218 0.031818676 0.008385416 0.000179053 0 0 0 0
860000000 -0.639105737 0.279282808 0.010048844 -0.003732778 0 0 0 0
868000000 -0.502803146 0.461789101 0.010462034 -0.009500975 0 0 0 0
876000000 -0.299299776 0.547839164 0.007263533 -0.017097489 0 0 0 0
884000000 -0.101723022 0.529083907 -0.002839874 -0.023974953 0 0 0 0
892000000 0.037377703 0.417794972 -0.02386778 -0.019104147 0 0 0 0
900000000 0.280327826 0.238510042 -0.037789326 -0.003009696 0 0 0 0
908000000 0.231795996 0.143339276 -0.034294761 0.028779191 0 0 0 0
916000000 0.172029539 0.098264239 -0.003785033 0.048345543 0 0 0 0
924000000 0.114848613 0.09995114 0.033419448 0.03652998 0 0 0 0
932000000 0.056928955 0.170114859 0.046535518 0.000361827 0 0 0 0
940000000 0.116532787 0.303061753 0.027300253 -0.027362452 0 0 0 0
948000000 0.337064832 0.343959897 0.003958615 -0.031028678 0 0 0 0
956000000 0.499308288 0.186304196 -0.009478865 -0.021665954 0 0 0 0
964000000 0.565763175 -0.049701716 -0.015296946 -0.011153995 0 0 0 0
972000000 0.48917973 -0.288583606 -0.01612797 -0.002451552 0 0 0 0
980000000 0.284228771 -0.482618212 -0.012178269 0.004408724 0 0 0 0
988000000 0.017150871 -0.545448422 -0.008189945 0.007800661 0 0 0 0
996000000 -0.265310943 -0.500806033 -0.003984712 0.007776402 0 0 0 0
1004000000 -0.487517088 -0.350305259 -0.001846491 0.006920227 0 0 0 0
