# Hz S RI R 50
700000000 0.761327266 0.529833555 -5.128e-05 0.000647373 0 0 0 0
708000000 0.864822626 0.289340734 -4.8298e-05 0.001018149 0 0 0 0
716000000 0.893922686 0.016592955 -7.201e-05 0.001167067 0 0 0 0
724000000 0.834656178 -0.260133713 0.000249437 0.001438 0 0 0 0
732000000 0.68317449 -0.508191883 0.000409865 0.001693453 0 0 0 0
740000000 0.445983648 -0.699769198 0.000638025 0.001418894 0 0 0 0
748000000 0.13820973 -0.792335569 0.001173745 0.001400807 0 0 0 0
756000000 -0.195547103 -0.747223734 0.001185362 0.001039427 0 0 0 0
764000000 -0.489874392 -0.538588106 0.001366147 0.000820828 0 0 0 0
772000000 -0.646357059 -0.181776851 0.001779528 0.000471646 0 0 0 0
780000000 -0.564374387 0.23390533 0.001895896 -0.000395377 0 0 0 0
788000000 -0.203451484 0.522533655 0.001205714 -0.001641954 0 0 0 0
796000000 0.270459204 0.47775945 -0.000477385 -0.002529328 0 0 0 0
804000000 0.561692118 0.119423039 -0.003431276 -0.001304493 0 0 0 0
812000000 0.510124802 -0.31358543 -0.004019629 0.001973115 0 0 0 0
820000000 0.218400284 -0.575069546 -0.001784086 0.004490755 0 0 0 0
828000000 -0.143269106 -0.611068546 0.000933204 0.005065842 0 0 0 0
836000000 -0.435337334 -0.471914052 0.003648335 0.004592878 0 0 0 0
844000000 -0.620918333 -0.234045311 0.006297172 0.002728902 0 0 0 0
852000000 -0.681496024 0.032110739 0.008487096 0.000155933 0 0 0 0
860000000 -0.636306762 0.277071177 0.010212083 -0.00364435 0 0 0 0
868000000 -0.494490563 0.461259543 0.010737875 -0.009822268 0 0 0 0
876000000 -0.294277638 0.548839509 0.007416548 -0.017626499 0 0 0 0
884000000 -0.098094157 0.524432301 -0.003102196 -0.024083906 0 0 0 0
892000000 0.010827445 0.367081463 -0.033025801 -0.036744244 0 0 0 0
900000000 0.268678665 0.233857944 -0.037588864 -0.001988223 0 0 0 0
908000000 0.233169704 0.139162629 -0.034328993 0.029794482 0 0 0 0
916000000 0.16640079 0.103954419 -0.002617206 0.048615705 0 0 0 0
924000000 0.102149225 0.102983042 0.033290285 0.036140449 0 0 0 0
932000000 0.055929604 0.178460896 0.046470955 -0.000388992 0 0 0 0
940000000 0.119352489 0.316524565 0.028074886 -0.027413919 0 0 0 0
948000000 0.349842756 0.333253681 0.004223607 -0.029861543 0 0 0 0
956000000 0.50506705 0.180489972 -0.009578838 -0.021929949 0 0 0 0
964000000 0.57072544 -0.047189846 -0.015119295 -0.010953607 0 0 0 0
972000000 0.483101904 -0.295733004 -0.015296818 -0.001759918 0 0 0 0
980000000 0.282054245 -0.479805946 -0.012017091 0.004004888 0 0 0 0
988000000 0.010190746 -0.550058364 -0.00797427 0.007552791 0 0 0 0
996000000 -0.265967667 -0.494935929 -0.003901722 0.007753068 0 0 0 0
1004000000 -0.506891489 -0.353500157 -0.002287624 0.007566671 0 0 0 0
