# Hz S RI R 50
700000000 0.761750578 0.530101716 5.4793e-05 0.000593009 0 0 0 0
708000000 0.864694833 0.282265901 2.0143e-05 0.000988587 0 0 0 0
716000000 0.891721367 0.010481285 6.135e-06 0.001295789 0 0 0 0
724000000 0.828744053 -0.260701477 0.000188743 0.00155377 0 0 0 0
732000000 0.680840671 -0.511499524 0.000420813 0.001515138 0 0 0 0
740000000 0.443618267 -0.701482474 0.000740858 0.001444451 0 0 0 0
748000000 0.135976612 -0.793567717 0.00119513 0.001603288 0 0 0 0
756000000 -0.198283955 -0.74854803 0.001440035 0.001133141 0 0 0 0
764000000 -0.492743611 -0.538779497 0.001528448 0.000936522 0 0 0 0
772000000 -0.649025678 -0.179858401 0.001648614 0.000318298 0 0 0 0
780000000 -0.565798521 0.236937671 0.001651661 -0.000890725 0 0 0 0
788000000 -0.208544254 0.523764312 0.000676711 -0.001863561 0 0 0 0
796000000 0.274030804 0.484171181 -0.001533107 -0.002555021 0 0 0 0
804000000 0.566758811 0.119119964 -0.00426762 -0.000544445 0 0 0 0
812000000 0.514257609 -0.321096897 -0.004149574 0.00337423 0 0 0 0
820000000 0.221756562 -0.584150254 -0.001191485 0.0057761 0 0 0 0
828000000 -0.145323723 -0.619994759 0.002046277 0.005946217 0 0 0 0
836000000 -0.439416736 -0.473160237 0.005063551 0.004820652 0 0 0 0
844000000 -0.626972436 -0.235089749 0.007943733 0.0021794 0 0 0 0
852000000 -0.687313079 0.035179968 0.009915755 -0.00130134 0 0 0 0
860000000 -0.643991529 0.28243947 0.011023498 -0.006152258 0 0 0 0
868000000 -0.499210327 0.466153919 0.010211355 -0.01292847 0 0 0 0
876000000 -0.295115977 0.560574591 0.0046681 -0.020876124 0 0 0 0
884000000 -0.095405362 0.541122436 -0.008542636 -0.025754055 0 0 0 0
892000000 0.064371049 0.423103123 -0.027586536 -0.019885819 0 0 0 0
900000000 0.27843526 0.220482826 -0.043380856 0.007167893 0 0 0 0
908000000 0.235338047 0.116715461 -0.029638852 0.041513495 0 0 0 0
916000000 0.149333566 0.090497277 0.010267702 0.05385245 0 0 0 0
924000000 0.098571605 0.106976479 0.046499572 0.02923035 0 0 0 0
932000000 0.047060117 0.193746894 0.049693811 -0.01412112 0 0 0 0
940000000 0.124384343 0.321397751 0.020877236 -0.037170108 0 0 0 0
948000000 0.355140209 0.347790151 -0.00534655 -0.033587597 0 0 0 0
956000000 0.496455252 0.183172076 -0.016923183 -0.020220451 0 0 0 0
964000000 0.577843427 -0.045576319 -0.019921232 -0.005890813 0 0 0 0
972000000 0.485043287 -0.294181615 -0.016023287 0.004528785 0 0 0 0
980000000 0.28508836 -0.486820548 -0.009446681 0.008377792 0 0 0 0
988000000 0.010280939 -0.550203621 -0.004002804 0.009303512 0 0 0 0
996000000 -0.257878929 -0.492854237 -0.001395027 0.007026555 0 0 0 0
1004000000 -0.48790434 -0.342572301 0.000247347 0.005772071 0 0 0 0
