# Hz S RI R 50
700000000 0.759786844 0.529622673 4.2992e-05 0.000666288 0 0 0 0
708000000 0.863876402 0.285466253 -7.143e-06 0.000857582 0 0 0 0
716000000 0.890128076 0.019826125 6.7146e-05 0.00127949 0 0 0 0
724000000 0.830187439 -0.25440675 0.000131552 0.001524082 0 0 0 0
732000000 0.681069612 -0.507793664 0.000379534 0.00157008 0 0 0 0
740000000 0.445072531 -0.698184251 0.000617257 0.001471481 0 0 0 0
748000000 0.138252303 -0.793468177 0.000979816 0.001396815 0 0 0 0
756000000 -0.196808353 -0.745375752 0.001358918 0.001136741 0 0 0 0
764000000 -0.49112764 -0.539624631 0.001410979 0.000931776 0 0 0 0
772000000 -0.649394214 -0.184859499 0.001722483 0.000645469 0 0 0 0
780000000 -0.566421866 0.232595831 0.001702388 -0.000280043 0 0 0 0
788000000 -0.206937208 0.522917509 0.001255317 -0.001583674 0 0 0 0
796000000 0.264001816 0.482318848 -0.00057916 -0.002414448 0 0 0 0
804000000 0.560755014 0.122826829 -0.003430842 -0.001416113 0 0 0 0
812000000 0.511539876 -0.307349652 -0.004167263 0.001872021 0 0 0 0
820000000 0.221763581 -0.574064552 -0.001829461 0.004571259 0 0 0 0
828000000 -0.14019674 -0.612207412 0.001026113 0.004991389 0 0 0 0
836000000 -0.435570985 -0.472298949 0.003673402 0.004646215 0 0 0 0
844000000 -0.613257706 -0.234149187 0.006295974 0.002796971 0 0 0 0
852000000 -0.682975471 0.027835963 0.008419726 7.0346e-05 0 0 0 0
860000000 -0.638260841 0.276351392 0.010151415 -0.003691526 0 0 0 0
868000000 -0.502103805 0.460622936 0.010679842 -0.00956061 0 0 0 0
876000000 -0.302989393 0.550093472 0.007493302 -0.017322415 0 0 0 0
884000000 -0.102897591 0.532886981 -0.002701489 -0.024099638 0 0 0 0
892000000 0.0382017 0.415457695 -0.025605887 -0.022368283 0 0 0 0
900000000 0.276762962 0.231191992 -0.039562854 -0.00225548 0 0 0 0
908000000 0.226490557 0.147766202 -0.035032372 0.029509138 0 0 0 0
916000000 0.177753716 0.112436309 -0.002955076 0.049681585 0 0 0 0
924000000 0.120383091 0.10524322 0.033876437 0.036494545 0 0 0 0
932000000 0.056742053 0.167858645 0.047000356 -6.3615e-05 0 0 0 0
940000000 0.1196151 0.308534622 0.027702072 -0.027637796 0 0 0 0
948000000 0.343391925 0.350006788 0.003991445 -0.031272083 0 0 0 0
956000000 0.50792098 0.183546021 -0.010141052 -0.022302748 0 0 0 0
964000000 0.570733666 -0.047852013 -0.01590372 -0.011204977 0 0 0 0
972000000 0.484831511 -0.295491456 -0.01579841 -0.002458083 0 0 0 0
980000000 0.290984779 -0.491556167 -0.011831607 0.004584522 0 0 0 0
988000000 0.013239237 -0.548904895 -0.008211797 0.007721708 0 0 0 0
996000000 -0.265786826 -0.494950473 -0.004350075 0.008027837 0 0 0 0
1004000000 -0.511836767 -0.355123639 -0.001545434 0.007189084 0 0 0 0
