# Hz S RI R 50
700000000 0.763085603 0.525510191 -6.8461e-05 0.00066522 0 0 0 0
708000000 0.865249335 0.284803032 -1.1816e-05 0.001022172 0 0 0 0
716000000 0.889840543 0.016456078 5.6222e-05 0.001357904 0 0 0 0
724000000 0.831143021 -0.261643648 0.000138338 0.001458311 0 0 0 0
732000000 0.683783888 -0.510759949 0.000571599 0.001690683 0 0 0 0
740000000 0.444814294 -0.699129104 0.000836151 0.001544818 0 0 0 0
748000000 0.138082593 -0.794689893 0.001174569 0.001323844 0 0 0 0
756000000 -0.195972532 -0.748081445 0.001365051 0.000910492 0 0 0 0
764000000 -0.489307761 -0.542684257 0.00142067 0.000914446 0 0 0 0
772000000 -0.652626872 -0.183894425 0.001752128 0.000373347 0 0 0 0
780000000 -0.569643855 0.23228152 0.001764012 -0.000674229 0 0 0 0
788000000 -0.212291568 0.525447428 0.000776132 -0.001797418 0 0 0 0
796000000 0.264599889 0.489389449 -0.001207022 -0.002467058 0 0 0 0
804000000 0.56755501 0.12763381 -0.004072399 -0.00095548 0 0 0 0
812000000 0.522534728 -0.310726881 -0.004037518 0.003054566 0 0 0 0
820000000 0.232787892 -0.58287847 -0.001323364 0.005565506 0 0 0 0
828000000 -0.136057764 -0.624738097 0.001963693 0.006005655 0 0 0 0
836000000 -0.43584156 -0.48672837 0.005077646 0.004812319 0 0 0 0
844000000 -0.623376369 -0.250433295 0.007954425 0.002399238 0 0 0 0
852000000 -0.697015941 0.019500408 0.009916183 -0.001300763 0 0 0 0
860000000 -0.654453873 0.279016941 0.011265472 -0.006404063 0 0 0 0
868000000 -0.514421522 0.464167952 0.010038912 -0.013221457 0 0 0 0
876000000 -0.313925921 0.567465901 0.004418832 -0.020919069 0 0 0 0
884000000 -0.105644881 0.558913886 -0.008845667 -0.025653846 0 0 0 0
892000000 0.072067335 0.442909687 -0.0277187 -0.019465316 0 0 0 0
900000000 0.314536303 0.238249659 -0.043744575 0.007767747 0 0 0 0
908000000 0.250727087 0.118460103 -0.029285235 0.041585244 0 0 0 0
916000000 0.176434829 0.079910814 0.010853416 0.053990803 0 0 0 0
924000000 0.107837051 0.079919449 0.047430556 0.029296115 0 0 0 0
932000000 0.052346758 0.152238681 0.051344197 -0.01450467 0 0 0 0
940000000 0.093554243 0.286315113 0.022045657 -0.040200587 0 0 0 0
948000000 0.317482948 0.35329622 -0.007366308 -0.0348186 0 0 0 0
956000000 0.483312815 0.212825581 -0.018924405 -0.019086569 0 0 0 0
964000000 0.569038629 -0.016425507 -0.020312549 -0.004173424 0 0 0 0
972000000 0.500561058 -0.272381722 -0.015918932 0.005120104 0 0 0 0
980000000 0.284652888 -0.470986306 -0.008910762 0.008593857 0 0 0 0
988000000 0.022200256 -0.537847936 -0.003348684 0.008971311 0 0 0 0
996000000 -0.248050972 -0.487778544 -0.000271223 0.007281476 0 0 0 0
1004000000 -0.493363022 -0.358285427 0.001023778 0.005500734 0 0 0 0
