# Hz S RI R 50
700000000 0.767630815 0.526968538 0.000149245 0.000616277 0 0 0 0
708000000 0.864021599 0.284835994 -2.674e-05 0.000910579 0 0 0 0
716000000 0.889981925 0.012221984 3.1066e-05 0.001211073 0 0 0 0
724000000 0.827752709 -0.260709226 0.000235913 0.001337877 0 0 0 0
732000000 0.681948065 -0.511162459 0.000648618 0.001375652 0 0 0 0
740000000 0.446654468 -0.701550185 0.000834713 0.001402609 0 0 0 0
748000000 0.138004884 -0.794624149 0.001174303 0.001190462 0 0 0 0
756000000 -0.196861982 -0.748483121 0.001183898 0.001144289 0 0 0 0
764000000 -0.49213469 -0.541669785 0.001351173 0.000760306 0 0 0 0
772000000 -0.649476289 -0.186068087 0.001668096 0.000456056 0 0 0 0
780000000 -0.573597729 0.229474678 0.001562036 -0.000515148 0 0 0 0
788000000 -0.214229166 0.527614116 0.000834879 -0.001877285 0 0 0 0
796000000 0.266108989 0.491258352 -0.001370967 -0.002500631 0 0 0 0
804000000 0.569963932 0.132893815 -0.003934868 -0.000921086 0 0 0 0
812000000 0.53018099 -0.307626068 -0.004146673 0.003049458 0 0 0 0
820000000 0.239152446 -0.585188448 -0.001375836 0.005576811 0 0 0 0
828000000 -0.132998794 -0.62973082 0.001970476 0.005945633 0 0 0 0
836000000 -0.437241941 -0.493546843 0.005107088 0.00478922 0 0 0 0
844000000 -0.631037354 -0.253063827 0.007965479 0.002319123 0 0 0 0
852000000 -0.703989088 0.015587957 0.010075168 -0.001503641 0 0 0 0
860000000 -0.669270515 0.274207085 0.011204996 -0.006443609 0 0 0 0
868000000 -0.532774925 0.473162591 0.010028994 -0.01350177 0 0 0 0
876000000 -0.324968934 0.583328783 0.004113699 -0.021182036 0 0 0 0
884000000 -0.099821873 0.583361804 -0.009421888 -0.025746198 0 0 0 0
892000000 0.088728725 0.464262008 -0.028649924 -0.019087966 0 0 0 0
900000000 0.347094416 0.231755122 -0.042470183 0.008523358 0 0 0 0
908000000 0.275430202 0.097894601 -0.028294095 0.043392226 0 0 0 0
916000000 0.175233155 0.046100962 0.01311269 0.054134964 0 0 0 0
924000000 0.088799543 0.057664997 0.048406813 0.026839302 0 0 0 0
932000000 0.032213129 0.146203026 0.04998508 -0.016585515 0 0 0 0
940000000 0.072075568 0.306265145 0.020239457 -0.040542371 0 0 0 0
948000000 0.306701809 0.357169657 -0.009233145 -0.034459479 0 0 0 0
956000000 0.486291259 0.223329365 -0.019431183 -0.018042229 0 0 0 0
964000000 0.576628744 -0.025733629 -0.019628891 -0.003024411 0 0 0 0
972000000 0.510834276 -0.269150912 -0.01535869 0.00564327 0 0 0 0
980000000 0.301666676 -0.475973129 -0.007685225 0.008764195 0 0 0 0
988000000 0.032920293 -0.555020272 -0.003453421 0.009200719 0 0 0 0
996000000 -0.257725596 -0.511605381 -0.000583886 0.006759673 0 0 0 0
1004000000 -0.492410451 -0.35470587 0.000680428 0.004678624 0 0 0 0
