# Hz S RI R 50
700000000 0.765437126 0.527539372 7.4102e-05 0.000670401 0 0 0 0
708000000 0.866959333 0.284010112 3.0767e-05 0.000883659 0 0 0 0
716000000 0.888077676 0.016317872 1.5128e-05 0.001156058 0 0 0 0
724000000 0.826743662 -0.259444355 0.000224114 0.001472201 0 0 0 0
732000000 0.681207358 -0.510112345 0.000423311 0.001614379 0 0 0 0
740000000 0.444213628 -0.701270103 0.000763172 0.001614496 0 0 0 0
748000000 0.137065216 -0.793215095 0.00121734 0.001320953 0 0 0 0
756000000 -0.195353835 -0.746519327 0.001319648 0.001005038 0 0 0 0
764000000 -0.49040544 -0.539728343 0.001593894 0.000814937 0 0 0 0
772000000 -0.650413572 -0.183870539 0.001598725 0.000311442 0 0 0 0
780000000 -0.569487929 0.234720051 0.001931194 -0.000569582 0 0 0 0
788000000 -0.214357718 0.525902986 0.000859717 -0.00171633 0 0 0 0
796000000 0.266881853 0.487564474 -0.001338962 -0.002490015 0 0 0 0
804000000 0.565513134 0.128873601 -0.003943847 -0.000973989 0 0 0 0
812000000 0.522013187 -0.31130889 -0.004238098 0.002849066 0 0 0 0
820000000 0.230958655 -0.581628143 -0.00146682 0.005405225 0 0 0 0
828000000 -0.136390626 -0.624038875 0.001610657 0.005940842 0 0 0 0
836000000 -0.435474812 -0.486207038 0.004814567 0.005004297 0 0 0 0
844000000 -0.627047419 -0.245827004 0.007814852 0.00265238 0 0 0 0
852000000 -0.695723891 0.019520219 0.010035252 -0.000879289 0 0 0 0
860000000 -0.654537498 0.27771297 0.011523794 -0.005796895 0 0 0 0
868000000 -0.519260108 0.46257621 0.010870169 -0.012987205 0 0 0 0
876000000 -0.311537802 0.570916533 0.005196613 -0.021337119 0 0 0 0
884000000 -0.101982995 0.558983266 -0.00834833 -0.026523914 0 0 0 0
892000000 0.069293193 0.439810037 -0.028337622 -0.020621683 0 0 0 0
900000000 0.308446139 0.226177334 -0.04369542 0.00803657 0 0 0 0
908000000 0.255345702 0.1134746 -0.030647253 0.042155545 0 0 0 0
916000000 0.164803311 0.073584802 0.010532189 0.055245466 0 0 0 0
924000000 0.102417729 0.087705366 0.048040572 0.030596664 0 0 0 0
932000000 0.054994173 0.163057476 0.051833085 -0.013468964 0 0 0 0
940000000 0.102351397 0.302453994 0.023681571 -0.039266493 0 0 0 0
948000000 0.321762084 0.347422957 -0.006004121 -0.03582473 0 0 0 0
956000000 0.486325651 0.211174011 -0.018941652 -0.021012797 0 0 0 0
964000000 0.567787826 -0.027991063 -0.021285112 -0.00550045 0 0 0 0
972000000 0.492818892 -0.28306508 -0.016617145 0.005214237 0 0 0 0
980000000 0.293604582 -0.46788153 -0.009788545 0.009029611 0 0 0 0
988000000 0.029136115 -0.539218902 -0.004088811 0.0102064 0 0 0 0
996000000 -0.254999428 -0.505387485 -0.000204868 0.007645721 0 0 0 0
1004000000 -0.490431874 -0.352734774 0.001493739 0.005942076 0 0 0 0
