# Hz S RI R 50
700000000 0.769673228 0.52910155 2.9512e-05 0.000613896 0 0 0 0
708000000 0.865701138 0.28484708 7.4745e-05 0.000951314 0 0 0 0
716000000 0.891523659 0.015535674 0.000127428 0.001286194 0 0 0 0
724000000 0.826640307 -0.261634051 0.00021409 0.001289978 0 0 0 0
732000000 0.681272804 -0.508653223 0.000511982 0.001630932 0 0 0 0
740000000 0.445672869 -0.701001405 0.000907525 0.001508619 0 0 0 0
748000000 0.137689292 -0.792641758 0.001226356 0.00139225 0 0 0 0
756000000 -0.19562681 -0.747331678 0.001189973 0.001033244 0 0 0 0
764000000 -0.488831371 -0.540268898 0.001425024 0.000882139 0 0 0 0
772000000 -0.649490594 -0.184320122 0.001455639 0.00037105 0 0 0 0
780000000 -0.569843411 0.230547621 0.001590176 -0.000456304 0 0 0 0
788000000 -0.216299891 0.523550331 0.000825103 -0.001636072 0 0 0 0
796000000 0.259279161 0.488279372 -0.001237807 -0.002274033 0 0 0 0
804000000 0.560039103 0.133936077 -0.003998569 -0.000817871 0 0 0 0
812000000 0.525966465 -0.306941986 -0.00408766 0.002717392 0 0 0 0
820000000 0.23648712 -0.576675534 -0.001486631 0.005306093 0 0 0 0
828000000 -0.131719574 -0.622526645 0.001528785 0.005853004 0 0 0 0
836000000 -0.431041032 -0.486186385 0.004765152 0.004674498 0 0 0 0
844000000 -0.622778236 -0.247091963 0.007749277 0.002504683 0 0 0 0
852000000 -0.692191898 0.01638909 0.010031619 -0.001048658 0 0 0 0
860000000 -0.654811978 0.268391788 0.011135431 -0.005944862 0 0 0 0
868000000 -0.518624424 0.460095047 0.010288713 -0.012838795 0 0 0 0
876000000 -0.31937325 0.558270633 0.004796228 -0.020703904 0 0 0 0
884000000 -0.10927999 0.55586791 -0.008297453 -0.025852184 0 0 0 0
892000000 0.052309166 0.43451336 -0.0273503 -0.020239867 0 0 0 0
900000000 0.294595271 0.244187191 -0.0434178 0.006661287 0 0 0 0
908000000 0.247754305 0.13071604 -0.030454223 0.040260847 0 0 0 0
916000000 0.175817534 0.094461411 0.009217333 0.05454434 0 0 0 0
924000000 0.127388566 0.089136444 0.046334553 0.030901785 0 0 0 0
932000000 0.065596595 0.137698709 0.051806502 -0.012566423 0 0 0 0
940000000 0.094547323 0.278802752 0.023866353 -0.0392856 0 0 0 0
948000000 0.31325671 0.344787567 -0.005486995 -0.036189619 0 0 0 0
956000000 0.487780362 0.20653057 -0.018883541 -0.020132182 0 0 0 0
964000000 0.557983875 -0.024086879 -0.020891727 -0.005457091 0 0 0 0
972000000 0.486163824 -0.272569596 -0.016397237 0.004842159 0 0 0 0
980000000 0.294801086 -0.47155863 -0.009273284 0.009447994 0 0 0 0
988000000 0.027804093 -0.540113985 -0.003378698 0.009457288 0 0 0 0
996000000 -0.252811342 -0.493394941 -0.000194914 0.007854769 0 0 0 0
1004000000 -0.483546853 -0.362952113 0.00157083 0.005277371 0 0 0 0
