# Hz S RI R 50
700000000 0.755716562 0.55640763 -0.000124497 0.000848316 0 0 0 0
708000000 0.865681231 0.311594426 -3.7893e-05 0.000942537 0 0 0 0
716000000 0.899301886 0.038768425 5.836e-06 0.001242188 0 0 0 0
724000000 0.842737019 -0.244733452 0.000418136 0.001469809 0 0 0 0
732000000 0.697967767 -0.501315712 0.00060568 0.00165745 0 0 0 0
740000000 0.46558389 -0.698743343 0.001118805 0.001728985 0 0 0 0
748000000 0.156683549 -0.800409913 0.001410817 0.001465194 0 0 0 0
756000000 -0.182436779 -0.764082729 0.001906283 0.000958724 0 0 0 0
764000000 -0.485814899 -0.56933242 0.001935709 0.000307369 0 0 0 0
772000000 -0.665442705 -0.224994003 0.001753535 -0.000283651 0 0 0 0
780000000 -0.617291986 0.198435619 0.001609502 -0.001052773 0 0 0 0
788000000 -0.29410994 0.528056025 0.000634356 -0.002336437 0 0 0 0
796000000 0.194089248 0.555944442 -0.001889943 -0.003120653 0 0 0 0
804000000 0.559557437 0.234788879 -0.005077126 -0.001226272 0 0 0 0
812000000 0.58802241 -0.223278224 -0.00548757 0.002750292 0 0 0 0
820000000 0.327745079 -0.55124098 -0.002349097 0.006443788 0 0 0 0
828000000 -0.04479311 -0.652441561 0.001743643 0.006953473 0 0 0 0
836000000 -0.373476833 -0.5501917 0.004824105 0.005160972 0 0 0 0
844000000 -0.603432416 -0.329768717 0.007126981 0.002281982 0 0 0 0
852000000 -0.708330988 -0.061389364 0.008662576 -0.00025961 0 0 0 0
860000000 -0.698516786 0.209941029 0.009897042 -0.003815469 0 0 0 0
868000000 -0.589912056 0.425252139 0.009734068 -0.008798 0 0 0 0
876000000 -0.403950989 0.574811339 0.007357113 -0.014515002 0 0 0 0
884000000 -0.184664219 0.624451339 0.001260135 -0.020028708 0 0 0 0
892000000 0.02391334 0.55163449 -0.010756125 -0.023353088 0 0 0 0
900000000 0.349619328 0.367031753 -0.030075432 -0.015565858 0 0 0 0
908000000 0.382163673 0.206116408 -0.042428325 0.010247505 0 0 0 0
916000000 0.338957607 0.056805197 -0.027462376 0.042659644 0 0 0 0
924000000 0.213517665 -0.020638544 0.012061238 0.055414322 0 0 0 0
932000000 0.091141022 0.007811388 0.049965694 0.029403315 0 0 0 0
940000000 0.02712468 0.151306778 0.052726481 -0.015593015 0 0 0 0
948000000 0.179234445 0.292270958 0.022316681 -0.041293699 0 0 0 0
956000000 0.382276415 0.240993276 -0.007757156 -0.036112252 0 0 0 0
964000000 0.514502227 0.043195459 -0.019499801 -0.018136998 0 0 0 0
972000000 0.481919527 -0.208916947 -0.019892625 -0.004411974 0 0 0 0
980000000 0.321390539 -0.431964099 -0.014686932 0.004403243 0 0 0 0
988000000 0.073667295 -0.523325264 -0.009646896 0.008076053 0 0 0 0
996000000 -0.212629914 -0.498239815 -0.004861769 0.008165253 0 0 0 0
1004000000 -0.451868921 -0.378685623 -0.001726954 0.007978761 0 0 0 0
