# Hz S RI R 50
700000000 0.760290682 0.551286876 -5.5369e-05 0.000579948 0 0 0 0
708000000 0.866400182 0.307458102 -0.000112135 0.001055069 0 0 0 0
716000000 0.898714363 0.031665485 0.000111731 0.001258446 0 0 0 0
724000000 0.841810703 -0.248301848 0.000303875 0.001425736 0 0 0 0
732000000 0.695915758 -0.502935767 0.000573901 0.001494992 0 0 0 0
740000000 0.455012232 -0.699102699 0.000761214 0.001582134 0 0 0 0
748000000 0.150215446 -0.797449231 0.001260746 0.001292621 0 0 0 0
756000000 -0.188984692 -0.755662202 0.001333146 0.001177342 0 0 0 0
764000000 -0.4897421 -0.55420804 0.001483359 0.000952302 0 0 0 0
772000000 -0.658753812 -0.20465669 0.001653894 0.00022042 0 0 0 0
780000000 -0.590210795 0.219031766 0.001611614 -0.000634682 0 0 0 0
788000000 -0.245285496 0.527246773 0.000989396 -0.001981184 0 0 0 0
796000000 0.233638525 0.512330353 -0.001423439 -0.002485906 0 0 0 0
804000000 0.560112833 0.166285827 -0.004374823 -0.000886413 0 0 0 0
812000000 0.541186511 -0.276215553 -0.004564796 0.003337634 0 0 0 0
820000000 0.258829236 -0.564076006 -0.001460093 0.006602843 0 0 0 0
828000000 -0.108085677 -0.623657226 0.002630213 0.00658962 0 0 0 0
836000000 -0.413346141 -0.495845317 0.006082323 0.004671188 0 0 0 0
844000000 -0.608526527 -0.259455561 0.008618705 0.001447775 0 0 0 0
852000000 -0.684721469 0.007290481 0.010264534 -0.002101207 0 0 0 0
860000000 -0.641608834 0.261391609 0.010836764 -0.00737107 0 0 0 0
868000000 -0.509842991 0.449611753 0.008673537 -0.014301544 0 0 0 0
876000000 -0.308678478 0.548241913 0.002254288 -0.020846111 0 0 0 0
884000000 -0.104073844 0.544068872 -0.010480215 -0.023934226 0 0 0 0
892000000 0.06064954 0.429335325 -0.028417784 -0.016832662 0 0 0 0
900000000 0.280956894 0.235962152 -0.041539333 0.009736555 0 0 0 0
908000000 0.233961641 0.128593519 -0.026460343 0.042352192 0 0 0 0
916000000 0.163628846 0.091824628 0.013353091 0.052761271 0 0 0 0
924000000 0.10785599 0.101783059 0.048339873 0.027367828 0 0 0 0
932000000 0.069591127 0.164674341 0.05161526 -0.01679315 0 0 0 0
940000000 0.110123559 0.278296828 0.020833134 -0.042246427 0 0 0 0
948000000 0.315875619 0.331997036 -0.00962317 -0.035416666 0 0 0 0
956000000 0.493579059 0.206765651 -0.021398261 -0.017319558 0 0 0 0
964000000 0.556060373 -0.036510709 -0.020508551 -0.001919466 0 0 0 0
972000000 0.495013028 -0.280876725 -0.014717113 0.006772439 0 0 0 0
980000000 0.297772735 -0.473436504 -0.007402115 0.009670643 0 0 0 0
988000000 0.03312046 -0.559445321 -0.002402491 0.00926213 0 0 0 0
996000000 -0.24450834 -0.514956235 0.000632641 0.00666272 0 0 0 0
1004000000 -0.486811995 -0.388185262 0.001512894 0.005144275 0 0 0 0
