# Hz S RI R 50
700000000 0.754529118 0.554514467 -9.65e-07 0.00076029 0 0 0 0
708000000 0.864923775 0.308054506 -3.214e-05 0.001077592 0 0 0 0
716000000 0.897141635 0.036815166 0.000179145 0.001349037 0 0 0 0
724000000 0.841718971 -0.247068986 0.00022646 0.001503635 0 0 0 0
732000000 0.698085486 -0.500172376 0.000599578 0.001338848 0 0 0 0
740000000 0.461898267 -0.699801445 0.000959784 0.001399738 0 0 0 0
748000000 0.153430789 -0.797254204 0.001128283 0.001069724 0 0 0 0
756000000 -0.185526251 -0.759501278 0.001098162 0.000963335 0 0 0 0
764000000 -0.486175894 -0.560037732 0.001088584 0.000686196 0 0 0 0
772000000 -0.656736612 -0.211155548 0.001387924 0.000549205 0 0 0 0
780000000 -0.603613734 0.210447743 0.001474992 -2.9618e-05 0 0 0 0
788000000 -0.266080439 0.524585962 0.001028811 -0.001145272 0 0 0 0
796000000 0.216183125 0.52848941 -0.000925594 -0.002018286 0 0 0 0
804000000 0.557997643 0.197987914 -0.003256669 -0.000764106 0 0 0 0
812000000 0.560670852 -0.252765953 -0.003573133 0.002003861 0 0 0 0
820000000 0.29148063 -0.558785855 -0.001263738 0.004778991 0 0 0 0
828000000 -0.082103922 -0.636888563 0.001495575 0.004859669 0 0 0 0
836000000 -0.400355696 -0.520469903 0.004230998 0.003842679 0 0 0 0
844000000 -0.60841006 -0.291980683 0.006067316 0.001655882 0 0 0 0
852000000 -0.698784947 -0.014195078 0.007782253 -0.000406607 0 0 0 0
860000000 -0.670368134 0.249255642 0.009231127 -0.003864073 0 0 0 0
868000000 -0.541408538 0.452797055 0.009109678 -0.009353096 0 0 0 0
876000000 -0.336665034 0.569301426 0.006159679 -0.015729848 0 0 0 0
884000000 -0.114899896 0.572559118 -0.002686315 -0.02163656 0 0 0 0
892000000 0.062493927 0.456512719 -0.018514806 -0.020906019 0 0 0 0
900000000 0.312821 0.254539251 -0.035851113 -0.003393625 0 0 0 0
908000000 0.254836887 0.134205207 -0.03231858 0.027997538 0 0 0 0
916000000 0.195540741 0.094636306 -0.002663813 0.045511715 0 0 0 0
924000000 0.155198767 0.07832393 0.030363695 0.03341091 0 0 0 0
932000000 0.072617202 0.09936501 0.042583245 0.001736999 0 0 0 0
940000000 0.067444957 0.245030581 0.028574939 -0.023039357 0 0 0 0
948000000 0.278619199 0.34558621 0.006546781 -0.029932953 0 0 0 0
956000000 0.462965637 0.22400166 -0.008183013 -0.022958232 0 0 0 0
964000000 0.567974269 -0.01005553 -0.015057847 -0.012143122 0 0 0 0
972000000 0.507898926 -0.26522684 -0.015714533 -0.002490761 0 0 0 0
980000000 0.312416225 -0.473746061 -0.01221201 0.004124435 0 0 0 0
988000000 0.048832122 -0.551350772 -0.007488161 0.007439076 0 0 0 0
996000000 -0.232312425 -0.51691538 -0.003957628 0.007089275 0 0 0 0
1004000000 -0.472902238 -0.38912636 -0.001632026 0.00715984 0 0 0 0
