# Hz S RI R 50
700000000 0.758708059 0.555020451 -4.64e-06 0.000718746 0 0 0 0
708000000 0.864048004 0.309484422 -2.7531e-05 0.000962277 0 0 0 0
716000000 0.898016154 0.035597629 5.0662e-05 0.001347126 0 0 0 0
724000000 0.843715906 -0.243830099 0.000209601 0.001390541 0 0 0 0
732000000 0.695589423 -0.498451888 0.000605615 0.001406583 0 0 0 0
740000000 0.459547728 -0.697603166 0.000803007 0.001559625 0 0 0 0
748000000 0.149995699 -0.798367261 0.001130491 0.001252569 0 0 0 0
756000000 -0.190039038 -0.758675217 0.00135761 0.000852349 0 0 0 0
764000000 -0.49060139 -0.555006206 0.001428552 0.000719678 0 0 0 0
772000000 -0.661737561 -0.200687497 0.001512586 8.1998e-05 0 0 0 0
780000000 -0.593696534 0.2223237 0.001332197 -0.000592907 0 0 0 0
788000000 -0.243256643 0.533259987 0.000374768 -0.001744871 0 0 0 0
796000000 0.241396754 0.517020225 -0.001734164 -0.001761313 0 0 0 0
804000000 0.569209456 0.168033644 -0.003893092 0.000177572 0 0 0 0
812000000 0.547789216 -0.288123071 -0.003520595 0.003539982 0 0 0 0
820000000 0.260408282 -0.577102959 -0.0004269 0.005755728 0 0 0 0
828000000 -0.112490795 -0.63423711 0.003340715 0.005456215 0 0 0 0
836000000 -0.422331809 -0.502408921 0.005937578 0.003358518 0 0 0 0
844000000 -0.621712803 -0.263609081 0.007828944 0.000466673 0 0 0 0
852000000 -0.692977428 0.009120972 0.009178585 -0.003002422 0 0 0 0
860000000 -0.65847963 0.268801122 0.009364794 -0.007404978 0 0 0 0
868000000 -0.520221292 0.464457988 0.007137986 -0.013179893 0 0 0 0
876000000 -0.312470555 0.571949362 0.0010699 -0.019037995 0 0 0 0
884000000 -0.090801201 0.565566658 -0.010475502 -0.021368568 0 0 0 0
892000000 0.087478533 0.444139957 -0.026246735 -0.014378206 0 0 0 0
900000000 0.32267946 0.226348817 -0.036687437 0.011077929 0 0 0 0
908000000 0.26580432 0.099137522 -0.022127326 0.040658432 0 0 0 0
916000000 0.158880963 0.043757852 0.015929669 0.048107098 0 0 0 0
924000000 0.076407872 0.064553283 0.046112056 0.020421974 0 0 0 0
932000000 0.015527275 0.170829907 0.044130492 -0.01914047 0 0 0 0
940000000 0.095126383 0.322341054 0.015241294 -0.037400797 0 0 0 0
948000000 0.323517233 0.365964889 -0.009796095 -0.030800078 0 0 0 0
956000000 0.495642602 0.211383894 -0.018914906 -0.015048325 0 0 0 0
964000000 0.578478932 -0.035045478 -0.018168542 -0.001284603 0 0 0 0
972000000 0.505903065 -0.291749805 -0.012854099 0.006213332 0 0 0 0
980000000 0.29827696 -0.488500893 -0.005880847 0.00863935 0 0 0 0
988000000 0.048249129 -0.563971221 -0.001464907 0.008269624 0 0 0 0
996000000 -0.238812223 -0.521848142 0.000843469 0.005389038 0 0 0 0
1004000000 -0.478005111 -0.383009195 0.001200019 0.003725873 0 0 0 0
