# Hz S RI R 50
700000000 0.758851587 0.556082129 -6.5824e-05 0.00063635 0 0 0 0
708000000 0.864682376 0.30779457 4.8971e-05 0.000863498 0 0 0 0
716000000 0.898971736 0.033312201 0.000202414 0.001184963 0 0 0 0
724000000 0.838055133 -0.245284572 0.000305722 0.001568343 0 0 0 0
732000000 0.6964491 -0.502882361 0.000571917 0.001427877 0 0 0 0
740000000 0.457424432 -0.698367238 0.000834337 0.001445356 0 0 0 0
748000000 0.150341764 -0.797446429 0.001022187 0.001161734 0 0 0 0
756000000 -0.188987359 -0.756301462 0.001264348 0.000855296 0 0 0 0
764000000 -0.491393208 -0.555083394 0.001120345 0.000608312 0 0 0 0
772000000 -0.659574747 -0.198257714 0.001250588 0.000305683 0 0 0 0
780000000 -0.593308627 0.220408067 0.001253212 -0.000102457 0 0 0 0
788000000 -0.24830766 0.531522572 0.000627312 -0.001183327 0 0 0 0
796000000 0.235254421 0.520626664 -0.000851305 -0.001589901 0 0 0 0
804000000 0.564396262 0.17636308 -0.002756619 -0.000157401 0 0 0 0
812000000 0.550165176 -0.275972545 -0.002743437 0.002243458 0 0 0 0
820000000 0.271008044 -0.568421244 -0.000731775 0.004363976 0 0 0 0
828000000 -0.09975975 -0.633825659 0.001879214 0.004275177 0 0 0 0
836000000 -0.413002908 -0.509659886 0.003912045 0.002862983 0 0 0 0
844000000 -0.61833465 -0.275898307 0.005629509 0.001029819 0 0 0 0
852000000 -0.695615172 -0.003122656 0.007013794 -0.001058123 0 0 0 0
860000000 -0.664607942 0.259904325 0.008046166 -0.004374996 0 0 0 0
868000000 -0.526292622 0.461825847 0.007876477 -0.008912739 0 0 0 0
876000000 -0.319532722 0.569696724 0.005107209 -0.014475036 0 0 0 0
884000000 -0.100212313 0.566471397 -0.00262215 -0.019477134 0 0 0 0
892000000 0.073924317 0.445660114 -0.016446523 -0.019471207 0 0 0 0
900000000 0.30870369 0.234896928 -0.03326125 -0.003276292 0 0 0 0
908000000 0.273067891 0.124235548 -0.032749228 0.025622157 0 0 0 0
916000000 0.18628636 0.062802873 -0.004833589 0.04606945 0 0 0 0
924000000 0.103309646 0.061187122 0.032100997 0.036188401 0 0 0 0
932000000 0.028422402 0.140985339 0.046810567 0.000137312 0 0 0 0
940000000 0.073206797 0.303224265 0.028442002 -0.028486832 0 0 0 0
948000000 0.305411607 0.36441648 0.002576564 -0.032263655 0 0 0 0
956000000 0.489550173 0.214735195 -0.012080603 -0.021474909 0 0 0 0
964000000 0.577275037 -0.011819259 -0.016538161 -0.008525601 0 0 0 0
972000000 0.504122018 -0.277452588 -0.015163487 0.00050159 0 0 0 0
980000000 0.30997157 -0.471591472 -0.009807761 0.005430075 0 0 0 0
988000000 0.038077857 -0.562265813 -0.005517126 0.007161097 0 0 0 0
996000000 -0.237226292 -0.523436009 -0.002459915 0.006812586 0 0 0 0
1004000000 -0.478312373 -0.389993727 -0.000755851 0.006525961 0 0 0 0
