# Hz S RI R 50
700000000 0.756785988 0.557451546 -6.7545e-05 0.000648575 0 0 0 0
708000000 0.865474998 0.309849292 -1.4206e-05 0.001046534 0 0 0 0
716000000 0.898596286 0.035906512 0.000140896 0.00138478 0 0 0 0
724000000 0.844281196 -0.242273718 0.000426439 0.001529464 0 0 0 0
732000000 0.694004356 -0.502531051 0.000563898 0.001460118 0 0 0 0
740000000 0.460743337 -0.69790256 0.00096838 0.001443862 0 0 0 0
748000000 0.15139155 -0.797303617 0.001115217 0.001236662 0 0 0 0
756000000 -0.188777074 -0.75648725 0.001404009 0.000954852 0 0 0 0
764000000 -0.488960504 -0.554213643 0.001404934 0.000492526 0 0 0 0
772000000 -0.660915195 -0.202789083 0.00153212 2.879e-06 0 0 0 0
780000000 -0.590264618 0.218759089 0.001256785 -0.000834078 0 0 0 0
788000000 -0.246799692 0.528857052 0.000107847 -0.001715452 0 0 0 0
796000000 0.233909055 0.515375077 -0.002254373 -0.001520269 0 0 0 0
804000000 0.55938065 0.17230153 -0.004152469 0.000942835 0 0 0 0
812000000 0.544845402 -0.275003701 -0.002950239 0.004341212 0 0 0 0
820000000 0.262653291 -0.56214118 0.000574804 0.006218648 0 0 0 0
828000000 -0.104896724 -0.626363039 0.003858966 0.00522667 0 0 0 0
836000000 -0.414763331 -0.498223572 0.006613797 0.002921322 0 0 0 0
844000000 -0.610345602 -0.264463275 0.008186903 -0.000116616 0 0 0 0
852000000 -0.685477316 0.001160589 0.009142411 -0.00364648 0 0 0 0
860000000 -0.648411571 0.259627819 0.009075149 -0.008393527 0 0 0 0
868000000 -0.510353088 0.448052346 0.006269559 -0.014017421 0 0 0 0
876000000 -0.311815887 0.552181065 -0.000305435 -0.01941793 0 0 0 0
884000000 -0.102831661 0.545400083 -0.012250919 -0.020600266 0 0 0 0
892000000 0.054607443 0.424813151 -0.027506142 -0.011807599 0 0 0 0
900000000 0.285251647 0.232339963 -0.035361044 0.013693731 0 0 0 0
908000000 0.228436499 0.124598339 -0.017572969 0.04105452 0 0 0 0
916000000 0.162118181 0.102154962 0.019495904 0.043602652 0 0 0 0
924000000 0.121023155 0.110798485 0.045203763 0.01547098 0 0 0 0
932000000 0.0764798 0.154243737 0.038765087 -0.021076284 0 0 0 0
940000000 0.112308554 0.283161967 0.011446724 -0.03470702 0 0 0 0
948000000 0.321521759 0.324440866 -0.009775596 -0.02630697 0 0 0 0
956000000 0.500459551 0.189431011 -0.016108328 -0.012408233 0 0 0 0
964000000 0.567214608 -0.035085223 -0.015111349 -0.002280784 0 0 0 0
972000000 0.489117234 -0.283319413 -0.011467632 0.004413792 0 0 0 0
980000000 0.299687862 -0.485774517 -0.006064481 0.006892661 0 0 0 0
988000000 0.039533086 -0.552731513 -0.002436398 0.006747859 0 0 0 0
996000000 -0.25041294 -0.507239818 -0.000936377 0.005410455 0 0 0 0
1004000000 -0.484950661 -0.385845899 -0.000252724 0.004424937 0 0 0 0
