# Hz S RI R 50
700000000 0.761875629 0.554653584 -5.9486e-05 0.000591277 0 0 0 0
708000000 0.862236738 0.308825373 -0.000119659 0.001058599 0 0 0 0
716000000 0.898027658 0.035521611 0.00011138 0.001103997 0 0 0 0
724000000 0.844762682 -0.242822483 0.000177153 0.001443203 0 0 0 0
732000000 0.694723725 -0.501588344 0.000495145 0.001646949 0 0 0 0
740000000 0.457446724 -0.69916439 0.000890184 0.001560325 0 0 0 0
748000000 0.149180948 -0.796815991 0.001183562 0.001087461 0 0 0 0
756000000 -0.188778281 -0.757330536 0.001221064 0.000872795 0 0 0 0
764000000 -0.489485502 -0.553728044 0.001455822 0.000509972 0 0 0 0
772000000 -0.66128683 -0.201082304 0.001457365 -6.3286e-05 0 0 0 0
780000000 -0.592446625 0.222888097 0.001228378 -0.000926407 0 0 0 0
788000000 -0.244718626 0.528397381 3.8148e-05 -0.001741125 0 0 0 0
796000000 0.238921731 0.513828933 -0.002152926 -0.001730427 0 0 0 0
804000000 0.561576604 0.164807662 -0.004239267 0.000731648 0 0 0 0
812000000 0.539787888 -0.281484037 -0.003093401 0.004729158 0 0 0 0
820000000 0.254451096 -0.568864345 0.000328991 0.006596526 0 0 0 0
828000000 -0.113453887 -0.623097181 0.004356742 0.00566041 0 0 0 0
836000000 -0.420512557 -0.490914642 0.00719387 0.002919331 0 0 0 0
844000000 -0.612750351 -0.25819233 0.008723591 -0.000421601 0 0 0 0
852000000 -0.685872972 0.012627275 0.009444909 -0.004285583 0 0 0 0
860000000 -0.645373821 0.266000062 0.008777525 -0.009245679 0 0 0 0
868000000 -0.504474341 0.452858239 0.005551202 -0.015190283 0 0 0 0
876000000 -0.30012831 0.556810259 -0.001800497 -0.019961325 0 0 0 0
884000000 -0.091211915 0.539764106 -0.014379839 -0.020106447 0 0 0 0
892000000 0.069166474 0.411852091 -0.02939099 -0.00956265 0 0 0 0
900000000 0.280092924 0.215254545 -0.035022627 0.018025182 0 0 0 0
908000000 0.215131402 0.114975959 -0.013135159 0.044487897 0 0 0 0
916000000 0.142841771 0.098764307 0.026157708 0.043389208 0 0 0 0
924000000 0.09514942 0.111861765 0.049492519 0.009101546 0 0 0 0
932000000 0.057515434 0.181220918 0.036295004 -0.029429767 0 0 0 0
940000000 0.117072448 0.32029584 0.003703559 -0.03674373 0 0 0 0
948000000 0.344762444 0.341815322 -0.014633744 -0.022244414 0 0 0 0
956000000 0.521316587 0.187415197 -0.017202567 -0.008204942 0 0 0 0
964000000 0.575518667 -0.046342615 -0.013628486 0.001129207 0 0 0 0
972000000 0.500070333 -0.29835835 -0.009247225 0.005822215 0 0 0 0
980000000 0.298856228 -0.479259908 -0.004555035 0.007049122 0 0 0 0
988000000 0.033226728 -0.563119411 -0.001408674 0.006286806 0 0 0 0
996000000 -0.253406196 -0.512358486 0.00016188 0.004040674 0 0 0 0
1004000000 -0.478809505 -0.386214643 1.0603e-05 0.003185163 0 0 0 0
