# Hz S RI R 50
700000000 0.75472635 0.555682957 -3.9938e-05 0.000609049 0 0 0 0
708000000 0.864534437 0.311430662 1.059e-06 0.001102416 0 0 0 0
716000000 0.897588968 0.035031992 4.7893e-05 0.001257446 0 0 0 0
724000000 0.841692686 -0.249153703 0.000423969 0.001441894 0 0 0 0
732000000 0.695384323 -0.501434087 0.00048143 0.001520053 0 0 0 0
740000000 0.457198411 -0.6988011 0.00099268 0.001574201 0 0 0 0
748000000 0.15071319 -0.795943021 0.001143102 0.001281744 0 0 0 0
756000000 -0.188529849 -0.7571792 0.001263558 0.00100087 0 0 0 0
764000000 -0.489619314 -0.555594205 0.001428594 0.000611103 0 0 0 0
772000000 -0.660079658 -0.204457774 0.001507265 1.4572e-05 0 0 0 0
780000000 -0.59405601 0.221198499 0.001452003 -0.000711974 0 0 0 0
788000000 -0.25236544 0.53155446 0.000360885 -0.001662926 0 0 0 0
796000000 0.237061709 0.519843041 -0.001687467 -0.001775981 0 0 0 0
804000000 0.564974784 0.175337955 -0.003949292 0.000328812 0 0 0 0
812000000 0.550670444 -0.276352405 -0.003394483 0.003675707 0 0 0 0
820000000 0.267974197 -0.567986726 -0.000115694 0.006031525 0 0 0 0
828000000 -0.103363879 -0.630903303 0.003525997 0.0054313 0 0 0 0
836000000 -0.414386898 -0.504151761 0.006175318 0.003397523 0 0 0 0
844000000 -0.616221487 -0.272394895 0.008132715 0.00032784 0 0 0 0
852000000 -0.693462789 0.000438967 0.009411081 -0.003075185 0 0 0 0
860000000 -0.657347619 0.260551184 0.009347637 -0.007713599 0 0 0 0
868000000 -0.52255547 0.459784865 0.006783519 -0.013622016 0 0 0 0
876000000 -0.317204058 0.565556645 0.000708616 -0.019151959 0 0 0 0
884000000 -0.099278576 0.56482011 -0.010997607 -0.021306147 0 0 0 0
892000000 0.076288215 0.443546712 -0.026783928 -0.014005739 0 0 0 0
900000000 0.315053075 0.235509693 -0.038475222 0.011723923 0 0 0 0
908000000 0.251332789 0.10721632 -0.022022748 0.0420475 0 0 0 0
916000000 0.159354388 0.074708193 0.017292924 0.048742864 0 0 0 0
924000000 0.097401574 0.079222209 0.04811399 0.01994499 0 0 0 0
932000000 0.037186861 0.154564276 0.043903294 -0.021820969 0 0 0 0
940000000 0.096564799 0.311534732 0.012332968 -0.038498274 0 0 0 0
948000000 0.326837152 0.356817871 -0.011767579 -0.028268394 0 0 0 0
956000000 0.499129325 0.208659514 -0.017994517 -0.013196165 0 0 0 0
964000000 0.583148062 -0.032044522 -0.016489014 -0.000736364 0 0 0 0
972000000 0.497821301 -0.277889907 -0.011951118 0.005349406 0 0 0 0
980000000 0.307676434 -0.482757955 -0.006290865 0.00744777 0 0 0 0
988000000 0.032685972 -0.552559852 -0.00258939 0.007093728 0 0 0 0
996000000 -0.248001247 -0.50907731 0.000142465 0.005164558 0 0 0 0
1004000000 -0.48495537 -0.376679807 0.000722385 0.003887372 0 0 0 0
