# Hz S RI R 50
700000000 0.754185974 0.555843949 -0.000100465 0.000776105 0 0 0 0
708000000 0.865009248 0.309798091 4.0551e-05 0.001176339 0 0 0 0
716000000 0.896654486 0.035748295 0.000152619 0.001263595 0 0 0 0
724000000 0.842123687 -0.242437928 0.000281408 0.001394357 0 0 0 0
732000000 0.696406781 -0.500133275 0.000506762 0.001606372 0 0 0 0
740000000 0.458043515 -0.697881937 0.000950864 0.001558784 0 0 0 0
748000000 0.149275824 -0.797715246 0.001109817 0.001246173 0 0 0 0
756000000 -0.188150838 -0.756617903 0.001302831 0.000770564 0 0 0 0
764000000 -0.489578455 -0.554098606 0.00147429 0.000553823 0 0 0 0
772000000 -0.660367131 -0.2010324 0.001475756 6.4248e-05 0 0 0 0
780000000 -0.594841778 0.220106884 0.001186867 -0.000939011 0 0 0 0
788000000 -0.249487757 0.533810019 0.000171379 -0.001857892 0 0 0 0
796000000 0.234972342 0.520474731 -0.002141626 -0.001823988 0 0 0 0
804000000 0.5642066 0.177558839 -0.004399552 0.000769352 0 0 0 0
812000000 0.548231363 -0.276987761 -0.003375717 0.00454501 0 0 0 0
820000000 0.266488164 -0.568972706 0.000494405 0.006567856 0 0 0 0
828000000 -0.103269383 -0.631011128 0.004326395 0.005897929 0 0 0 0
836000000 -0.414274483 -0.506056845 0.007268982 0.003033637 0 0 0 0
844000000 -0.61565721 -0.268319189 0.008979317 -0.000479365 0 0 0 0
852000000 -0.692690849 0.002114802 0.009704692 -0.004337645 0 0 0 0
860000000 -0.657393693 0.25865072 0.009001902 -0.009206703 0 0 0 0
868000000 -0.523145198 0.45908606 0.005960857 -0.015372756 0 0 0 0
876000000 -0.315443933 0.567315995 -0.001622626 -0.020257284 0 0 0 0
884000000 -0.09889321 0.562320888 -0.014492017 -0.020567772 0 0 0 0
892000000 0.081054359 0.437394529 -0.029651885 -0.010206934 0 0 0 0
900000000 0.310510188 0.226239234 -0.035479888 0.017592968 0 0 0 0
908000000 0.24422422 0.100559011 -0.014474751 0.045251421 0 0 0 0
916000000 0.147778689 0.075751543 0.026186425 0.044181082 0 0 0 0
924000000 0.097667947 0.093265734 0.049865268 0.00913493 0 0 0 0
932000000 0.044223226 0.166181907 0.036401845 -0.028984969 0 0 0 0
940000000 0.10796222 0.310298353 0.003641262 -0.035924654 0 0 0 0
948000000 0.325806945 0.354605734 -0.013687253 -0.022768085 0 0 0 0
956000000 0.512860417 0.205944031 -0.016522221 -0.009095768 0 0 0 0
964000000 0.579431772 -0.034329019 -0.013975157 -9.539e-05 0 0 0 0
972000000 0.49367389 -0.287406474 -0.010082405 0.00504129 0 0 0 0
980000000 0.306506663 -0.481603354 -0.004835313 0.006848931 0 0 0 0
988000000 0.032797653 -0.564099609 -0.001424483 0.006087381 0 0 0 0
996000000 -0.247969061 -0.52119106 0.00013918 0.004207319 0 0 0 0
1004000000 -0.480332791 -0.384663492 0.000223771 0.003632459 0 0 0 0
