# Hz S RI R 50
700000000 0.757622599 0.557679414 -4.0503e-05 0.000720788 0 0 0 0
708000000 0.864171326 0.308100253 -0.000149293 0.00099448 0 0 0 0
716000000 0.898173511 0.033006191 7.2025e-05 0.001296943 0 0 0 0
724000000 0.843215703 -0.243039309 0.000198674 0.001317399 0 0 0 0
732000000 0.695743739 -0.499523729 0.00044328 0.00156819 0 0 0 0
740000000 0.458915323 -0.701404094 0.000796863 0.001422033 0 0 0 0
748000000 0.150045305 -0.797041535 0.001140972 0.001169439 0 0 0 0
756000000 -0.189801514 -0.759251236 0.001223021 0.000943151 0 0 0 0
764000000 -0.491763651 -0.555035173 0.00115133 0.000682246 0 0 0 0
772000000 -0.663059055 -0.200730696 0.001542863 0.000408299 0 0 0 0
780000000 -0.594744741 0.218140855 0.00143922 -0.000329687 0 0 0 0
788000000 -0.255923718 0.531854927 0.000912344 -0.001146622 0 0 0 0
796000000 0.232949331 0.524547576 -0.000880732 -0.001924107 0 0 0 0
804000000 0.563976109 0.184586286 -0.002994223 -0.000499227 0 0 0 0
812000000 0.560001671 -0.271393865 -0.003241142 0.002258475 0 0 0 0
820000000 0.278721243 -0.567531168 -0.000869628 0.004581088 0 0 0 0
828000000 -0.095097161 -0.640406072 0.001759162 0.004709127 0 0 0 0
836000000 -0.410517632 -0.518009364 0.00420391 0.003406844 0 0 0 0
844000000 -0.618926644 -0.281500697 0.005914556 0.001351414 0 0 0 0
852000000 -0.702273905 -0.007214029 0.007323893 -0.000905709 0 0 0 0
860000000 -0.668136537 0.2619538 0.008698605 -0.004091147 0 0 0 0
868000000 -0.535132586 0.464553594 0.008478169 -0.009082476 0 0 0 0
876000000 -0.324239611 0.579830825 0.005796824 -0.015176349 0 0 0 0
884000000 -0.102342702 0.579380214 -0.002379734 -0.020757926 0 0 0 0
892000000 0.084839537 0.455928653 -0.017511351 -0.020907733 0 0 0 0
900000000 0.33626914 0.235211536 -0.035895057 -0.003194482 0 0 0 0
908000000 0.267564058 0.115365341 -0.034151956 0.027814872 0 0 0 0
916000000 0.182535246 0.057638149 -0.003801043 0.048147797 0 0 0 0
924000000 0.101401701 0.066319644 0.033699464 0.03682186 0 0 0 0
932000000 0.042016178 0.132835686 0.048645883 -0.000428358 0 0 0 0
940000000 0.07445801 0.2903122 0.029081288 -0.03045931 0 0 0 0
948000000 0.290398746 0.361789852 0.002249127 -0.03380607 0 0 0 0
956000000 0.485023409 0.232824772 -0.01342901 -0.022303318 0 0 0 0
964000000 0.577891588 -0.016283635 -0.017138499 -0.008561902 0 0 0 0
972000000 0.516516208 -0.270916223 -0.015360775 0.000750205 0 0 0 0
980000000 0.316212147 -0.480650037 -0.010058862 0.006021875 0 0 0 0
988000000 0.050656955 -0.563243925 -0.005667559 0.0078722 0 0 0 0
996000000 -0.234819859 -0.516335368 -0.002499181 0.006996313 0 0 0 0
1004000000 -0.47887811 -0.398336023 -0.000827428 0.006333884 0 0 0 0
