# Hz S RI R 50
700000000 0.757627785 0.55967915 3.3827e-05 0.000705754 0 0 0 0
708000000 0.863603889 0.309887588 -0.000163271 0.001047407 0 0 0 0
716000000 0.899267554 0.035746078 4.4012e-05 0.001237841 0 0 0 0
724000000 0.843744397 -0.240399003 0.000230535 0.001292349 0 0 0 0
732000000 0.694967389 -0.500294506 0.000531259 0.001595618 0 0 0 0
740000000 0.456474363 -0.697649478 0.000729845 0.001272714 0 0 0 0
748000000 0.149024382 -0.798270642 0.00115558 0.001280808 0 0 0 0
756000000 -0.190232306 -0.759065628 0.001291323 0.001018599 0 0 0 0
764000000 -0.489641129 -0.556331753 0.001166473 0.000658831 0 0 0 0
772000000 -0.660081207 -0.204656124 0.001350818 0.000368711 0 0 0 0
780000000 -0.594627261 0.219067454 0.001369469 -0.000195437 0 0 0 0
788000000 -0.252463966 0.530933797 0.001088709 -0.001199795 0 0 0 0
796000000 0.23190777 0.524820923 -0.000545785 -0.001931078 0 0 0 0
804000000 0.563375473 0.183405458 -0.00275106 -0.000982252 0 0 0 0
812000000 0.555494606 -0.2708323 -0.003276882 0.001682578 0 0 0 0
820000000 0.274247735 -0.571466147 -0.001370002 0.004041496 0 0 0 0
828000000 -0.096950583 -0.637044548 0.00096844 0.004427952 0 0 0 0
836000000 -0.41193968 -0.5114367 0.003196516 0.003910216 0 0 0 0
844000000 -0.61892265 -0.277357876 0.005653912 0.002239215 0 0 0 0
852000000 -0.70130515 -0.005501844 0.007341975 -4.4213e-05 0 0 0 0
860000000 -0.665077984 0.259291142 0.008973689 -0.003118418 0 0 0 0
868000000 -0.53317064 0.462448865 0.009484884 -0.008303521 0 0 0 0
876000000 -0.322864025 0.570469498 0.007201086 -0.01501559 0 0 0 0
884000000 -0.102891594 0.571770906 -0.000863637 -0.02135298 0 0 0 0
892000000 0.076358594 0.451246649 -0.016226066 -0.022342242 0 0 0 0
900000000 0.310639292 0.242496281 -0.03657861 -0.006831809 0 0 0 0
908000000 0.276260137 0.110354967 -0.03639654 0.024568375 0 0 0 0
916000000 0.184764415 0.062760822 -0.008660124 0.047777883 0 0 0 0
924000000 0.105556465 0.055218707 0.029806939 0.039783142 0 0 0 0
932000000 0.034047394 0.127292558 0.048178181 0.004792245 0 0 0 0
940000000 0.065048769 0.281813144 0.03291282 -0.025832779 0 0 0 0
948000000 0.296007841 0.369004368 0.00716403 -0.033787835 0 0 0 0
956000000 0.48548305 0.221749275 -0.010198045 -0.024722781 0 0 0 0
964000000 0.578760921 -0.014241635 -0.017122844 -0.011852234 0 0 0 0
972000000 0.508533895 -0.27192232 -0.016557356 -0.001350008 0 0 0 0
980000000 0.319825649 -0.470767676 -0.011314455 0.004878944 0 0 0 0
988000000 0.053323395 -0.562413036 -0.007082675 0.007791257 0 0 0 0
996000000 -0.238780915 -0.521959245 -0.003143453 0.007355462 0 0 0 0
1004000000 -0.484931796 -0.394819825 -0.001350185 0.006725031 0 0 0 0
