# Hz S RI R 50
700000000 0.754957914 0.55164057 3.4868e-05 0.000682973 0 0 0 0
708000000 0.864378213 0.307785749 1.1396e-05 0.000987383 0 0 0 0
716000000 0.900564908 0.03483482 0.000262467 0.001288914 0 0 0 0
724000000 0.841100037 -0.249171957 0.000284423 0.001482113 0 0 0 0
732000000 0.694360971 -0.502282857 0.000536901 0.001474415 0 0 0 0
740000000 0.457212597 -0.69912225 0.000876267 0.001510722 0 0 0 0
748000000 0.151927784 -0.798189938 0.0011067 0.001163425 0 0 0 0
756000000 -0.186354368 -0.759385943 0.001344489 0.000884972 0 0 0 0
764000000 -0.489092439 -0.559900701 0.001250616 0.000457846 0 0 0 0
772000000 -0.658899486 -0.204436674 0.001471831 6.926e-05 0 0 0 0
780000000 -0.599906086 0.215419158 0.001146565 -0.000635978 0 0 0 0
788000000 -0.257663071 0.527313411 0.000272597 -0.001501421 0 0 0 0
796000000 0.22941935 0.524240076 -0.00146433 -0.001598814 0 0 0 0
804000000 0.562933921 0.186280414 -0.003415136 0.0002989 0 0 0 0
812000000 0.556251943 -0.268707185 -0.003103582 0.003256021 0 0 0 0
820000000 0.275203794 -0.565072357 -0.000381957 0.005525477 0 0 0 0
828000000 -0.099495984 -0.635070323 0.003216391 0.00515232 0 0 0 0
836000000 -0.410311639 -0.510007202 0.005597401 0.003222265 0 0 0 0
844000000 -0.619369387 -0.276852369 0.007488497 0.000434233 0 0 0 0
852000000 -0.692974567 -0.005205974 0.008624888 -0.00270547 0 0 0 0
860000000 -0.661848247 0.255442082 0.008941961 -0.00705826 0 0 0 0
868000000 -0.528295636 0.45530343 0.00709162 -0.012724175 0 0 0 0
876000000 -0.327573329 0.567289829 0.001652982 -0.0182163 0 0 0 0
884000000 -0.108258701 0.564455091 -0.008924503 -0.021274894 0 0 0 0
892000000 0.075195066 0.451794177 -0.024994809 -0.015363638 0 0 0 0
900000000 0.316185563 0.233561515 -0.037928067 0.007570195 0 0 0 0
908000000 0.259604752 0.116705194 -0.02538578 0.03914465 0 0 0 0
916000000 0.181855946 0.080049954 0.012865032 0.049389023 0 0 0 0
924000000 0.112487003 0.073139026 0.04631377 0.024986872 0 0 0 0
932000000 0.054828383 0.135996475 0.047273796 -0.017065538 0 0 0 0
940000000 0.087509967 0.285405546 0.018102472 -0.039393644 0 0 0 0
948000000 0.295000076 0.348696738 -0.009305996 -0.03268744 0 0 0 0
956000000 0.490520864 0.214841201 -0.0194444 -0.016145821 0 0 0 0
964000000 0.571911692 -0.024409575 -0.01910524 -0.002091678 0 0 0 0
972000000 0.501217901 -0.281023591 -0.013840463 0.006056341 0 0 0 0
980000000 0.30640906 -0.477319478 -0.006780017 0.008973013 0 0 0 0
988000000 0.045019127 -0.563027858 -0.001788568 0.008665389 0 0 0 0
996000000 -0.24293147 -0.524850726 0.000622458 0.006092362 0 0 0 0
1004000000 -0.473094522 -0.385335326 0.001117075 0.004540363 0 0 0 0
