# Hz S RI R 50
700000000 0.756726503 0.550491631 -3.422e-05 0.000675472 0 0 0 0
708000000 0.86482656 0.30953893 -4.5915e-05 0.000939217 0 0 0 0
716000000 0.895141601 0.033082764 0.000151032 0.001130756 0 0 0 0
724000000 0.842842578 -0.242854565 0.000307824 0.001509528 0 0 0 0
732000000 0.695023179 -0.500837385 0.000566567 0.00160451 0 0 0 0
740000000 0.458306849 -0.697955608 0.000895666 0.001276718 0 0 0 0
748000000 0.153068229 -0.797834157 0.001196019 0.001315102 0 0 0 0
756000000 -0.186974123 -0.759408891 0.001111438 0.000862191 0 0 0 0
764000000 -0.491314262 -0.558156013 0.001251917 0.000567976 0 0 0 0
772000000 -0.659583747 -0.204361215 0.001003552 0.000470405 0 0 0 0
780000000 -0.59749794 0.215340927 0.001118814 -9.1808e-05 0 0 0 0
788000000 -0.257293611 0.530365765 0.000635227 -0.000631565 0 0 0 0
796000000 0.227795794 0.528678596 -0.000506512 -0.001000935 0 0 0 0
804000000 0.561707496 0.185758724 -0.002374545 -0.000213084 0 0 0 0
812000000 0.556325078 -0.26658222 -0.002234321 0.002084573 0 0 0 0
820000000 0.280954718 -0.567157626 -0.000429348 0.003540555 0 0 0 0
828000000 -0.089479997 -0.63579148 0.001858985 0.003557701 0 0 0 0
836000000 -0.404993414 -0.515398263 0.003563833 0.002325877 0 0 0 0
844000000 -0.618801116 -0.283303558 0.005086079 0.000801029 0 0 0 0
852000000 -0.697968125 -0.011750936 0.006222565 -0.001108599 0 0 0 0
860000000 -0.671451568 0.25178495 0.007166697 -0.003940037 0 0 0 0
868000000 -0.543135762 0.458353817 0.006925209 -0.008000565 0 0 0 0
876000000 -0.33223173 0.57567203 0.004834081 -0.012856195 0 0 0 0
884000000 -0.109831556 0.581890881 -0.001805167 -0.017628941 0 0 0 0
892000000 0.074577637 0.466989904 -0.014112095 -0.01791808 0 0 0 0
900000000 0.337667584 0.255799233 -0.029544057 -0.004995791 0 0 0 0
908000000 0.290875822 0.121062278 -0.029934965 0.02146548 0 0 0 0
916000000 0.19807738 0.054103534 -0.005691478 0.04033105 0 0 0 0
924000000 0.110122397 0.044324971 0.025604711 0.032961901 0 0 0 0
932000000 0.02687728 0.12155617 0.040288165 0.005437082 0 0 0 0
940000000 0.056197743 0.303809285 0.029971931 -0.021395293 0 0 0 0
948000000 0.290907949 0.368514508 0.008281741 -0.030093308 0 0 0 0
956000000 0.488559991 0.219229042 -0.008726335 -0.02400526 0 0 0 0
964000000 0.580885946 -0.019162304 -0.016123007 -0.011552149 0 0 0 0
972000000 0.512634515 -0.27948749 -0.01594094 -0.001385149 0 0 0 0
980000000 0.320353895 -0.476743161 -0.011569811 0.005065442 0 0 0 0
988000000 0.045027527 -0.56034559 -0.006573578 0.00764777 0 0 0 0
996000000 -0.237265542 -0.527490794 -0.002609736 0.007624725 0 0 0 0
1004000000 -0.479877829 -0.393288999 -0.001477255 0.006116479 0 0 0 0
