# Hz S RI R 50
700000000 0.756981492 0.550339818 -7.4177e-05 0.000571729 0 0 0 0
708000000 0.862736046 0.305219888 -4.3119e-05 0.00112844 0 0 0 0
716000000 0.899597525 0.036015961 0.000167902 0.001454759 0 0 0 0
724000000 0.841601252 -0.242263555 0.000445424 0.001598349 0 0 0 0
732000000 0.693727612 -0.502870321 0.000821283 0.001456636 0 0 0 0
740000000 0.458120673 -0.697919368 0.000922933 0.001207065 0 0 0 0
748000000 0.149072498 -0.797084987 0.00101267 0.001241072 0 0 0 0
756000000 -0.188810169 -0.757461011 0.001241311 0.0010159 0 0 0 0
764000000 -0.489592045 -0.55431962 0.001520265 0.000746186 0 0 0 0
772000000 -0.660575032 -0.201343923 0.001587227 0.00015373 0 0 0 0
780000000 -0.592717409 0.217561438 0.00159421 -0.00083861 0 0 0 0
788000000 -0.251863539 0.529660701 0.000268814 -0.001908997 0 0 0 0
796000000 0.231956422 0.519671738 -0.002145107 -0.002203972 0 0 0 0
804000000 0.560237705 0.176271036 -0.004845522 0.000464848 0 0 0 0
812000000 0.551018476 -0.271388024 -0.003661258 0.004923624 0 0 0 0
820000000 0.269907355 -0.564995467 0.000127207 0.007090705 0 0 0 0
828000000 -0.100489079 -0.629705846 0.004023737 0.006229073 0 0 0 0
836000000 -0.410705208 -0.501288294 0.007500153 0.003792489 0 0 0 0
844000000 -0.61453998 -0.273558199 0.009628428 -9.8183e-05 0 0 0 0
852000000 -0.689081549 0.001910279 0.010925904 -0.004694785 0 0 0 0
860000000 -0.659438133 0.261175662 0.010593892 -0.010612374 0 0 0 0
868000000 -0.521096646 0.457560926 0.006271376 -0.018001064 0 0 0 0
876000000 -0.312201082 0.566231667 -0.004101646 -0.02371498 0 0 0 0
884000000 -0.097450517 0.555153012 -0.020570214 -0.021132225 0 0 0 0
892000000 0.06825938 0.425322324 -0.03524759 -0.003544058 0 0 0 0
900000000 0.289854615 0.225604727 -0.03260811 0.027889845 0 0 0 0
908000000 0.229641616 0.12709625 -0.002474545 0.046359706 0 0 0 0
916000000 0.16210021 0.087311647 0.031094862 0.033896189 0 0 0 0
924000000 0.106424003 0.08728113 0.0426757 0.00159534 0 0 0 0
932000000 0.034213256 0.175322011 0.028170084 -0.024572376 0 0 0 0
940000000 0.108434922 0.312090694 0.006582648 -0.030297912 0 0 0 0
948000000 0.338339865 0.352172046 -0.009603871 -0.022684628 0 0 0 0
956000000 0.498948395 0.198350012 -0.014994953 -0.011440477 0 0 0 0
964000000 0.568502902 -0.041270572 -0.015112831 -0.001392407 0 0 0 0
972000000 0.490816116 -0.295613765 -0.010913409 0.004637027 0 0 0 0
980000000 0.303963601 -0.480695337 -0.005673801 0.006449243 0 0 0 0
988000000 0.033223174 -0.563433766 -0.002528967 0.007039407 0 0 0 0
996000000 -0.250786334 -0.511549711 -0.000718311 0.004960806 0 0 0 0
1004000000 -0.493376374 -0.377070754 -0.000192424 0.003574764 0 0 0 0
