# Hz S RI R 50
700000000 0.757534205 0.557107865 -1.393e-06 0.000729235 0 0 0 0
708000000 0.866352915 0.308563917 4.9887e-05 0.00106144 0 0 0 0
716000000 0.895037412 0.036774158 2.077e-05 0.001216422 0 0 0 0
724000000 0.846478164 -0.245514735 0.000232461 0.001524467 0 0 0 0
732000000 0.697544276 -0.501291871 0.000507886 0.001592609 0 0 0 0
740000000 0.459099441 -0.697458148 0.000846005 0.00133179 0 0 0 0
748000000 0.1512288 -0.796706199 0.001120108 0.001245786 0 0 0 0
756000000 -0.186668783 -0.756174862 0.001393036 0.000783505 0 0 0 0
764000000 -0.489996492 -0.557429373 0.00144366 0.000646683 0 0 0 0
772000000 -0.660125374 -0.204090252 0.001506018 -3.1137e-05 0 0 0 0
780000000 -0.596257507 0.217355623 0.001065051 -0.000815318 0 0 0 0
788000000 -0.252429842 0.527488648 4.0256e-05 -0.001768229 0 0 0 0
796000000 0.22702223 0.522633254 -0.002223981 -0.001542861 0 0 0 0
804000000 0.560195088 0.180387422 -0.004079631 0.000935295 0 0 0 0
812000000 0.549020767 -0.271796196 -0.003257711 0.0044284 0 0 0 0
820000000 0.269498139 -0.561670303 0.000480699 0.006416124 0 0 0 0
828000000 -0.097751796 -0.627609729 0.00423666 0.005418393 0 0 0 0
836000000 -0.412206649 -0.501822888 0.0070086 0.002942414 0 0 0 0
844000000 -0.610904276 -0.271759241 0.008687508 -0.000372141 0 0 0 0
852000000 -0.686191201 -3.6814e-05 0.009388246 -0.004355767 0 0 0 0
860000000 -0.654498279 0.256125926 0.008663648 -0.009167347 0 0 0 0
868000000 -0.520526885 0.451246142 0.005539047 -0.014613716 0 0 0 0
876000000 -0.317703187 0.555158734 -0.00146417 -0.01936756 0 0 0 0
884000000 -0.105781197 0.554671347 -0.013378763 -0.019791034 0 0 0 0
892000000 0.065294779 0.437140941 -0.028283627 -0.010393425 0 0 0 0
900000000 0.294494986 0.231692492 -0.034335013 0.015944028 0 0 0 0
908000000 0.23788248 0.124144583 -0.016101172 0.043013732 0 0 0 0
916000000 0.163993969 0.105747647 0.022796243 0.044392477 0 0 0 0
924000000 0.122128508 0.103180199 0.048180382 0.012597184 0 0 0 0
932000000 0.071668229 0.149689063 0.038708969 -0.026404511 0 0 0 0
940000000 0.112937644 0.284528285 0.006548793 -0.037285745 0 0 0 0
948000000 0.315978467 0.330714583 -0.012972549 -0.0241286 0 0 0 0
956000000 0.492020815 0.191552147 -0.016902258 -0.009993678 0 0 0 0
964000000 0.560628533 -0.031813587 -0.014664222 -0.00010386 0 0 0 0
972000000 0.492692649 -0.274891287 -0.010668545 0.005588781 0 0 0 0
980000000 0.296346753 -0.475834876 -0.005023905 0.007723078 0 0 0 0
988000000 0.037017494 -0.55416119 -0.001258902 0.006758225 0 0 0 0
996000000 -0.246732518 -0.521144926 0.000361425 0.004400175 0 0 0 0
1004000000 -0.46952179 -0.373362511 0.000105046 0.003383531 0 0 0 0
