# Hz S RI R 50
700000000 0.755053639 0.558210134 -4.8819e-05 0.000775307 0 0 0 0
708000000 0.864585161 0.307953417 -0.000124601 0.000927502 0 0 0 0
716000000 0.8969962 0.035401761 5.942e-05 0.001324257 0 0 0 0
724000000 0.844272732 -0.250640779 0.000418597 0.001394617 0 0 0 0
732000000 0.694635689 -0.502633571 0.000620949 0.001689073 0 0 0 0
740000000 0.455913633 -0.699564695 0.000918576 0.001591888 0 0 0 0
748000000 0.14663805 -0.79505223 0.001091639 0.001234619 0 0 0 0
756000000 -0.193266198 -0.755242049 0.001411663 0.001082796 0 0 0 0
764000000 -0.494243711 -0.550379037 0.001361978 0.000588013 0 0 0 0
772000000 -0.661957502 -0.192677155 0.001538893 -3.3736e-05 0 0 0 0
780000000 -0.584052741 0.233917608 0.001184816 -0.001063831 0 0 0 0
788000000 -0.227639943 0.53206104 -0.00010894 -0.00190343 0 0 0 0
796000000 0.258889704 0.50119245 -0.002407681 -0.001962812 0 0 0 0
804000000 0.566793262 0.137967437 -0.004617343 0.000916484 0 0 0 0
812000000 0.527802646 -0.30520302 -0.003276938 0.004826775 0 0 0 0
820000000 0.231928214 -0.5748986 0.00047552 0.006949702 0 0 0 0
828000000 -0.136297315 -0.616385638 0.004435492 0.00587897 0 0 0 0
836000000 -0.431828528 -0.476130127 0.007096111 0.00316574 0 0 0 0
844000000 -0.616653442 -0.234938979 0.009011442 -0.000358498 0 0 0 0
852000000 -0.676182985 0.035499636 0.009831814 -0.004519224 0 0 0 0
860000000 -0.624220192 0.281328707 0.009389055 -0.009630452 0 0 0 0
868000000 -0.482565045 0.458660364 0.005742776 -0.015821443 0 0 0 0
876000000 -0.277952551 0.54875487 -0.002227635 -0.020690111 0 0 0 0
884000000 -0.075920328 0.519102752 -0.01539158 -0.020493494 0 0 0 0
892000000 0.075619339 0.393070459 -0.030477747 -0.008966103 0 0 0 0
900000000 0.276897609 0.19492495 -0.035095438 0.019323468 0 0 0 0
908000000 0.198995873 0.095996208 -0.011725617 0.045356433 0 0 0 0
916000000 0.115356586 0.084119848 0.027384519 0.041727833 0 0 0 0
924000000 0.052942059 0.117565929 0.048623181 0.006649301 0 0 0 0
932000000 0.031699601 0.237780094 0.03306004 -0.028715381 0 0 0 0
940000000 0.154035508 0.361807912 0.003780306 -0.033322297 0 0 0 0
948000000 0.382392317 0.346919953 -0.01191041 -0.021831016 0 0 0 0
956000000 0.540206909 0.164124608 -0.01549735 -0.009188067 0 0 0 0
964000000 0.583525657 -0.077941119 -0.013314149 -0.00048577 0 0 0 0
972000000 0.486771434 -0.305094838 -0.009909979 0.004634012 0 0 0 0
980000000 0.288062691 -0.500652849 -0.004850609 0.006463224 0 0 0 0
988000000 0.017861921 -0.572186589 -0.002061706 0.006514373 0 0 0 0
996000000 -0.262104749 -0.512990772 0.000332635 0.005055586 0 0 0 0
1004000000 -0.501657485 -0.382874339 0.00059773 0.00298547 0 0 0 0
