# Hz S RI R 50
700000000 0.757626473 0.551059722 -4.2341e-05 0.000694524 0 0 0 0
708000000 0.863937497 0.307787686 -4.5522e-05 0.001024819 0 0 0 0
716000000 0.893471121 0.03468322 7.3915e-05 0.001350081 0 0 0 0
724000000 0.838009715 -0.241837441 0.000137211 0.001529314 0 0 0 0
732000000 0.694486498 -0.499987453 0.000568538 0.001509938 0 0 0 0
740000000 0.456425815 -0.695848941 0.000837741 0.001372802 0 0 0 0
748000000 0.150541171 -0.793976366 0.001052044 0.001416328 0 0 0 0
756000000 -0.189431145 -0.755330502 0.001275195 0.001175609 0 0 0 0
764000000 -0.489638715 -0.550892889 0.001273671 0.001060066 0 0 0 0
772000000 -0.657672047 -0.196362435 0.001629431 0.000659242 0 0 0 0
780000000 -0.585620641 0.223012626 0.001931543 1.7588e-05 0 0 0 0
788000000 -0.235588893 0.522614121 0.001491692 -0.001463909 0 0 0 0
796000000 0.237355053 0.505348443 -0.00040295 -0.002479564 0 0 0 0
804000000 0.554780542 0.158210963 -0.003232609 -0.001721196 0 0 0 0
812000000 0.530748724 -0.282457947 -0.004285641 0.00141406 0 0 0 0
820000000 0.251633733 -0.563673436 -0.0023563 0.004212151 0 0 0 0
828000000 -0.116636931 -0.618002176 0.000654891 0.005355348 0 0 0 0
836000000 -0.419058948 -0.486852437 0.003683681 0.004511802 0 0 0 0
844000000 -0.61121124 -0.251699626 0.006103342 0.002793496 0 0 0 0
852000000 -0.681165099 0.016201863 0.007959636 0.000615307 0 0 0 0
860000000 -0.636559724 0.269213616 0.010023243 -0.003068556 0 0 0 0
868000000 -0.497122615 0.455622971 0.010130851 -0.008581685 0 0 0 0
876000000 -0.292139738 0.543907523 0.007728112 -0.015818724 0 0 0 0
884000000 -0.087575413 0.522824764 -0.000945498 -0.022813234 0 0 0 0
892000000 0.054244991 0.398782998 -0.017363309 -0.023204594 0 0 0 0
900000000 0.264247089 0.21633622 -0.037185568 -0.006339384 0 0 0 0
908000000 0.215115398 0.134876519 -0.036353103 0.02537398 0 0 0 0
916000000 0.151546552 0.106953807 -0.007921424 0.047367054 0 0 0 0
924000000 0.098448313 0.1052877 0.02842549 0.039588045 0 0 0 0
932000000 0.052952114 0.189112529 0.046511538 0.006104819 0 0 0 0
940000000 0.126912266 0.321622014 0.032126024 -0.023753393 0 0 0 0
948000000 0.353455066 0.339491873 0.008933492 -0.031893439 0 0 0 0
956000000 0.508083343 0.187137246 -0.007205478 -0.02523468 0 0 0 0
964000000 0.571696102 -0.051241677 -0.015403253 -0.013359288 0 0 0 0
972000000 0.481144785 -0.292375653 -0.016472391 -0.003227665 0 0 0 0
980000000 0.288198798 -0.488310545 -0.0129557 0.00348004 0 0 0 0
988000000 0.025181777 -0.558675706 -0.008241566 0.00761155 0 0 0 0
996000000 -0.242517799 -0.506189405 -0.004246143 0.007377208 0 0 0 0
1004000000 -0.479917883 -0.37236312 -0.001451612 0.007111511 0 0 0 0
