# Hz S RI R 50
700000000 0.756530463 0.548988938 1.3609e-05 0.000647171 0 0 0 0
708000000 0.864530026 0.307158529 -3.859e-06 0.000994072 0 0 0 0
716000000 0.893226444 0.035322003 5.5293e-05 0.001312481 0 0 0 0
724000000 0.838389873 -0.245610535 0.000251114 0.001457673 0 0 0 0
732000000 0.695189058 -0.501796483 0.000549437 0.001591673 0 0 0 0
740000000 0.459807366 -0.700052499 0.00080868 0.001474152 0 0 0 0
748000000 0.149727448 -0.797974586 0.00125896 0.001088013 0 0 0 0
756000000 -0.190633594 -0.757596552 0.001296512 0.000983122 0 0 0 0
764000000 -0.490500122 -0.556539237 0.001165592 0.000574139 0 0 0 0
772000000 -0.66080892 -0.202436074 0.001106195 0.000431933 0 0 0 0
780000000 -0.59638071 0.21982178 0.001226859 -0.000231728 0 0 0 0
788000000 -0.254024118 0.527080118 0.000614696 -0.000834932 0 0 0 0
796000000 0.225530862 0.525807261 -0.000654973 -0.001142692 0 0 0 0
804000000 0.564866423 0.184599041 -0.002269871 -4.3416e-05 0 0 0 0
812000000 0.553700923 -0.266768068 -0.002305991 0.002018367 0 0 0 0
820000000 0.278838902 -0.56518656 -0.000456227 0.003740025 0 0 0 0
828000000 -0.092234581 -0.636244535 0.001771863 0.003745721 0 0 0 0
836000000 -0.406557559 -0.517879605 0.003664158 0.002638913 0 0 0 0
844000000 -0.618141651 -0.280071318 0.005325686 0.000951141 0 0 0 0
852000000 -0.701132893 -0.009688212 0.006445338 -0.000971836 0 0 0 0
860000000 -0.671124994 0.252043724 0.00746058 -0.003952573 0 0 0 0
868000000 -0.538400709 0.456127345 0.007424028 -0.008285185 0 0 0 0
876000000 -0.335674762 0.575673699 0.005048492 -0.013152512 0 0 0 0
884000000 -0.11028549 0.582048296 -0.00171019 -0.01819588 0 0 0 0
892000000 0.076297804 0.47163245 -0.014387137 -0.018636034 0 0 0 0
900000000 0.335532397 0.258289366 -0.030480822 -0.005160201 0 0 0 0
908000000 0.287455081 0.117519162 -0.031324245 0.021947134 0 0 0 0
916000000 0.190999418 0.046819861 -0.006871405 0.041924435 0 0 0 0
924000000 0.114928402 0.046453133 0.025871539 0.035124693 0 0 0 0
932000000 0.024967683 0.119234412 0.042156275 0.005082705 0 0 0 0
940000000 0.073238022 0.283095389 0.030914729 -0.022475641 0 0 0 0
948000000 0.295298516 0.3582412 0.008003397 -0.031178271 0 0 0 0
956000000 0.484598278 0.220859467 -0.009360905 -0.024472197 0 0 0 0
964000000 0.565071165 -0.015103814 -0.017047666 -0.01164127 0 0 0 0
972000000 0.507448136 -0.264306396 -0.01695799 -0.001084944 0 0 0 0
980000000 0.320265144 -0.478481292 -0.011114133 0.006157747 0 0 0 0
988000000 0.047152135 -0.565822005 -0.006546622 0.008188141 0 0 0 0
996000000 -0.24100545 -0.523354172 -0.002711935 0.00731207 0 0 0 0
1004000000 -0.475195169 -0.380894213 -0.00089882 0.006176734 0 0 0 0
