# Hz S RI R 50
700000000 0.755098283 0.550336897 -6.4895e-05 0.000668549 0 0 0 0
708000000 0.865483105 0.308083862 -1.4756e-05 0.000990288 0 0 0 0
716000000 0.895081222 0.035994865 -4.844e-06 0.001164446 0 0 0 0
724000000 0.843571901 -0.241802155 0.000288816 0.001643201 0 0 0 0
732000000 0.696600794 -0.502214848 0.000467931 0.001552178 0 0 0 0
740000000 0.45739147 -0.700857579 0.000912831 0.001475044 0 0 0 0
748000000 0.149230629 -0.798086225 0.00126978 0.001340991 0 0 0 0
756000000 -0.19026947 -0.756932437 0.001501968 0.001110058 0 0 0 0
764000000 -0.490980356 -0.551340639 0.001497442 0.000766857 0 0 0 0
772000000 -0.661620914 -0.199561357 0.001704069 0.000128253 0 0 0 0
780000000 -0.58873862 0.224958792 0.001633092 -0.000709602 0 0 0 0
788000000 -0.236763313 0.529730498 0.000616739 -0.002062488 0 0 0 0
796000000 0.246552884 0.508981347 -0.001763003 -0.002462697 0 0 0 0
804000000 0.560053765 0.157109811 -0.004479373 -0.000341323 0 0 0 0
812000000 0.530295431 -0.290302544 -0.004349152 0.00384864 0 0 0 0
820000000 0.243264064 -0.569388806 -0.000836 0.006682569 0 0 0 0
828000000 -0.124924995 -0.620204031 0.003297857 0.006428788 0 0 0 0
836000000 -0.424746334 -0.48221451 0.006415303 0.003963812 0 0 0 0
844000000 -0.613231539 -0.247180104 0.008567856 0.000756404 0 0 0 0
852000000 -0.679792463 0.022750947 0.009846503 -0.002989638 0 0 0 0
860000000 -0.633759856 0.271720975 0.010089368 -0.007939721 0 0 0 0
868000000 -0.489436984 0.453975796 0.007681042 -0.014066168 0 0 0 0
876000000 -0.290257424 0.542811334 0.001255001 -0.020097319 0 0 0 0
884000000 -0.086974106 0.51987493 -0.011106235 -0.022558139 0 0 0 0
892000000 0.059186995 0.402127832 -0.027762057 -0.014833254 0 0 0 0
900000000 0.267889887 0.212420895 -0.038095932 0.011107102 0 0 0 0
908000000 0.210536852 0.114565856 -0.022964756 0.041500154 0 0 0 0
916000000 0.135928034 0.110635869 0.015459565 0.049490522 0 0 0 0
924000000 0.08371362 0.11847914 0.047249995 0.022429626 0 0 0 0
932000000 0.066914446 0.208503291 0.046991944 -0.018861053 0 0 0 0
940000000 0.145431131 0.319960802 0.016542019 -0.038993 0 0 0 0
948000000 0.346538484 0.319712728 -0.009678293 -0.030898805 0 0 0 0
956000000 0.505608081 0.173173412 -0.018570937 -0.014936086 0 0 0 0
964000000 0.562872707 -0.051321905 -0.017780087 -0.002474679 0 0 0 0
972000000 0.480423212 -0.295621424 -0.013800879 0.005414175 0 0 0 0
980000000 0.292978852 -0.481260091 -0.006784574 0.00863438 0 0 0 0
988000000 0.029163181 -0.561399281 -0.00223854 0.008436222 0 0 0 0
996000000 -0.251877158 -0.52015078 0.000174617 0.005701901 0 0 0 0
1004000000 -0.487034559 -0.381277412 0.0010744 0.0043432 0 0 0 0
