# Hz S RI R 50
700000000 0.756101906 0.553418099 -0.000102233 0.000592102 0 0 0 0
708000000 0.863378405 0.30945155 -4.765e-06 0.000969766 0 0 0 0
716000000 0.898487448 0.032912768 -8.761e-06 0.001256107 0 0 0 0
724000000 0.846947908 -0.243504509 0.000252728 0.001392155 0 0 0 0
732000000 0.694209933 -0.50232917 0.000458121 0.001515321 0 0 0 0
740000000 0.454630166 -0.701592624 0.001039664 0.001545954 0 0 0 0
748000000 0.14825052 -0.797392785 0.001184315 0.001132563 0 0 0 0
756000000 -0.191784471 -0.756928682 0.001412813 0.000977732 0 0 0 0
764000000 -0.495533585 -0.552724659 0.001462663 0.000616387 0 0 0 0
772000000 -0.66272819 -0.19529885 0.001416323 -2.4672e-05 0 0 0 0
780000000 -0.589970946 0.227396875 0.001040717 -0.001049319 0 0 0 0
788000000 -0.236100524 0.533067703 -0.000378106 -0.001792487 0 0 0 0
796000000 0.248247727 0.511774957 -0.002782093 -0.001486359 0 0 0 0
804000000 0.565368652 0.157582193 -0.004459571 0.001591819 0 0 0 0
812000000 0.534079253 -0.289392113 -0.002932995 0.005536605 0 0 0 0
820000000 0.25041157 -0.570870041 0.001293734 0.007095247 0 0 0 0
828000000 -0.116905249 -0.623972952 0.005519696 0.005380108 0 0 0 0
836000000 -0.420598834 -0.492098689 0.007864906 0.00212896 0 0 0 0
844000000 -0.616106986 -0.256621986 0.009259678 -0.001851122 0 0 0 0
852000000 -0.688425183 0.010874649 0.009154484 -0.006094803 0 0 0 0
860000000 -0.649285018 0.264315128 0.007692089 -0.010782855 0 0 0 0
868000000 -0.515187263 0.458058536 0.00347971 -0.015639634 0 0 0 0
876000000 -0.308675587 0.56275469 -0.004560165 -0.019170211 0 0 0 0
884000000 -0.090469337 0.556486189 -0.016736203 -0.017477639 0 0 0 0
892000000 0.0856302 0.430561095 -0.029692867 -0.005294973 0 0 0 0
900000000 0.308670669 0.219446241 -0.032648127 0.02225627 0 0 0 0
908000000 0.24809277 0.089156508 -0.007216512 0.045934502 0 0 0 0
916000000 0.146395117 0.064652994 0.032518364 0.038660757 0 0 0 0
924000000 0.069776155 0.089492581 0.049973417 0.000348408 0 0 0 0
932000000 0.03699113 0.18908292 0.029895246 -0.035541195 0 0 0 0
940000000 0.105232492 0.331253975 -0.00383974 -0.035052124 0 0 0 0
948000000 0.336362898 0.354165166 -0.017334202 -0.016761766 0 0 0 0
956000000 0.507823586 0.195599108 -0.015949144 -0.004392588 0 0 0 0
964000000 0.572213828 -0.048335064 -0.0117971 0.002655467 0 0 0 0
972000000 0.496345341 -0.295809835 -0.007597999 0.006121126 0 0 0 0
980000000 0.302261948 -0.491159319 -0.002391734 0.006573251 0 0 0 0
988000000 0.029000287 -0.562183916 -0.000390323 0.004870368 0 0 0 0
996000000 -0.250054895 -0.519443571 0.000695734 0.003250654 0 0 0 0
1004000000 -0.484623819 -0.38395965 -0.000235101 0.002181564 0 0 0 0
