# Hz S RI R 50
700000000 0.755933225 0.557314336 1.046e-05 0.000678931 0 0 0 0
708000000 0.865343689 0.311249077 1.1087e-05 0.000978196 0 0 0 0
716000000 0.89501208 0.035232104 0.000111338 0.001212395 0 0 0 0
724000000 0.843561589 -0.241058275 0.000312153 0.001513205 0 0 0 0
732000000 0.696650266 -0.500257492 0.000472226 0.001438205 0 0 0 0
740000000 0.458097755 -0.699071168 0.000813278 0.001441961 0 0 0 0
748000000 0.151910051 -0.799321711 0.001208723 0.001417006 0 0 0 0
756000000 -0.18806912 -0.75892353 0.001209584 0.001047824 0 0 0 0
764000000 -0.490278899 -0.553952932 0.001232883 0.000883489 0 0 0 0
772000000 -0.661115825 -0.201077625 0.001461122 0.000370899 0 0 0 0
780000000 -0.593765139 0.220015272 0.001545591 -0.000600816 0 0 0 0
788000000 -0.249301761 0.530397534 0.000572739 -0.001746105 0 0 0 0
796000000 0.235922068 0.517311751 -0.00139959 -0.002029429 0 0 0 0
804000000 0.563811659 0.172624826 -0.003954819 -0.000208805 0 0 0 0
812000000 0.549800455 -0.27861157 -0.003627368 0.003350593 0 0 0 0
820000000 0.263999581 -0.566477477 -0.000422699 0.005712719 0 0 0 0
828000000 -0.106553427 -0.629034936 0.002861543 0.0052506 0 0 0 0
836000000 -0.414784848 -0.500840663 0.005786756 0.003302706 0 0 0 0
844000000 -0.615560889 -0.268491119 0.007572452 0.000703644 0 0 0 0
852000000 -0.688643574 0.003532683 0.008709635 -0.002501231 0 0 0 0
860000000 -0.652798652 0.257138669 0.008910942 -0.006786201 0 0 0 0
868000000 -0.51557523 0.457464784 0.007477276 -0.012381001 0 0 0 0
876000000 -0.311875969 0.560003757 0.002020831 -0.018191998 0 0 0 0
884000000 -0.101723633 0.551356792 -0.008921266 -0.021248031 0 0 0 0
892000000 0.065190494 0.431947708 -0.024695476 -0.015759749 0 0 0 0
900000000 0.299612253 0.233266338 -0.036753147 0.008701448 0 0 0 0
908000000 0.241669833 0.117288149 -0.024791402 0.038758438 0 0 0 0
916000000 0.171068131 0.078527748 0.012657733 0.048612572 0 0 0 0
924000000 0.095846071 0.086375385 0.045213479 0.023984879 0 0 0 0
932000000 0.041584528 0.15509884 0.045790795 -0.017297217 0 0 0 0
940000000 0.105392575 0.300590068 0.016693605 -0.037231627 0 0 0 0
948000000 0.327961623 0.355989545 -0.00863008 -0.030907701 0 0 0 0
956000000 0.504784464 0.215425372 -0.018233263 -0.015151029 0 0 0 0
964000000 0.582273185 -0.034444417 -0.017497826 -0.002330343 0 0 0 0
972000000 0.499522238 -0.282342493 -0.01270109 0.00527388 0 0 0 0
980000000 0.295768529 -0.484941929 -0.006618285 0.008053296 0 0 0 0
988000000 0.034106787 -0.555381774 -0.002342853 0.007938507 0 0 0 0
996000000 -0.247641593 -0.515064597 -0.00012298 0.005542672 0 0 0 0
1004000000 -0.482494324 -0.391990542 0.000506952 0.003914466 0 0 0 0
