# Hz S RI R 50
700000000 0.756000518 0.556850135 3.2968e-05 0.000655054 0 0 0 0
708000000 0.86535716 0.30928871 -2.9124e-05 0.001112731 0 0 0 0
716000000 0.898055911 0.035713419 8.0065e-05 0.001392624 0 0 0 0
724000000 0.840286612 -0.242965251 0.00031919 0.001333807 0 0 0 0
732000000 0.694138109 -0.501035273 0.000585828 0.001644551 0 0 0 0
740000000 0.457038968 -0.696208298 0.000894945 0.001464386 0 0 0 0
748000000 0.150119632 -0.795802354 0.001209578 0.001167692 0 0 0 0
756000000 -0.187541022 -0.756436765 0.001591988 0.001018191 0 0 0 0
764000000 -0.489144861 -0.554916799 0.001654336 0.000499718 0 0 0 0
772000000 -0.6595335 -0.196343496 0.001664535 -4.2406e-05 0 0 0 0
780000000 -0.58768922 0.221340551 0.00144756 -0.000851079 0 0 0 0
788000000 -0.243804663 0.524854123 0.000242565 -0.001721013 0 0 0 0
796000000 0.237341687 0.506657242 -0.002055032 -0.002049292 0 0 0 0
804000000 0.555206596 0.162167981 -0.004214164 0.000298745 0 0 0 0
812000000 0.530846536 -0.285038143 -0.003483465 0.003974372 0 0 0 0
820000000 0.249750003 -0.562253296 4.7523e-05 0.006281979 0 0 0 0
828000000 -0.117337703 -0.615402877 0.003893148 0.005690382 0 0 0 0
836000000 -0.418231636 -0.483454525 0.006546535 0.003190617 0 0 0 0
844000000 -0.609111011 -0.249254465 0.008161226 5.3601e-05 0 0 0 0
852000000 -0.672243237 0.015218636 0.009027426 -0.003551609 0 0 0 0
860000000 -0.625225663 0.268304407 0.009037701 -0.007902943 0 0 0 0
868000000 -0.487529098 0.449986904 0.006490204 -0.013541861 0 0 0 0
876000000 -0.286701679 0.533657252 0.000371179 -0.01878287 0 0 0 0
884000000 -0.092105254 0.507447838 -0.010907192 -0.020458398 0 0 0 0
892000000 0.044216874 0.387931227 -0.02631101 -0.013024645 0 0 0 0
900000000 0.234083831 0.218741938 -0.034640755 0.011314342 0 0 0 0
908000000 0.189827114 0.143446564 -0.020499961 0.0391929 0 0 0 0
916000000 0.136746466 0.133146017 0.01532285 0.045237131 0 0 0 0
924000000 0.105927467 0.142158508 0.043848808 0.020034734 0 0 0 0
932000000 0.088384404 0.203796833 0.042452905 -0.01848109 0 0 0 0
940000000 0.160149827 0.314049869 0.014530257 -0.035166289 0 0 0 0
948000000 0.368479013 0.322447538 -0.008430529 -0.028294248 0 0 0 0
956000000 0.512585222 0.156387642 -0.016602125 -0.014394278 0 0 0 0
964000000 0.567893624 -0.069728389 -0.015946442 -0.002912006 0 0 0 0
972000000 0.475985854 -0.303521156 -0.013053161 0.004241681 0 0 0 0
980000000 0.284823596 -0.486588269 -0.007234092 0.007464739 0 0 0 0
988000000 0.019521074 -0.560421228 -0.002705983 0.007426714 0 0 0 0
996000000 -0.252152532 -0.510981321 -0.000817824 0.006002298 0 0 0 0
1004000000 -0.48817262 -0.36771807 0.000865116 0.004180186 0 0 0 0
