# Hz S RI R 50
700000000 0.758444666 0.555822253 4.3922e-05 0.000637038 0 0 0 0
708000000 0.863756358 0.308486789 -0.00014172 0.001013927 0 0 0 0
716000000 0.896428525 0.033586673 0.000223667 0.001233037 0 0 0 0
724000000 0.846946477 -0.246866494 0.000390909 0.001477294 0 0 0 0
732000000 0.69462347 -0.501746475 0.000657853 0.001616077 0 0 0 0
740000000 0.458239078 -0.69878292 0.0008997 0.001335789 0 0 0 0
748000000 0.147875398 -0.796259403 0.001292519 0.001069015 0 0 0 0
756000000 -0.189462408 -0.75675857 0.001396886 0.000815645 0 0 0 0
764000000 -0.49493578 -0.553035676 0.001322326 0.000580117 0 0 0 0
772000000 -0.662932932 -0.193454682 0.001580615 -3.2377e-05 0 0 0 0
780000000 -0.589697062 0.228642046 0.000897982 -0.000895594 0 0 0 0
788000000 -0.236069232 0.53094387 -0.000528108 -0.001771299 0 0 0 0
796000000 0.249641224 0.507690131 -0.002648816 -0.001207585 0 0 0 0
804000000 0.566200792 0.156040415 -0.004171537 0.001697635 0 0 0 0
812000000 0.535548746 -0.292674094 -0.002540332 0.005274214 0 0 0 0
820000000 0.248432368 -0.570918202 0.001660563 0.006663872 0 0 0 0
828000000 -0.119210369 -0.621892154 0.005398794 0.004959195 0 0 0 0
836000000 -0.420744508 -0.489670127 0.007600805 0.001909026 0 0 0 0
844000000 -0.612538456 -0.255583107 0.008763004 -0.001863505 0 0 0 0
852000000 -0.683362722 0.013542212 0.008587757 -0.00580953 0 0 0 0
860000000 -0.644845306 0.265827029 0.007295227 -0.010194819 0 0 0 0
868000000 -0.509038627 0.457006007 0.003161007 -0.015144464 0 0 0 0
876000000 -0.305054873 0.559008598 -0.004115634 -0.01843382 0 0 0 0
884000000 -0.088629968 0.549120604 -0.0157845 -0.017021752 0 0 0 0
892000000 0.080782853 0.424040853 -0.028447236 -0.00572503 0 0 0 0
900000000 0.310088515 0.211079642 -0.032114118 0.021612681 0 0 0 0
908000000 0.235577896 0.094695933 -0.008500471 0.044881891 0 0 0 0
916000000 0.143244564 0.071376159 0.03004509 0.039075091 0 0 0 0
924000000 0.078111924 0.096886381 0.049178451 0.00210814 0 0 0 0
932000000 0.037011373 0.186356008 0.030726108 -0.033616531 0 0 0 0
940000000 0.104595258 0.329846143 -0.001764173 -0.035446137 0 0 0 0
948000000 0.344138234 0.354234576 -0.016727942 -0.018426978 0 0 0 0
956000000 0.508837103 0.198684334 -0.016775103 -0.005445363 0 0 0 0
964000000 0.572769343 -0.043862763 -0.012373114 0.002551692 0 0 0 0
972000000 0.49935016 -0.287521421 -0.008197548 0.006530551 0 0 0 0
980000000 0.302124947 -0.492344975 -0.002665647 0.006984538 0 0 0 0
988000000 0.036920979 -0.574271202 0.000382082 0.006087664 0 0 0 0
996000000 -0.254042834 -0.517137527 0.000757367 0.003829337 0 0 0 0
1004000000 -0.490818142 -0.376989424 0.000314735 0.001851259 0 0 0 0
