# Hz S RI R 50
700000000 0.759856879 0.554831564 -6.5942e-05 0.000686591 0 0 0 0
708000000 0.86485517 0.308044582 -0.00011869 0.000952396 0 0 0 0
716000000 0.896529376 0.036615543 -7.896e-06 0.00140979 0 0 0 0
724000000 0.84232527 -0.24086593 0.000276423 0.001640338 0 0 0 0
732000000 0.695666968 -0.500530481 0.000473014 0.001616013 0 0 0 0
740000000 0.459526449 -0.699176311 0.000843076 0.00148377 0 0 0 0
748000000 0.151744052 -0.795614123 0.001217818 0.001148364 0 0 0 0
756000000 -0.189488366 -0.757964372 0.001311454 0.001027313 0 0 0 0
764000000 -0.487703084 -0.555996417 0.001578136 0.000524707 0 0 0 0
772000000 -0.65987575 -0.203236967 0.001715573 0.000143434 0 0 0 0
780000000 -0.593779802 0.217178449 0.001499884 -0.000796326 0 0 0 0
788000000 -0.247782081 0.525881111 0.000418183 -0.002040402 0 0 0 0
796000000 0.236411809 0.517261207 -0.002026946 -0.002157747 0 0 0 0
804000000 0.556926548 0.170786395 -0.00439248 0.000185159 0 0 0 0
812000000 0.540084779 -0.27562952 -0.003760961 0.003933771 0 0 0 0
820000000 0.260261058 -0.564094722 -0.000307733 0.006253736 0 0 0 0
828000000 -0.107963323 -0.621554851 0.00360426 0.005964993 0 0 0 0
836000000 -0.41250351 -0.491535753 0.006207134 0.003476328 0 0 0 0
844000000 -0.606492996 -0.260787934 0.008403751 0.000538244 0 0 0 0
852000000 -0.681018292 0.009391935 0.009654068 -0.002871557 0 0 0 0
860000000 -0.637627243 0.260656088 0.009765965 -0.007758769 0 0 0 0
868000000 -0.506476461 0.448670119 0.007527442 -0.014014419 0 0 0 0
876000000 -0.305179595 0.542705237 0.001094798 -0.019897537 0 0 0 0
884000000 -0.104554273 0.528821527 -0.011177838 -0.022293968 0 0 0 0
892000000 0.04627477 0.412815958 -0.027604961 -0.014391047 0 0 0 0
900000000 0.265025079 0.231767177 -0.037576638 0.011400201 0 0 0 0
908000000 0.211371496 0.145540431 -0.022144585 0.04101888 0 0 0 0
916000000 0.154877692 0.123301245 0.015783099 0.04788063 0 0 0 0
924000000 0.118551529 0.124757952 0.045836146 0.021856706 0 0 0 0
932000000 0.096121773 0.164785802 0.045199524 -0.018413919 0 0 0 0
940000000 0.133243471 0.278088778 0.016501296 -0.038409639 0 0 0 0
948000000 0.32763049 0.311752974 -0.009094071 -0.030835201 0 0 0 0
956000000 0.499565839 0.180965051 -0.017815243 -0.015496832 0 0 0 0
964000000 0.552392601 -0.044566888 -0.017745282 -0.002779417 0 0 0 0
972000000 0.484171032 -0.28505817 -0.013480154 0.004896319 0 0 0 0
980000000 0.296006172 -0.478686004 -0.006783269 0.008319108 0 0 0 0
988000000 0.029032936 -0.547616064 -0.002386247 0.008234103 0 0 0 0
996000000 -0.247720897 -0.51528126 -0.000153919 0.006417879 0 0 0 0
1004000000 -0.487090468 -0.372289597 0.001423593 0.005036381 0 0 0 0
