# Hz S RI R 50
700000000 0.759984195 0.551692724 -0.000104761 0.0006682 0 0 0 0
708000000 0.864653825 0.308613926 -0.000147121 0.00101163 0 0 0 0
716000000 0.894200801 0.033765684 -6.3638e-05 0.001293449 0 0 0 0
724000000 0.847070038 -0.244295999 0.000354655 0.001569506 0 0 0 0
732000000 0.693914949 -0.500419437 0.000446509 0.001635383 0 0 0 0
740000000 0.454527169 -0.697712242 0.000853518 0.001656461 0 0 0 0
748000000 0.150040417 -0.796296775 0.001249101 0.001292543 0 0 0 0
756000000 -0.18863064 -0.756640851 0.00147033 0.000917885 0 0 0 0
764000000 -0.491990298 -0.554080069 0.001454834 0.000523897 0 0 0 0
772000000 -0.65715444 -0.196432366 0.001606979 -0.000213927 0 0 0 0
780000000 -0.588004708 0.22451201 0.001102837 -0.001044625 0 0 0 0
788000000 -0.237411201 0.528727173 -0.000253805 -0.00174406 0 0 0 0
796000000 0.246303722 0.505562841 -0.002845032 -0.001679684 0 0 0 0
804000000 0.559840261 0.154877468 -0.004561994 0.001279613 0 0 0 0
812000000 0.52622658 -0.291783928 -0.003023117 0.005642387 0 0 0 0
820000000 0.243134006 -0.566327095 0.001348407 0.00720483 0 0 0 0
828000000 -0.121763646 -0.615037739 0.005429368 0.005477834 0 0 0 0
836000000 -0.417091846 -0.48045659 0.007986382 0.002308091 0 0 0 0
844000000 -0.608304858 -0.248097926 0.009027673 -0.001592562 0 0 0 0
852000000 -0.674295067 0.014949445 0.009150498 -0.005916048 0 0 0 0
860000000 -0.631440699 0.265173077 0.007759152 -0.010546712 0 0 0 0
868000000 -0.495070457 0.45114395 0.003629787 -0.015874404 0 0 0 0
876000000 -0.296034932 0.54283297 -0.00432036 -0.019529988 0 0 0 0
884000000 -0.089723803 0.522941052 -0.016820898 -0.017799284 0 0 0 0
892000000 0.058830533 0.403310269 -0.029995474 -0.005774943 0 0 0 0
900000000 0.27496308 0.203954964 -0.032492116 0.023017486 0 0 0 0
908000000 0.19067806 0.12308976 -0.008147271 0.045619953 0 0 0 0
916000000 0.126504331 0.117512993 0.030507346 0.040322795 0 0 0 0
924000000 0.112272866 0.140441507 0.050274103 0.004589397 0 0 0 0
932000000 0.083983525 0.193222209 0.034486331 -0.033692624 0 0 0 0
940000000 0.143583387 0.303028434 -0.001244569 -0.040053773 0 0 0 0
948000000 0.348639667 0.315507471 -0.019357154 -0.020367657 0 0 0 0
956000000 0.499334722 0.176880612 -0.018702138 -0.004660208 0 0 0 0
964000000 0.5610466 -0.054068502 -0.012911271 0.003855464 0 0 0 0
972000000 0.48532772 -0.291180998 -0.007543033 0.007294721 0 0 0 0
980000000 0.289597749 -0.490597516 -0.002416463 0.007169939 0 0 0 0
988000000 0.030606402 -0.558640897 5.5423e-05 0.005989213 0 0 0 0
996000000 -0.251368582 -0.502708017 0.000730554 0.003729931 0 0 0 0
1004000000 -0.494699597 -0.380829483 0.000606902 0.002456526 0 0 0 0
