# Hz S RI R 50
700000000 0.754330813 0.553794026 8.02e-06 0.000741347 0 0 0 0
708000000 0.865801095 0.307980686 -0.000108557 0.000915428 0 0 0 0
716000000 0.895890891 0.033817339 -7.3635e-05 0.001283411 0 0 0 0
724000000 0.839947223 -0.24619688 0.000243284 0.001321687 0 0 0 0
732000000 0.695901215 -0.501006603 0.00043456 0.001603415 0 0 0 0
740000000 0.457961499 -0.699517965 0.001005113 0.001462031 0 0 0 0
748000000 0.148595467 -0.795469284 0.001134167 0.001385757 0 0 0 0
756000000 -0.187523633 -0.756686091 0.001283054 0.000859879 0 0 0 0
764000000 -0.490151911 -0.555864512 0.001492861 0.000925122 0 0 0 0
772000000 -0.660743355 -0.20428352 0.001580713 0.000217198 0 0 0 0
780000000 -0.590502977 0.216706663 0.001636394 -0.000780053 0 0 0 0
788000000 -0.248617544 0.527150988 0.000871898 -0.001795674 0 0 0 0
796000000 0.229487419 0.516567051 -0.0015667 -0.002276614 0 0 0 0
804000000 0.555829942 0.171665892 -0.00432167 -0.000412853 0 0 0 0
812000000 0.540650069 -0.273855745 -0.004153609 0.003623991 0 0 0 0
820000000 0.258464992 -0.563979327 -0.000922102 0.00601786 0 0 0 0
828000000 -0.109385684 -0.623913109 0.002910554 0.005977205 0 0 0 0
836000000 -0.414420336 -0.497089833 0.005969105 0.003815329 0 0 0 0
844000000 -0.607871055 -0.260089963 0.008065219 0.001126309 0 0 0 0
852000000 -0.68401587 0.008444376 0.009781667 -0.002614687 0 0 0 0
860000000 -0.641993165 0.26011613 0.010115789 -0.007259349 0 0 0 0
868000000 -0.507084548 0.448954343 0.008001357 -0.013644678 0 0 0 0
876000000 -0.30379188 0.549976706 0.001998997 -0.019593708 0 0 0 0
884000000 -0.099944271 0.534168899 -0.009954425 -0.022739449 0 0 0 0
892000000 0.056614223 0.417616486 -0.027045652 -0.015809604 0 0 0 0
900000000 0.280050247 0.226783528 -0.039395093 0.009789443 0 0 0 0
908000000 0.215108796 0.131249219 -0.024021759 0.041048549 0 0 0 0
916000000 0.153607785 0.112621463 0.013849953 0.048952329 0 0 0 0
924000000 0.113419063 0.115681 0.045246418 0.023716468 0 0 0 0
932000000 0.06852208 0.170067936 0.046192433 -0.016838341 0 0 0 0
940000000 0.128292933 0.296474486 0.017065068 -0.037435304 0 0 0 0
948000000 0.336269229 0.333554983 -0.008790555 -0.030560899 0 0 0 0
956000000 0.504413664 0.195956423 -0.017129184 -0.01565756 0 0 0 0
964000000 0.566223204 -0.059111721 -0.016911933 -0.002836105 0 0 0 0
972000000 0.495479762 -0.288067758 -0.013143089 0.004119943 0 0 0 0
980000000 0.289240002 -0.489081352 -0.00737417 0.007300658 0 0 0 0
988000000 0.020412337 -0.567687809 -0.003022086 0.007377783 0 0 0 0
996000000 -0.2433867 -0.519786775 -0.000678975 0.005881355 0 0 0 0
1004000000 -0.483628064 -0.371056437 0.00041836 0.004660909 0 0 0 0
