# Hz S RI R 50
700000000 0.753156125 0.55480349 -0.000102523 0.000617697 0 0 0 0
708000000 0.863437175 0.308750033 -5.1359e-05 0.000858917 0 0 0 0
716000000 0.898079514 0.035167053 -3.0159e-05 0.001248124 0 0 0 0
724000000 0.844969034 -0.245197087 0.000227291 0.001476567 0 0 0 0
732000000 0.695548415 -0.501591086 0.000638925 0.001645716 0 0 0 0
740000000 0.45993027 -0.697823166 0.000886655 0.001423554 0 0 0 0
748000000 0.150679677 -0.79511404 0.001155881 0.001399368 0 0 0 0
756000000 -0.187011331 -0.757597744 0.001475489 0.000982559 0 0 0 0
764000000 -0.492314398 -0.55771923 0.001364959 0.000666283 0 0 0 0
772000000 -0.659277319 -0.202633589 0.001534873 0.000296327 0 0 0 0
780000000 -0.596752762 0.219959288 0.001664152 -0.000835244 0 0 0 0
788000000 -0.251867234 0.533217072 0.000653812 -0.001897534 0 0 0 0
796000000 0.235367119 0.523363947 -0.001847169 -0.002353706 0 0 0 0
804000000 0.56316775 0.179387614 -0.004479213 -3.826e-05 0 0 0 0
812000000 0.552626073 -0.273793101 -0.003965254 0.003963032 0 0 0 0
820000000 0.271358191 -0.568652391 -0.000631264 0.006500599 0 0 0 0
828000000 -0.101832896 -0.635076761 0.00347553 0.006238761 0 0 0 0
836000000 -0.414502471 -0.507656693 0.006199084 0.00395324 0 0 0 0
844000000 -0.61757487 -0.26986432 0.008393451 0.000850122 0 0 0 0
852000000 -0.697462916 -0.000700748 0.009641608 -0.002796428 0 0 0 0
860000000 -0.662148535 0.257445037 0.009960296 -0.00769688 0 0 0 0
868000000 -0.526549696 0.461653649 0.007808482 -0.013956856 0 0 0 0
876000000 -0.318818897 0.571351826 0.001599201 -0.019663406 0 0 0 0
884000000 -0.099684946 0.570389389 -0.010511095 -0.022638194 0 0 0 0
892000000 0.081190451 0.452549159 -0.027437718 -0.016080696 0 0 0 0
900000000 0.328329652 0.237990841 -0.040767159 0.010281256 0 0 0 0
908000000 0.258226037 0.100028842 -0.025374956 0.04273048 0 0 0 0
916000000 0.174538806 0.06042901 0.015665 0.05228893 0 0 0 0
924000000 0.094263672 0.070652611 0.049828182 0.023837642 0 0 0 0
932000000 0.040015522 0.152630865 0.04901468 -0.021059239 0 0 0 0
940000000 0.085431523 0.298914253 0.015945969 -0.042304441 0 0 0 0
948000000 0.314599007 0.360544592 -0.012727793 -0.031150247 0 0 0 0
956000000 0.493026793 0.212310492 -0.019291516 -0.013882026 0 0 0 0
964000000 0.574202418 -0.029388738 -0.017137715 -0.001142327 0 0 0 0
972000000 0.501886427 -0.272399425 -0.012555975 0.005748938 0 0 0 0
980000000 0.301179975 -0.478354126 -0.006402146 0.00766804 0 0 0 0
988000000 0.040690205 -0.559616744 -0.002162685 0.007744798 0 0 0 0
996000000 -0.2383648 -0.516642212 -0.0002743 0.005685538 0 0 0 0
1004000000 -0.486035972 -0.379969239 0.000329032 0.003900807 0 0 0 0
