# Hz S RI R 50
700000000 0.757838487 0.556095659 -5.06e-07 0.000632279 0 0 0 0
708000000 0.86403042 0.309105902 3.7064e-05 0.001085981 0 0 0 0
716000000 0.896236717 0.033184111 9.2022e-05 0.001153961 0 0 0 0
724000000 0.838308334 -0.24632056 0.000195734 0.001612014 0 0 0 0
732000000 0.694520592 -0.505561411 0.000439028 0.001417219 0 0 0 0
740000000 0.458187729 -0.702576339 0.000949753 0.001494472 0 0 0 0
748000000 0.149992406 -0.796648979 0.00102571 0.001187753 0 0 0 0
756000000 -0.190526098 -0.756532132 0.001217418 0.000903138 0 0 0 0
764000000 -0.490259081 -0.554407417 0.001262986 0.000614859 0 0 0 0
772000000 -0.65699011 -0.199993908 0.001429397 0.000262143 0 0 0 0
780000000 -0.590774834 0.220291569 0.001486025 -0.000442777 0 0 0 0
788000000 -0.248474836 0.527539551 0.000864245 -0.001429422 0 0 0 0
796000000 0.236178502 0.516894698 -0.001002614 -0.002145215 0 0 0 0
804000000 0.563290238 0.174744039 -0.003256883 -0.000573019 0 0 0 0
812000000 0.547057688 -0.278210848 -0.003756082 0.00256923 0 0 0 0
820000000 0.266296565 -0.566694557 -0.00125686 0.004956308 0 0 0 0
828000000 -0.103840418 -0.631853163 0.001910627 0.005227517 0 0 0 0
836000000 -0.416632622 -0.501573145 0.004642463 0.00379592 0 0 0 0
844000000 -0.616917908 -0.272244721 0.006679884 0.001429902 0 0 0 0
852000000 -0.691425383 0.002185997 0.008295143 -0.001070198 0 0 0 0
860000000 -0.654504299 0.262970656 0.009604404 -0.004737564 0 0 0 0
868000000 -0.523701429 0.460706502 0.009035161 -0.010645542 0 0 0 0
876000000 -0.312777012 0.565575897 0.005127688 -0.01711392 0 0 0 0
884000000 -0.100340932 0.555036962 -0.004689631 -0.022359538 0 0 0 0
892000000 0.070500008 0.432527691 -0.021231468 -0.020419027 0 0 0 0
900000000 0.300601035 0.234349653 -0.038263875 -8.0531e-05 0 0 0 0
908000000 0.241571992 0.11275386 -0.032074607 0.032249458 0 0 0 0
916000000 0.172379672 0.085319876 0.000845404 0.049923621 0 0 0 0
924000000 0.110483601 0.083220802 0.037233047 0.034210223 0 0 0 0
932000000 0.046330444 0.150329634 0.048726655 -0.004250532 0 0 0 0
940000000 0.106586985 0.295220583 0.027015041 -0.032298233 0 0 0 0
948000000 0.314310997 0.350447356 1.006e-06 -0.033361874 0 0 0 0
956000000 0.495720833 0.210959821 -0.01413731 -0.021246399 0 0 0 0
964000000 0.568547546 -0.028124649 -0.017577568 -0.007439794 0 0 0 0
972000000 0.491423338 -0.275287628 -0.015474139 0.001697658 0 0 0 0
980000000 0.301929533 -0.47888872 -0.009763842 0.00683951 0 0 0 0
988000000 0.04488638 -0.553456962 -0.005192758 0.008192456 0 0 0 0
996000000 -0.245366245 -0.524809777 -0.001518828 0.006437206 0 0 0 0
1004000000 -0.484065055 -0.38904649 -0.000673622 0.005690674 0 0 0 0
