# Hz S RI R 50
700000000 0.754545867 0.555647432 -0.000163666 0.00073633 0 0 0 0
708000000 0.864864945 0.308153331 3.761e-06 0.001015925 0 0 0 0
716000000 0.894566595 0.036890968 4.1587e-05 0.001428309 0 0 0 0
724000000 0.848424792 -0.240833729 0.000179112 0.001353692 0 0 0 0
732000000 0.69686836 -0.499603241 0.000591604 0.001623362 0 0 0 0
740000000 0.458708792 -0.699018895 0.000850278 0.001517706 0 0 0 0
748000000 0.150008827 -0.797678709 0.001290957 0.001152914 0 0 0 0
756000000 -0.188290461 -0.758256554 0.001404014 0.000807302 0 0 0 0
764000000 -0.490305364 -0.55944705 0.001457644 0.000467775 0 0 0 0
772000000 -0.664224207 -0.203749716 0.001437518 0.000108916 0 0 0 0
780000000 -0.598883748 0.219664618 0.00115564 -0.000736092 0 0 0 0
788000000 -0.252698332 0.530152201 -2.3881e-05 -0.001736459 0 0 0 0
796000000 0.230699643 0.525866031 -0.002222239 -0.001420108 0 0 0 0
804000000 0.567847967 0.180477723 -0.004031985 0.0007566 0 0 0 0
812000000 0.553165495 -0.277318388 -0.00285164 0.004213685 0 0 0 0
820000000 0.270128369 -0.571633994 0.000643504 0.006208433 0 0 0 0
828000000 -0.099566996 -0.635818481 0.003983271 0.005240285 0 0 0 0
836000000 -0.414389342 -0.508396208 0.006484414 0.002829743 0 0 0 0
844000000 -0.616491675 -0.274399667 0.008278718 -0.000513091 0 0 0 0
852000000 -0.699677884 -0.001495145 0.008866529 -0.003926987 0 0 0 0
860000000 -0.664838731 0.25997883 0.008432888 -0.008305196 0 0 0 0
868000000 -0.528731584 0.459641277 0.005851367 -0.013844849 0 0 0 0
876000000 -0.321592956 0.575935602 -0.000528137 -0.018664177 0 0 0 0
884000000 -0.095513358 0.575511813 -0.012198697 -0.020002048 0 0 0 0
892000000 0.082034505 0.450039803 -0.02712143 -0.011839483 0 0 0 0
900000000 0.323745757 0.227150544 -0.035864938 0.015057928 0 0 0 0
908000000 0.258853346 0.099999278 -0.017628084 0.042805586 0 0 0 0
916000000 0.160606101 0.063335508 0.021769188 0.045571479 0 0 0 0
924000000 0.098456829 0.075304456 0.048474252 0.013468813 0 0 0 0
932000000 0.039635542 0.153148606 0.038517303 -0.026017643 0 0 0 0
940000000 0.088657356 0.304965108 0.006782512 -0.036326002 0 0 0 0
948000000 0.314429074 0.353288829 -0.012471785 -0.024249 0 0 0 0
956000000 0.504933774 0.217470631 -0.01694397 -0.010560003 0 0 0 0
964000000 0.576846122 -0.021360523 -0.014685344 -0.00038675 0 0 0 0
972000000 0.512800395 -0.277119636 -0.010864702 0.005302262 0 0 0 0
980000000 0.313522756 -0.480958282 -0.005325211 0.007438693 0 0 0 0
988000000 0.040164783 -0.565893888 -0.001872546 0.006669612 0 0 0 0
996000000 -0.240439131 -0.528029024 0.000673163 0.004139046 0 0 0 0
1004000000 -0.475233376 -0.391836196 0.000471818 0.003154915 0 0 0 0
