# Hz S RI R 50
700000000 0.756349742 0.550888419 1.7988e-05 0.000708233 0 0 0 0
708000000 0.864809215 0.310118168 -6.261e-06 0.001077696 0 0 0 0
716000000 0.895533382 0.034905046 7.2803e-05 0.001320819 0 0 0 0
724000000 0.838236749 -0.241340845 0.000389849 0.00148807 0 0 0 0
732000000 0.694343507 -0.500022828 0.00047416 0.001443169 0 0 0 0
740000000 0.457813084 -0.697741985 0.000915335 0.001282247 0 0 0 0
748000000 0.14888671 -0.796795368 0.001243935 0.001073903 0 0 0 0
756000000 -0.189730927 -0.756344556 0.001242173 0.000857362 0 0 0 0
764000000 -0.490378767 -0.554618299 0.001049916 0.000603614 0 0 0 0
772000000 -0.656698465 -0.201488986 0.001120627 0.000287202 0 0 0 0
780000000 -0.590706467 0.216852173 0.000806451 9.926e-06 0 0 0 0
788000000 -0.246807172 0.524551093 0.000265634 -0.000647583 0 0 0 0
796000000 0.231985077 0.514410972 -0.000620858 -0.000649695 0 0 0 0
804000000 0.555189073 0.172723829 -0.001693703 0.000148116 0 0 0 0
812000000 0.540340602 -0.270833104 -0.001523303 0.001858048 0 0 0 0
820000000 0.263866305 -0.558100521 4.5277e-05 0.002841758 0 0 0 0
828000000 -0.102685876 -0.621530115 0.001768311 0.00286142 0 0 0 0
836000000 -0.405951499 -0.496071577 0.002874646 0.002012446 0 0 0 0
844000000 -0.605745911 -0.267164081 0.004277682 0.000851916 0 0 0 0
852000000 -0.683188021 0.001365938 0.005318605 -0.000851503 0 0 0 0
860000000 -0.645307183 0.257360577 0.006784619 -0.003229508 0 0 0 0
868000000 -0.515911638 0.448587447 0.007103532 -0.006915894 0 0 0 0
876000000 -0.313645333 0.549235105 0.005575578 -0.011934552 0 0 0 0
884000000 -0.103386066 0.539292693 -0.000463104 -0.017143381 0 0 0 0
892000000 0.053508114 0.423593878 -0.013003461 -0.018212575 0 0 0 0
900000000 0.272555142 0.235551834 -0.029081044 -0.006079923 0 0 0 0
908000000 0.228883713 0.14719963 -0.029533987 0.019019713 0 0 0 0
916000000 0.182491168 0.104781113 -0.007670499 0.037324592 0 0 0 0
924000000 0.128375127 0.095051616 0.021351316 0.032543927 0 0 0 0
932000000 0.054104775 0.149300873 0.037601586 0.007486031 0 0 0 0
940000000 0.09865085 0.294869363 0.029224928 -0.01793006 0 0 0 0
948000000 0.318145155 0.352098107 0.009671716 -0.027891609 0 0 0 0
956000000 0.50150448 0.207241132 -0.006343583 -0.023128854 0 0 0 0
964000000 0.574409246 -0.037338454 -0.014134701 -0.012271705 0 0 0 0
972000000 0.489531785 -0.285582154 -0.015295123 -0.0027507 0 0 0 0
980000000 0.297573953 -0.476749211 -0.011808093 0.003643286 0 0 0 0
988000000 0.029453441 -0.561540544 -0.008114476 0.006428511 0 0 0 0
996000000 -0.246611535 -0.512541413 -0.003706837 0.007138597 0 0 0 0
1004000000 -0.476041793 -0.382964432 -0.001363306 0.006175881 0 0 0 0
