# Hz S RI R 50
700000000 0.752743184 0.556189119 -6.5396e-05 0.000675434 0 0 0 0
708000000 0.864951372 0.308925747 3.8607e-05 0.001091279 0 0 0 0
716000000 0.899737477 0.036311823 0.000206373 0.001239489 0 0 0 0
724000000 0.841247558 -0.241818845 0.000347522 0.001356403 0 0 0 0
732000000 0.695488274 -0.501874983 0.000587839 0.001656012 0 0 0 0
740000000 0.458357691 -0.6984393 0.001068483 0.001515756 0 0 0 0
748000000 0.149832606 -0.796906948 0.001080522 0.001231119 0 0 0 0
756000000 -0.188614115 -0.759084522 0.001404233 0.000957322 0 0 0 0
764000000 -0.492449402 -0.557044148 0.001288477 0.000525623 0 0 0 0
772000000 -0.659450769 -0.206724867 0.001543127 -3.621e-06 0 0 0 0
780000000 -0.596704006 0.225178003 0.001229994 -0.00083807 0 0 0 0
788000000 -0.251047134 0.531609654 7.3998e-05 -0.001619199 0 0 0 0
796000000 0.235959425 0.522997021 -0.002194622 -0.001729069 0 0 0 0
804000000 0.566611528 0.174272671 -0.00424843 0.000724874 0 0 0 0
812000000 0.550253987 -0.278981626 -0.003169396 0.00450368 0 0 0 0
820000000 0.267047673 -0.574959874 0.000342273 0.006462643 0 0 0 0
828000000 -0.103150486 -0.634233593 0.004166447 0.00530397 0 0 0 0
836000000 -0.418817371 -0.504559099 0.00672021 0.00306174 0 0 0 0
844000000 -0.617360472 -0.26963824 0.008319821 -0.000285369 0 0 0 0
852000000 -0.69405049 0.003149882 0.009198948 -0.00405081 0 0 0 0
860000000 -0.660499751 0.263801038 0.009040387 -0.008741605 0 0 0 0
868000000 -0.51893717 0.463542819 0.00590348 -0.014370414 0 0 0 0
876000000 -0.313444763 0.574141204 -0.000744076 -0.019378678 0 0 0 0
884000000 -0.092961333 0.564828336 -0.012820034 -0.020491976 0 0 0 0
892000000 0.088659979 0.439815312 -0.028269235 -0.011648628 0 0 0 0
900000000 0.318801015 0.220269501 -0.036993268 0.015947956 0 0 0 0
908000000 0.246079742 0.084593534 -0.017720425 0.0441944 0 0 0 0
916000000 0.144785046 0.058830473 0.023255497 0.046648971 0 0 0 0
924000000 0.087458238 0.087935209 0.049916859 0.012925554 0 0 0 0
932000000 0.034998219 0.169961601 0.039086174 -0.02760498 0 0 0 0
940000000 0.095327816 0.325540989 0.006254538 -0.037782855 0 0 0 0
948000000 0.332984924 0.363481402 -0.013157202 -0.024201828 0 0 0 0
956000000 0.500385403 0.20256026 -0.016945794 -0.010168978 0 0 0 0
964000000 0.583272218 -0.03802723 -0.015089216 -0.000182837 0 0 0 0
972000000 0.498004913 -0.283463805 -0.010878823 0.005564399 0 0 0 0
980000000 0.305709123 -0.48574379 -0.005089204 0.007804773 0 0 0 0
988000000 0.033162947 -0.559950292 -0.001302896 0.006613375 0 0 0 0
996000000 -0.244394257 -0.519967675 0.000622891 0.00452455 0 0 0 0
1004000000 -0.486397832 -0.382332056 0.00091838 0.002656766 0 0 0 0
