# Hz S RI R 50
700000000 0.759775519 0.550320982 6.2361e-05 0.000735996 0 0 0 0
708000000 0.868487417 0.305947363 -8.4852e-05 0.000924155 0 0 0 0
716000000 0.897709608 0.030352272 9.3404e-05 0.001233524 0 0 0 0
724000000 0.838704168 -0.246964707 0.000147573 0.001572939 0 0 0 0
732000000 0.693719446 -0.502371847 0.000480015 0.001643373 0 0 0 0
740000000 0.456023007 -0.702062249 0.00077195 0.001536469 0 0 0 0
748000000 0.145537465 -0.795513153 0.001264763 0.00136812 0 0 0 0
756000000 -0.191436946 -0.755569338 0.001522761 0.000822398 0 0 0 0
764000000 -0.493940889 -0.554109394 0.001420503 0.000669687 0 0 0 0
772000000 -0.664920449 -0.202415287 0.001587168 0.000205584 0 0 0 0
780000000 -0.597756564 0.221639469 0.001189248 -0.000611826 0 0 0 0
788000000 -0.254515022 0.532827913 0.000357631 -0.001524477 0 0 0 0
796000000 0.233644813 0.530383169 -0.001340978 -0.00186576 0 0 0 0
804000000 0.571117937 0.18902114 -0.003752067 -9.661e-05 0 0 0 0
812000000 0.562723755 -0.270654797 -0.003114507 0.003243644 0 0 0 0
820000000 0.284484088 -0.574074864 -0.000275576 0.004957991 0 0 0 0
828000000 -0.094561994 -0.646757662 0.002451344 0.004682098 0 0 0 0
836000000 -0.414801687 -0.522271931 0.004435082 0.002995844 0 0 0 0
844000000 -0.622689962 -0.288717418 0.006121577 0.00080145 0 0 0 0
852000000 -0.707545578 -0.010283371 0.007300547 -0.001433333 0 0 0 0
860000000 -0.677176356 0.257227391 0.008306509 -0.004270934 0 0 0 0
868000000 -0.547509968 0.466461569 0.008180414 -0.009201797 0 0 0 0
876000000 -0.334664463 0.582947552 0.005537908 -0.014713319 0 0 0 0
884000000 -0.10692425 0.58832401 -0.002097547 -0.02017272 0 0 0 0
892000000 0.088734202 0.469458639 -0.016601977 -0.02084136 0 0 0 0
900000000 0.344003409 0.24289453 -0.035197298 -0.005776525 0 0 0 0
908000000 0.285704761 0.104340061 -0.035772439 0.026536131 0 0 0 0
916000000 0.179459199 0.053740598 -0.005315256 0.049764618 0 0 0 0
924000000 0.100886106 0.062056694 0.034642815 0.039033267 0 0 0 0
932000000 0.048643607 0.132137894 0.050642501 -0.001323262 0 0 0 0
940000000 0.083817966 0.280274718 0.028389802 -0.03240494 0 0 0 0
948000000 0.297959536 0.343203365 0.000259236 -0.033150278 0 0 0 0
956000000 0.474763542 0.217503994 -0.013595362 -0.021585239 0 0 0 0
964000000 0.564521908 -0.020804405 -0.017006203 -0.00816883 0 0 0 0
972000000 0.502024471 -0.268654137 -0.01546856 0.001104536 0 0 0 0
980000000 0.309012889 -0.471841871 -0.009945334 0.006123484 0 0 0 0
988000000 0.037287406 -0.561172902 -0.005104253 0.007874962 0 0 0 0
996000000 -0.243135973 -0.510472893 -0.001972523 0.006618145 0 0 0 0
1004000000 -0.485018312 -0.38992691 -0.000591379 0.005818435 0 0 0 0
