# Hz S RI R 50
700000000 0.76250714 0.552914321 -5.7647e-05 0.000661496 0 0 0 0
708000000 0.864865005 0.309101462 3.859e-05 0.001059715 0 0 0 0
716000000 0.897543013 0.033838424 0.000232326 0.001200921 0 0 0 0
724000000 0.842168211 -0.247675478 0.00021468 0.001563435 0 0 0 0
732000000 0.697317659 -0.503303825 0.000595243 0.001625524 0 0 0 0
740000000 0.456986576 -0.698349177 0.000924037 0.001435686 0 0 0 0
748000000 0.150202155 -0.796990215 0.001319019 0.001420002 0 0 0 0
756000000 -0.188274815 -0.75838983 0.001407164 0.000743764 0 0 0 0
764000000 -0.490309625 -0.558140397 0.001487826 0.000313789 0 0 0 0
772000000 -0.663820981 -0.205111816 0.00143841 7.8419e-05 0 0 0 0
780000000 -0.599637567 0.216581225 0.001071126 -0.000571582 0 0 0 0
788000000 -0.258962839 0.531078636 0.000340849 -0.001280846 0 0 0 0
796000000 0.225800246 0.532982468 -0.001269675 -0.001397866 0 0 0 0
804000000 0.565336704 0.194721475 -0.003007112 0.000128139 0 0 0 0
812000000 0.563890933 -0.2630153 -0.002711279 0.00269242 0 0 0 0
820000000 0.291232854 -0.568442463 -0.000485421 0.004134175 0 0 0 0
828000000 -0.084583774 -0.643840134 0.001922006 0.003938939 0 0 0 0
836000000 -0.404456168 -0.525863051 0.003700093 0.00290445 0 0 0 0
844000000 -0.615915477 -0.29159677 0.005047241 0.001134416 0 0 0 0
852000000 -0.70938766 -0.018352838 0.006393976 -0.000801186 0 0 0 0
860000000 -0.682055413 0.245447456 0.007373587 -0.003244273 0 0 0 0
868000000 -0.554265439 0.453741401 0.007913537 -0.007044441 0 0 0 0
876000000 -0.342757463 0.581559419 0.006531757 -0.0122965 0 0 0 0
884000000 -0.119074992 0.590485453 0.001078858 -0.017916876 0 0 0 0
892000000 0.076131641 0.477556109 -0.011074833 -0.021211432 0 0 0 0
900000000 0.334517568 0.264842331 -0.030723543 -0.010997881 0 0 0 0
908000000 0.290451824 0.128141418 -0.0370819 0.016418898 0 0 0 0
916000000 0.20579788 0.05828898 -0.015817094 0.044049214 0 0 0 0
924000000 0.12921746 0.051900058 0.022918198 0.043982323 0 0 0 0
932000000 0.055580411 0.10664571 0.047967191 0.011306483 0 0 0 0
940000000 0.069047629 0.252441257 0.035654716 -0.023892672 0 0 0 0
948000000 0.268903136 0.335389852 0.008316699 -0.032722212 0 0 0 0
956000000 0.463006675 0.223751604 -0.009775227 -0.024331457 0 0 0 0
964000000 0.554558157 -0.010789304 -0.015334227 -0.011328876 0 0 0 0
972000000 0.500239491 -0.259484261 -0.014869586 -0.001842844 0 0 0 0
980000000 0.315029174 -0.468691915 -0.010572413 0.003581247 0 0 0 0
988000000 0.052798561 -0.551863074 -0.007034166 0.006347809 0 0 0 0
996000000 -0.232917889 -0.516718149 -0.004096427 0.006405202 0 0 0 0
1004000000 -0.477613687 -0.382210016 -0.002519691 0.00569107 0 0 0 0
