# Hz S RI R 50
700000000 0.757196605 0.553897261 -4.47e-05 0.000647914 0 0 0 0
708000000 0.8656677 0.309886753 -2.209e-06 0.001000762 0 0 0 0
716000000 0.895727574 0.03501252 -3.8047e-05 0.001277459 0 0 0 0
724000000 0.847351014 -0.242570102 0.000149882 0.001377956 0 0 0 0
732000000 0.696520388 -0.502922117 0.000464381 0.001707612 0 0 0 0
740000000 0.45818749 -0.701880514 0.000852189 0.001395524 0 0 0 0
748000000 0.151568189 -0.799553871 0.001059293 0.001371604 0 0 0 0
756000000 -0.190265506 -0.760121405 0.001530236 0.000852186 0 0 0 0
764000000 -0.494513928 -0.557535767 0.001505572 0.000511002 0 0 0 0
772000000 -0.663789689 -0.204412192 0.001332609 0.000342871 0 0 0 0
780000000 -0.601489484 0.220131993 0.001403284 -0.0004422 0 0 0 0
788000000 -0.261154651 0.536765575 0.000577254 -0.001363633 0 0 0 0
796000000 0.227044582 0.53870064 -0.001063077 -0.001543309 0 0 0 0
804000000 0.572301268 0.193640902 -0.002953547 -0.000322922 0 0 0 0
812000000 0.574568271 -0.270008772 -0.003086815 0.002319373 0 0 0 0
820000000 0.291934549 -0.574447333 -0.000804268 0.004196281 0 0 0 0
828000000 -0.084948122 -0.651305377 0.001656068 0.004373692 0 0 0 0
836000000 -0.407856702 -0.530474364 0.003534483 0.003152411 0 0 0 0
844000000 -0.625324428 -0.298471868 0.005313195 0.001542389 0 0 0 0
852000000 -0.715675473 -0.021966654 0.006360242 -0.000429486 0 0 0 0
860000000 -0.686876237 0.250754654 0.007549273 -0.003086852 0 0 0 0
868000000 -0.558516621 0.46345371 0.008295213 -0.007100663 0 0 0 0
876000000 -0.35137549 0.594338774 0.006827723 -0.012296447 0 0 0 0
884000000 -0.116309903 0.605302929 0.001276863 -0.018051294 0 0 0 0
892000000 0.083465322 0.496962457 -0.01091543 -0.021428978 0 0 0 0
900000000 0.353875547 0.266666054 -0.030336283 -0.01138243 0 0 0 0
908000000 0.317123919 0.113759316 -0.037785883 0.015759164 0 0 0 0
916000000 0.217895925 0.038539547 -0.016602158 0.043859384 0 0 0 0
924000000 0.122900605 0.020637108 0.022157955 0.044409185 0 0 0 0
932000000 0.031555429 0.088342845 0.04790366 0.012575643 0 0 0 0
940000000 0.038733813 0.255744338 0.037010438 -0.023618629 0 0 0 0
948000000 0.255239486 0.357464134 0.008532783 -0.033895917 0 0 0 0
956000000 0.466068506 0.251324295 -0.00983145 -0.025348428 0 0 0 0
964000000 0.564383864 0.004065727 -0.015966642 -0.011846088 0 0 0 0
972000000 0.513071715 -0.253131717 -0.015578601 -0.001551688 0 0 0 0
980000000 0.3213436 -0.463954359 -0.010946767 0.004208354 0 0 0 0
988000000 0.051297202 -0.548907279 -0.006819309 0.006612567 0 0 0 0
996000000 -0.233514428 -0.519032895 -0.003434916 0.006497471 0 0 0 0
1004000000 -0.46708846 -0.396072953 -0.001897854 0.006352127 0 0 0 0
