# Hz S RI R 50
700000000 0.760566174 0.555298924 -0.000118324 0.000688061 0 0 0 0
708000000 0.865933477 0.305339097 2.103e-06 0.000941588 0 0 0 0
716000000 0.899106442 0.034404888 -7.373e-06 0.001169507 0 0 0 0
724000000 0.841322958 -0.246623709 0.000305037 0.001375412 0 0 0 0
732000000 0.69346559 -0.501761257 0.000624583 0.00149889 0 0 0 0
740000000 0.457909762 -0.699202835 0.000867547 0.001419496 0 0 0 0
748000000 0.151124238 -0.800151586 0.001169081 0.001400001 0 0 0 0
756000000 -0.187556296 -0.762055277 0.001454708 0.000881916 0 0 0 0
764000000 -0.493726819 -0.560196876 0.001388713 0.000497565 0 0 0 0
772000000 -0.666146755 -0.208082169 0.001336526 -6.424e-06 0 0 0 0
780000000 -0.607555985 0.220256596 0.001401254 -0.000319553 0 0 0 0
788000000 -0.264997661 0.537497878 0.000465517 -0.001298974 0 0 0 0
796000000 0.227988541 0.541327297 -0.001166452 -0.001910852 0 0 0 0
804000000 0.57357937 0.202583789 -0.003070159 -0.000426633 0 0 0 0
812000000 0.577119052 -0.260590434 -0.002959279 0.002317386 0 0 0 0
820000000 0.296540826 -0.574708521 -0.000721276 0.004160073 0 0 0 0
828000000 -0.081354647 -0.651904344 0.001705339 0.004263424 0 0 0 0
836000000 -0.407832831 -0.53527826 0.003565495 0.002870959 0 0 0 0
844000000 -0.620583772 -0.301417678 0.005106484 0.001009192 0 0 0 0
852000000 -0.716959118 -0.024142965 0.006334074 -0.00031072 0 0 0 0
860000000 -0.691655278 0.242151051 0.00735313 -0.002943643 0 0 0 0
868000000 -0.562892377 0.46241191 0.007962468 -0.006693693 0 0 0 0
876000000 -0.358110487 0.590807139 0.007105963 -0.011581627 0 0 0 0
884000000 -0.125410616 0.611371099 0.002106821 -0.017450034 0 0 0 0
892000000 0.079031057 0.501285374 -0.009471525 -0.021615751 0 0 0 0
900000000 0.353031605 0.27745068 -0.030066911 -0.014590164 0 0 0 0
908000000 0.324177831 0.129766985 -0.039171423 0.012840006 0 0 0 0
916000000 0.230447113 0.034361902 -0.019816864 0.043341733 0 0 0 0
924000000 0.135234147 0.015227742 0.019324999 0.047345809 0 0 0 0
932000000 0.031307306 0.069579057 0.04870218 0.016324793 0 0 0 0
940000000 0.034933939 0.244861617 0.039017289 -0.023441309 0 0 0 0
948000000 0.241746351 0.357220709 0.01016192 -0.03455517 0 0 0 0
956000000 0.457280039 0.258985161 -0.009200225 -0.025608642 0 0 0 0
964000000 0.571766257 0.014569879 -0.01564029 -0.012885949 0 0 0 0
972000000 0.517439961 -0.254395484 -0.015872882 -0.002390974 0 0 0 0
980000000 0.332778036 -0.461626142 -0.011887446 0.00416599 0 0 0 0
988000000 0.057689018 -0.556714415 -0.007589051 0.006758196 0 0 0 0
996000000 -0.234798207 -0.529048144 -0.004235697 0.007057863 0 0 0 0
1004000000 -0.47688505 -0.395575433 -0.002080933 0.007306122 0 0 0 0
