# Hz S RI R 50
700000000 0.760971546 0.55175513 -2.1773e-05 0.000676658 0 0 0 0
708000000 0.866279423 0.307007938 -5.458e-05 0.00093844 0 0 0 0
716000000 0.9001621 0.031707644 -7.5647e-05 0.001232813 0 0 0 0
724000000 0.841412901 -0.245747506 0.000235242 0.001552481 0 0 0 0
732000000 0.694948673 -0.504428923 0.000665336 0.001486259 0 0 0 0
740000000 0.457302361 -0.701226115 0.000911004 0.001411742 0 0 0 0
748000000 0.149107277 -0.798931658 0.001112338 0.001238621 0 0 0 0
756000000 -0.19131194 -0.760738909 0.001345784 0.000924159 0 0 0 0
764000000 -0.495220899 -0.557661712 0.001261536 0.000546765 0 0 0 0
772000000 -0.667911946 -0.203895419 0.001185006 0.000105604 0 0 0 0
780000000 -0.601029932 0.223086297 0.001262958 -0.000258083 0 0 0 0
788000000 -0.2611413 0.537480354 0.000634429 -0.001155261 0 0 0 0
796000000 0.22782357 0.538978338 -0.00114177 -0.001602794 0 0 0 0
804000000 0.573313713 0.197509527 -0.003176284 -0.000251506 0 0 0 0
812000000 0.572399318 -0.266167938 -0.002895814 0.002407537 0 0 0 0
820000000 0.292824387 -0.572670638 -0.000362645 0.004162523 0 0 0 0
828000000 -0.087203636 -0.650957345 0.001850389 0.004047549 0 0 0 0
836000000 -0.408339738 -0.528432309 0.003708585 0.002766895 0 0 0 0
844000000 -0.625292658 -0.296787917 0.004913822 0.000953817 0 0 0 0
852000000 -0.71256417 -0.015755539 0.006156922 -0.000895304 0 0 0 0
860000000 -0.68704009 0.249164566 0.007127632 -0.003107386 0 0 0 0
868000000 -0.557400643 0.462195008 0.007308092 -0.00704458 0 0 0 0
876000000 -0.345262646 0.587337017 0.006131015 -0.011626713 0 0 0 0
884000000 -0.11600209 0.599672794 0.001043299 -0.016917893 0 0 0 0
892000000 0.08344116 0.484254121 -0.010062413 -0.020051747 0 0 0 0
900000000 0.344056814 0.260853677 -0.02821164 -0.01071492 0 0 0 0
908000000 0.309069693 0.124252997 -0.035347059 0.013694182 0 0 0 0
916000000 0.224816203 0.054941866 -0.017530115 0.040276154 0 0 0 0
924000000 0.134925842 0.034327659 0.018439047 0.043599158 0 0 0 0
932000000 0.043427687 0.097341656 0.045104764 0.015122734 0 0 0 0
940000000 0.045952074 0.251943796 0.037635944 -0.020730296 0 0 0 0
948000000 0.253748238 0.355352997 0.010806612 -0.033166959 0 0 0 0
956000000 0.462692469 0.244919255 -0.008222786 -0.025233009 0 0 0 0
964000000 0.565528452 0.003395926 -0.015516476 -0.012904298 0 0 0 0
972000000 0.515423834 -0.256266236 -0.01541382 -0.002669398 0 0 0 0
980000000 0.319410711 -0.476221501 -0.011565263 0.004091126 0 0 0 0
988000000 0.052487023 -0.562549531 -0.008057139 0.00603164 0 0 0 0
996000000 -0.238679483 -0.520897924 -0.004825248 0.006922942 0 0 0 0
1004000000 -0.483046293 -0.383721083 -0.002552675 0.006955095 0 0 0 0
