# Hz S RI R 50
700000000 0.75731796 0.550643146 4.3785e-05 0.000665852 0 0 0 0
708000000 0.866077065 0.303405612 3.1136e-05 0.000962131 0 0 0 0
716000000 0.897985279 0.031943827 -8.1965e-05 0.001201561 0 0 0 0
724000000 0.846028268 -0.245068907 0.000246936 0.00152867 0 0 0 0
732000000 0.69553709 -0.505551397 0.000436915 0.001639893 0 0 0 0
740000000 0.456788659 -0.702851891 0.000825608 0.001642863 0 0 0 0
748000000 0.150256872 -0.799629688 0.001137616 0.001256947 0 0 0 0
756000000 -0.190888956 -0.758990406 0.001392627 0.0006934 0 0 0 0
764000000 -0.495113819 -0.557913184 0.001266613 0.000392686 0 0 0 0
772000000 -0.665697395 -0.204692646 0.001318771 4.105e-06 0 0 0 0
780000000 -0.604424059 0.222491353 0.001217206 -0.000495888 0 0 0 0
788000000 -0.261704415 0.538479506 0.000330076 -0.001145001 0 0 0 0
796000000 0.228234693 0.539802372 -0.000982151 -0.001329411 0 0 0 0
804000000 0.57679224 0.196172609 -0.002965692 -6.0859e-05 0 0 0 0
812000000 0.571657419 -0.264728635 -0.002341269 0.00243075 0 0 0 0
820000000 0.292867541 -0.575960159 -0.000562884 0.003690885 0 0 0 0
828000000 -0.083621837 -0.655719161 0.001497674 0.00344118 0 0 0 0
836000000 -0.408904045 -0.534810125 0.002935437 0.002641229 0 0 0 0
844000000 -0.624994933 -0.299539446 0.004426594 0.001297397 0 0 0 0
852000000 -0.71688503 -0.02235338 0.005708143 -0.000221513 0 0 0 0
860000000 -0.694909095 0.248823672 0.006988679 -0.002103627 0 0 0 0
868000000 -0.56011933 0.466477185 0.008166293 -0.005727736 0 0 0 0
876000000 -0.350435495 0.593806743 0.007930865 -0.011178018 0 0 0 0
884000000 -0.117642648 0.604687631 0.003283732 -0.017799407 0 0 0 0
892000000 0.079897269 0.493803024 -0.008529943 -0.022886998 0 0 0 0
900000000 0.354788392 0.27456814 -0.030521938 -0.016305543 0 0 0 0
908000000 0.316999495 0.118842639 -0.040412314 0.012371747 0 0 0 0
916000000 0.228337019 0.041916806 -0.021307459 0.043956652 0 0 0 0
924000000 0.130894556 0.018347322 0.019414352 0.048595011 0 0 0 0
932000000 0.035841841 0.082805961 0.048682607 0.016571559 0 0 0 0
940000000 0.037805058 0.253615498 0.039828401 -0.021419467 0 0 0 0
948000000 0.263228237 0.361292779 0.011709622 -0.033745277 0 0 0 0
956000000 0.455877125 0.237617015 -0.007714251 -0.026672555 0 0 0 0
964000000 0.57144469 0.004845128 -0.015495638 -0.013355259 0 0 0 0
972000000 0.516139507 -0.245973706 -0.016081571 -0.003441258 0 0 0 0
980000000 0.321313142 -0.466831475 -0.012686423 0.003496609 0 0 0 0
988000000 0.055165879 -0.566069006 -0.008447566 0.007050377 0 0 0 0
996000000 -0.240901216 -0.521578967 -0.004827718 0.00664958 0 0 0 0
1004000000 -0.471044629 -0.389711707 -0.002025987 0.006588807 0 0 0 0
