# Hz S RI R 50
700000000 0.757116496 0.552254259 -5.2504e-05 0.000682765 0 0 0 0
708000000 0.865359604 0.307308942 -0.000138699 0.000885825 0 0 0 0
716000000 0.900260686 0.032372202 -5.2811e-05 0.001177534 0 0 0 0
724000000 0.841806232 -0.248771697 0.000378813 0.001393933 0 0 0 0
732000000 0.695430278 -0.50262922 0.000488619 0.001582136 0 0 0 0
740000000 0.460358828 -0.699895799 0.000960811 0.001534427 0 0 0 0
748000000 0.151487812 -0.798797547 0.001296806 0.001386569 0 0 0 0
756000000 -0.190194144 -0.758115589 0.001289526 0.000953964 0 0 0 0
764000000 -0.489922404 -0.559278428 0.001434582 0.000423174 0 0 0 0
772000000 -0.666162729 -0.207204073 0.001369578 0.000161755 0 0 0 0
780000000 -0.602470159 0.214973598 0.001413276 -0.000478486 0 0 0 0
788000000 -0.261841297 0.53352195 0.000675735 -0.001318228 0 0 0 0
796000000 0.224596261 0.535446107 -0.001167917 -0.001604475 0 0 0 0
804000000 0.567171573 0.195484265 -0.003361367 -0.000249276 0 0 0 0
812000000 0.571246445 -0.260233372 -0.003073558 0.002861946 0 0 0 0
820000000 0.2940678 -0.568132162 -0.000788207 0.004815625 0 0 0 0
828000000 -0.082572557 -0.64532268 0.00227545 0.004698671 0 0 0 0
836000000 -0.401381582 -0.528542399 0.004550951 0.003076467 0 0 0 0
844000000 -0.618571758 -0.293605864 0.006171086 0.000947616 0 0 0 0
852000000 -0.70890665 -0.021382175 0.007295564 -0.00142881 0 0 0 0
860000000 -0.682933926 0.247214227 0.008086335 -0.004449026 0 0 0 0
868000000 -0.556065261 0.461490958 0.007881206 -0.009118574 0 0 0 0
876000000 -0.346528738 0.58796823 0.005218357 -0.014543091 0 0 0 0
884000000 -0.11887785 0.600197732 -0.002111517 -0.019483627 0 0 0 0
892000000 0.08360619 0.482976913 -0.015779232 -0.020353194 0 0 0 0
900000000 0.350764662 0.269175976 -0.033724147 -0.006172182 0 0 0 0
908000000 0.298897922 0.11293631 -0.035881046 0.024927461 0 0 0 0
916000000 0.201868146 0.049603391 -0.006852086 0.048926275 0 0 0 0
924000000 0.126352667 0.054144345 0.032652072 0.039882879 0 0 0 0
932000000 0.05391772 0.110157966 0.05082038 0.001297625 0 0 0 0
940000000 0.065354444 0.247586473 0.031399946 -0.031729556 0 0 0 0
948000000 0.263893097 0.341866374 0.001250549 -0.035121213 0 0 0 0
956000000 0.449653327 0.239784196 -0.014334116 -0.021986238 0 0 0 0
964000000 0.560178756 0.003415047 -0.017913559 -0.007738543 0 0 0 0
972000000 0.512752652 -0.256052821 -0.015203961 0.001425197 0 0 0 0
980000000 0.328772693 -0.461200684 -0.009757615 0.006245989 0 0 0 0
988000000 0.060279507 -0.54969877 -0.00504277 0.007326169 0 0 0 0
996000000 -0.236024245 -0.516053915 -0.002426368 0.006505277 0 0 0 0
1004000000 -0.478191584 -0.388651311 -0.001080679 0.005894199 0 0 0 0
