# Hz S RI R 50
700000000 0.760127425 0.552784085 -2.6065e-05 0.00063212 0 0 0 0
708000000 0.867217421 0.304538577 -5.8971e-05 0.001086996 0 0 0 0
716000000 0.898423016 0.031286116 0.000124921 0.001301559 0 0 0 0
724000000 0.844444334 -0.251374781 0.000253523 0.001430586 0 0 0 0
732000000 0.694675564 -0.505174279 0.000604671 0.001460497 0 0 0 0
740000000 0.456319719 -0.701990783 0.000891759 0.001631141 0 0 0 0
748000000 0.146401509 -0.799106299 0.001111295 0.00122854 0 0 0 0
756000000 -0.193440109 -0.759252965 0.001393111 0.000935646 0 0 0 0
764000000 -0.494963705 -0.555334031 0.001265566 0.00055888 0 0 0 0
772000000 -0.667641103 -0.201656416 0.001106626 6.2503e-05 0 0 0 0
780000000 -0.601202785 0.222939908 0.00102993 -0.000177441 0 0 0 0
788000000 -0.255601316 0.54079324 0.000573362 -0.000958194 0 0 0 0
796000000 0.236015751 0.535918295 -0.000869648 -0.001290134 0 0 0 0
804000000 0.573650419 0.191677361 -0.002584947 3.622e-06 0 0 0 0
812000000 0.568731367 -0.271416425 -0.002490732 0.002119228 0 0 0 0
820000000 0.288754075 -0.574625849 -0.000470909 0.003735158 0 0 0 0
828000000 -0.091553449 -0.649606525 0.001923741 0.003810611 0 0 0 0
836000000 -0.415360957 -0.527751505 0.00374143 0.002668226 0 0 0 0
844000000 -0.626442372 -0.294809669 0.004986917 0.000836757 0 0 0 0
852000000 -0.715528249 -0.013127309 0.006164884 -0.000978335 0 0 0 0
860000000 -0.68346703 0.257181495 0.007093797 -0.003190088 0 0 0 0
868000000 -0.552117049 0.472125113 0.007346578 -0.007144954 0 0 0 0
876000000 -0.34200254 0.59472537 0.006059326 -0.011767656 0 0 0 0
884000000 -0.107533566 0.600463747 0.000616718 -0.017415618 0 0 0 0
892000000 0.086627081 0.486164897 -0.011291311 -0.020150607 0 0 0 0
900000000 0.35438317 0.25866729 -0.029780596 -0.009721351 0 0 0 0
908000000 0.314459681 0.112700603 -0.035543669 0.016533903 0 0 0 0
916000000 0.219558417 0.040320169 -0.014827179 0.042681258 0 0 0 0
924000000 0.113919548 0.028640553 0.022275714 0.042467597 0 0 0 0
932000000 0.035918194 0.103705383 0.046723324 0.011520734 0 0 0 0
940000000 0.048847012 0.266655683 0.036138143 -0.024069299 0 0 0 0
948000000 0.271511703 0.367991775 0.008171551 -0.034153882 0 0 0 0
956000000 0.463833212 0.242744147 -0.009897142 -0.024519734 0 0 0 0
964000000 0.577100157 0.004196888 -0.016282409 -0.011479984 0 0 0 0
972000000 0.517600357 -0.267146289 -0.016068106 -0.000916272 0 0 0 0
980000000 0.319597333 -0.478306949 -0.011459077 0.004717982 0 0 0 0
988000000 0.045753188 -0.56213802 -0.007234813 0.007225891 0 0 0 0
996000000 -0.243165075 -0.523845851 -0.003107736 0.006744 0 0 0 0
1004000000 -0.479459136 -0.393242239 -0.001412945 0.006882119 0 0 0 0
