# Hz S RI R 50
700000000 0.759038925 0.554537773 8.344e-06 0.000725741 0 0 0 0
708000000 0.865840256 0.307809472 -2.7829e-05 0.000949209 0 0 0 0
716000000 0.89867568 0.033819306 8.7246e-05 0.001323679 0 0 0 0
724000000 0.845592796 -0.242337271 0.000257736 0.00142856 0 0 0 0
732000000 0.694931983 -0.50243318 0.000648693 0.001566212 0 0 0 0
740000000 0.456992179 -0.69873178 0.000892322 0.0015773 0 0 0 0
748000000 0.149361759 -0.799724459 0.001125933 0.001298995 0 0 0 0
756000000 -0.19157584 -0.758865952 0.001397049 0.000974526 0 0 0 0
764000000 -0.494089156 -0.555015087 0.001180707 0.000446043 0 0 0 0
772000000 -0.663822591 -0.199094876 0.001363326 0.000155707 0 0 0 0
780000000 -0.598932325 0.221607089 0.001102513 -0.000350482 0 0 0 0
788000000 -0.252267003 0.532036185 0.000603044 -0.001264674 0 0 0 0
796000000 0.233426168 0.532103002 -0.001003186 -0.001458906 0 0 0 0
804000000 0.569584012 0.189357087 -0.002858031 -9.1281e-05 0 0 0 0
812000000 0.56303966 -0.269949615 -0.002824871 0.00257697 0 0 0 0
820000000 0.284667015 -0.571902871 -0.00058888 0.004174478 0 0 0 0
828000000 -0.08947499 -0.6434834 0.001924381 0.004147021 0 0 0 0
836000000 -0.409437716 -0.521031916 0.003788381 0.002691652 0 0 0 0
844000000 -0.621040284 -0.292027115 0.005269348 0.00114718 0 0 0 0
852000000 -0.708575487 -0.015470967 0.006632162 -0.000896961 0 0 0 0
860000000 -0.679802417 0.254143208 0.007617668 -0.003331034 0 0 0 0
868000000 -0.548719227 0.463766723 0.007878189 -0.007518104 0 0 0 0
876000000 -0.338319838 0.586111426 0.006389491 -0.01272306 0 0 0 0
884000000 -0.108819149 0.590987384 0.000296539 -0.018543615 0 0 0 0
892000000 0.08573462 0.474556446 -0.012669214 -0.021062932 0 0 0 0
900000000 0.34505248 0.255314081 -0.030943986 -0.009831526 0 0 0 0
908000000 0.297064542 0.110825046 -0.037058074 0.019168153 0 0 0 0
916000000 0.200628757 0.044082194 -0.013317724 0.04586967 0 0 0 0
924000000 0.108630046 0.04288797 0.026842106 0.042745642 0 0 0 0
932000000 0.029004013 0.122974328 0.048801779 0.007340588 0 0 0 0
940000000 0.067069076 0.280846774 0.033102106 -0.026611331 0 0 0 0
948000000 0.299373149 0.351504921 0.005242388 -0.032741144 0 0 0 0
956000000 0.48149082 0.226099148 -0.010776726 -0.022907244 0 0 0 0
964000000 0.573600113 -0.013993123 -0.015946809 -0.010303241 0 0 0 0
972000000 0.506217718 -0.276344031 -0.015077614 -0.001511658 0 0 0 0
980000000 0.313804298 -0.478182315 -0.010882177 0.004313908 0 0 0 0
988000000 0.041216447 -0.561476051 -0.007336307 0.006803535 0 0 0 0
996000000 -0.237789928 -0.524797558 -0.003436876 0.007257942 0 0 0 0
1004000000 -0.489496469 -0.382169723 -0.0018673 0.005637469 0 0 0 0
