# Hz S RI R 50
700000000 0.759147405 0.552792251 -4.975e-06 0.000603305 0 0 0 0
708000000 0.867282509 0.306314438 -9.2071e-05 0.001046394 0 0 0 0
716000000 0.896055936 0.031068418 6.246e-06 0.001374377 0 0 0 0
724000000 0.840990483 -0.251215636 0.000240413 0.001531012 0 0 0 0
732000000 0.695925712 -0.503132104 0.000591784 0.001512826 0 0 0 0
740000000 0.457409381 -0.701648294 0.000882783 0.001487134 0 0 0 0
748000000 0.14588806 -0.798585355 0.001256635 0.001463667 0 0 0 0
756000000 -0.19205147 -0.757062971 0.001439168 0.000771801 0 0 0 0
764000000 -0.492788702 -0.555582821 0.001543682 0.000508912 0 0 0 0
772000000 -0.661617815 -0.203127995 0.001425591 6.33e-07 0 0 0 0
780000000 -0.598401665 0.22131893 0.001282126 -0.000388957 0 0 0 0
788000000 -0.256679862 0.534532964 0.000501822 -0.00134084 0 0 0 0
796000000 0.230776324 0.529330909 -0.001211549 -0.001912972 0 0 0 0
804000000 0.567068457 0.190820932 -0.003433496 -0.000304953 0 0 0 0
812000000 0.566169857 -0.268366008 -0.003230665 0.0027242 0 0 0 0
820000000 0.286200076 -0.570261776 -0.000728067 0.004888693 0 0 0 0
828000000 -0.089039757 -0.643914461 0.001946163 0.00486077 0 0 0 0
836000000 -0.409682869 -0.524002969 0.004163247 0.003527579 0 0 0 0
844000000 -0.619652688 -0.292362451 0.006191158 0.001225856 0 0 0 0
852000000 -0.706727802 -0.014188123 0.007628079 -0.001029212 0 0 0 0
860000000 -0.68069452 0.252539008 0.008632721 -0.004344781 0 0 0 0
868000000 -0.551920473 0.462261348 0.008503073 -0.009269504 0 0 0 0
876000000 -0.342206388 0.584706485 0.005767018 -0.015187525 0 0 0 0
884000000 -0.115067087 0.594434082 -0.002249249 -0.020675085 0 0 0 0
892000000 0.084178782 0.482326418 -0.016882821 -0.020957272 0 0 0 0
900000000 0.344352215 0.258880466 -0.035724028 -0.005797861 0 0 0 0
908000000 0.299551486 0.110119491 -0.035714205 0.026565145 0 0 0 0
916000000 0.201410233 0.0477565 -0.005661637 0.049692418 0 0 0 0
924000000 0.112600699 0.048565868 0.03449086 0.039147272 0 0 0 0
932000000 0.051243655 0.114040002 0.050939388 -0.00041494 0 0 0 0
940000000 0.060659278 0.263324648 0.029595842 -0.03234281 0 0 0 0
948000000 0.272681534 0.351573199 0.000568574 -0.03411971 0 0 0 0
956000000 0.471213161 0.241316616 -0.013799784 -0.021243568 0 0 0 0
964000000 0.563449025 -0.006937354 -0.017461536 -0.008077847 0 0 0 0
972000000 0.502202749 -0.265734106 -0.015056259 0.000993225 0 0 0 0
980000000 0.316792428 -0.468825608 -0.009774199 0.006256069 0 0 0 0
988000000 0.052247557 -0.555082321 -0.005415364 0.007948487 0 0 0 0
996000000 -0.237227126 -0.522518217 -0.002378595 0.006725715 0 0 0 0
1004000000 -0.479168474 -0.391804724 -0.000544124 0.006123539 0 0 0 0
