# Hz S RI R 50
700000000 0.761685669 0.55168277 -2.361e-06 0.000612627 0 0 0 0
708000000 0.866183042 0.306452006 -9.3946e-05 0.00093049 0 0 0 0
716000000 0.899909794 0.031425077 0.000165536 0.001340374 0 0 0 0
724000000 0.845464169 -0.249034881 0.000323657 0.001532028 0 0 0 0
732000000 0.695954978 -0.506091356 0.000551064 0.001613292 0 0 0 0
740000000 0.454969912 -0.701603889 0.000835154 0.001452562 0 0 0 0
748000000 0.147237434 -0.799364626 0.001133827 0.001264615 0 0 0 0
756000000 -0.193767368 -0.756377339 0.001433508 0.000820998 0 0 0 0
764000000 -0.49532622 -0.553734362 0.0013576 0.000357751 0 0 0 0
772000000 -0.666127085 -0.199581235 0.001433985 0.000248809 0 0 0 0
780000000 -0.596505641 0.225603356 0.001302881 -0.000338937 0 0 0 0
788000000 -0.250732868 0.536055982 0.000368186 -0.001336181 0 0 0 0
796000000 0.236262261 0.527060091 -0.001176032 -0.00155098 0 0 0 0
804000000 0.569609582 0.183884069 -0.003230096 -0.000303154 0 0 0 0
812000000 0.562979638 -0.274937599 -0.002906524 0.002444529 0 0 0 0
820000000 0.281879454 -0.573175787 -0.000603517 0.004300378 0 0 0 0
828000000 -0.096377044 -0.643425166 0.001574025 0.004232043 0 0 0 0
836000000 -0.412639826 -0.520677268 0.003610521 0.003019 0 0 0 0
844000000 -0.624480724 -0.289361715 0.005523252 0.001358342 0 0 0 0
852000000 -0.707577407 -0.011709067 0.006662843 -0.00043125 0 0 0 0
860000000 -0.678110599 0.25544098 0.007893955 -0.003071994 0 0 0 0
868000000 -0.545052349 0.466151893 0.008247144 -0.007363934 0 0 0 0
876000000 -0.334726333 0.581874072 0.006795459 -0.012756926 0 0 0 0
884000000 -0.109840393 0.585488915 0.000932611 -0.018856333 0 0 0 0
892000000 0.079508543 0.471628844 -0.01218041 -0.022169802 0 0 0 0
900000000 0.333307296 0.253332972 -0.032757807 -0.011704216 0 0 0 0
908000000 0.297222733 0.121882021 -0.038527742 0.018360203 0 0 0 0
916000000 0.208963319 0.048493038 -0.014735189 0.046428442 0 0 0 0
924000000 0.11566618 0.039486575 0.025438128 0.044990003 0 0 0 0
932000000 0.041460327 0.115909941 0.04995232 0.009171192 0 0 0 0
940000000 0.059066846 0.277531027 0.034687921 -0.026736808 0 0 0 0
948000000 0.281705021 0.355675697 0.006443327 -0.033144157 0 0 0 0
956000000 0.486943066 0.23159869 -0.010220748 -0.023275263 0 0 0 0
964000000 0.571136891 -0.014105466 -0.015888413 -0.011335321 0 0 0 0
972000000 0.510129928 -0.264552533 -0.014858413 -0.001806748 0 0 0 0
980000000 0.308109015 -0.47605592 -0.010927752 0.003868506 0 0 0 0
988000000 0.033202156 -0.562842309 -0.007199747 0.006257411 0 0 0 0
996000000 -0.247922495 -0.52633357 -0.003987038 0.006723779 0 0 0 0
1004000000 -0.477447241 -0.376692503 -0.001904779 0.006569137 0 0 0 0
