# Hz S RI R 50
700000000 0.759926617 0.551014244 -2.6313e-05 0.000681481 0 0 0 0
708000000 0.865331709 0.306752741 -3.401e-05 0.000909858 0 0 0 0
716000000 0.897794604 0.034128993 4.8051e-05 0.00112521 0 0 0 0
724000000 0.83967328 -0.248805388 0.000262719 0.001338647 0 0 0 0
732000000 0.695030808 -0.505749762 0.000534497 0.001682934 0 0 0 0
740000000 0.456766784 -0.701346099 0.00096165 0.001651504 0 0 0 0
748000000 0.147532761 -0.80176264 0.001287964 0.001275305 0 0 0 0
756000000 -0.191238924 -0.75954926 0.001289391 0.000851559 0 0 0 0
764000000 -0.494912236 -0.556777656 0.001407581 0.000653821 0 0 0 0
772000000 -0.663043856 -0.202037066 0.001678366 0.000140518 0 0 0 0
780000000 -0.60027337 0.217311352 0.001515022 -0.000633074 0 0 0 0
788000000 -0.262219607 0.535227775 0.000793256 -0.0014831 0 0 0 0
796000000 0.227160453 0.539155125 -0.001152642 -0.002314233 0 0 0 0
804000000 0.569962561 0.196444422 -0.003683448 -0.00090554 0 0 0 0
812000000 0.5717597 -0.264737576 -0.003655008 0.002323196 0 0 0 0
820000000 0.294086813 -0.571742951 -0.001321302 0.004592851 0 0 0 0
828000000 -0.084205776 -0.650700747 0.001326793 0.005041191 0 0 0 0
836000000 -0.406789302 -0.530225694 0.00375586 0.004091055 0 0 0 0
844000000 -0.620605587 -0.299298763 0.005775299 0.001879321 0 0 0 0
852000000 -0.714037358 -0.02335328 0.007294001 -2.6773e-05 0 0 0 0
860000000 -0.6848737 0.247514516 0.008872804 -0.003093775 0 0 0 0
868000000 -0.558866083 0.465071737 0.009516952 -0.007804726 0 0 0 0
876000000 -0.350448608 0.59107095 0.007645733 -0.014081888 0 0 0 0
884000000 -0.115955494 0.59994173 0.00127884 -0.020593415 0 0 0 0
892000000 0.080014787 0.487948179 -0.013046594 -0.024005595 0 0 0 0
900000000 0.35031253 0.273769438 -0.034603133 -0.012859329 0 0 0 0
908000000 0.316187679 0.116370476 -0.042060624 0.019191714 0 0 0 0
916000000 0.219169035 0.045307133 -0.017465064 0.050019945 0 0 0 0
924000000 0.125667363 0.029357785 0.027165254 0.049017701 0 0 0 0
932000000 0.037879299 0.095764011 0.054395869 0.01139061 0 0 0 0
940000000 0.046148944 0.252004235 0.038625307 -0.028388299 0 0 0 0
948000000 0.262292802 0.354370027 0.00716499 -0.037290334 0 0 0 0
956000000 0.470327377 0.241946071 -0.011187157 -0.025650836 0 0 0 0
964000000 0.577260315 -0.00036758 -0.018108934 -0.012431413 0 0 0 0
972000000 0.514225661 -0.253527224 -0.017579957 -0.001421349 0 0 0 0
980000000 0.322097539 -0.464252233 -0.012545494 0.00550625 0 0 0 0
988000000 0.055764485 -0.558720648 -0.007364067 0.00821035 0 0 0 0
996000000 -0.244799673 -0.515713214 -0.003737853 0.008416535 0 0 0 0
1004000000 -0.485916525 -0.391443252 -0.001346568 0.007655244 0 0 0 0
