# Hz S RI R 50
700000000 0.758709907 0.551418364 -4.5143e-05 0.000657082 0 0 0 0
708000000 0.867444694 0.311434566 1.6347e-05 0.000966884 0 0 0 0
716000000 0.896200895 0.0345744 -8.0314e-05 0.001235024 0 0 0 0
724000000 0.84546262 -0.244200944 0.000338034 0.001451377 0 0 0 0
732000000 0.695267438 -0.503086745 0.000548519 0.001581639 0 0 0 0
740000000 0.460541188 -0.700171768 0.000901874 0.001536184 0 0 0 0
748000000 0.150641381 -0.799539566 0.00118198 0.001148985 0 0 0 0
756000000 -0.189548745 -0.758435189 0.001411537 0.000860678 0 0 0 0
764000000 -0.494185447 -0.557530701 0.001445755 0.000534743 0 0 0 0
772000000 -0.664068281 -0.204167649 0.001462354 0.000284215 0 0 0 0
780000000 -0.599138617 0.218199804 0.001187568 -0.00046179 0 0 0 0
788000000 -0.258569031 0.531864404 0.000583892 -0.001220204 0 0 0 0
796000000 0.22799696 0.530646502 -0.000975779 -0.001675795 0 0 0 0
804000000 0.568643093 0.190420612 -0.003097746 -0.000184509 0 0 0 0
812000000 0.563037216 -0.267400175 -0.0030677 0.002696023 0 0 0 0
820000000 0.288462489 -0.570364892 -0.000655336 0.004626718 0 0 0 0
828000000 -0.08722978 -0.645761191 0.001997441 0.004451415 0 0 0 0
836000000 -0.403063178 -0.524943649 0.004270835 0.003032642 0 0 0 0
844000000 -0.621550559 -0.290712088 0.005791482 0.001053968 0 0 0 0
852000000 -0.711949169 -0.015941001 0.006900049 -0.001187117 0 0 0 0
860000000 -0.680979967 0.251457571 0.007999067 -0.004074764 0 0 0 0
868000000 -0.552166461 0.461182802 0.007869689 -0.008565462 0 0 0 0
876000000 -0.341754764 0.585820555 0.005475933 -0.013654445 0 0 0 0
884000000 -0.108173854 0.593288362 -0.001292432 -0.01901086 0 0 0 0
892000000 0.081621035 0.478592813 -0.014473494 -0.020307151 0 0 0 0
900000000 0.33700475 0.258437454 -0.033642083 -0.0072474 0 0 0 0
908000000 0.28692317 0.110858388 -0.03605166 0.022330185 0 0 0 0
916000000 0.199290543 0.050909467 -0.009551844 0.047053463 0 0 0 0
924000000 0.109953694 0.05872574 0.030286047 0.040526892 0 0 0 0
932000000 0.043988514 0.115898475 0.049408048 0.003697951 0 0 0 0
940000000 0.071484796 0.263924419 0.032021582 -0.029420556 0 0 0 0
948000000 0.278568655 0.349402368 0.003497232 -0.034037377 0 0 0 0
956000000 0.470393478 0.228647977 -0.013077338 -0.022411627 0 0 0 0
964000000 0.564428567 -0.007078286 -0.017025988 -0.00885468 0 0 0 0
972000000 0.513501644 -0.262208759 -0.015046089 -2.8552e-05 0 0 0 0
980000000 0.320247292 -0.467769056 -0.010352956 0.005410006 0 0 0 0
988000000 0.054311927 -0.554634332 -0.006551578 0.007141095 0 0 0 0
996000000 -0.240762323 -0.521285176 -0.002931662 0.006463628 0 0 0 0
1004000000 -0.480842769 -0.389584243 -0.001530993 0.006189611 0 0 0 0
