# Hz S RI R 50
700000000 0.757226765 0.55278629 -2.8873e-05 0.000687236 0 0 0 0
708000000 0.863128304 0.306877315 -7.4936e-05 0.001023485 0 0 0 0
716000000 0.898749887 0.033761017 -2.342e-06 0.001202908 0 0 0 0
724000000 0.84229964 -0.246751651 0.000355729 0.001387695 0 0 0 0
732000000 0.694981813 -0.500344455 0.000630122 0.001666813 0 0 0 0
740000000 0.456849277 -0.699353456 0.000879341 0.00155694 0 0 0 0
748000000 0.150464043 -0.797964751 0.001264494 0.001146918 0 0 0 0
756000000 -0.189147934 -0.758455574 0.001497304 0.000899526 0 0 0 0
764000000 -0.490793377 -0.557895541 0.001329932 0.000566869 0 0 0 0
772000000 -0.663263976 -0.207040861 0.001296799 -4.95e-07 0 0 0 0
780000000 -0.6001513 0.217360734 0.001062396 -0.000394965 0 0 0 0
788000000 -0.262366622 0.532173752 0.000558951 -0.001287913 0 0 0 0
796000000 0.22393617 0.537530899 -0.001053271 -0.001472013 0 0 0 0
804000000 0.56703633 0.196565225 -0.003096182 -6.2516e-05 0 0 0 0
812000000 0.571045398 -0.262963742 -0.002910934 0.002353271 0 0 0 0
820000000 0.294642478 -0.567846834 -0.000519311 0.004655042 0 0 0 0
828000000 -0.081264354 -0.647313594 0.00211597 0.004599148 0 0 0 0
836000000 -0.402009904 -0.528021454 0.004224328 0.003053629 0 0 0 0
844000000 -0.618928194 -0.297446161 0.005671258 0.000929952 0 0 0 0
852000000 -0.70912826 -0.021616034 0.007223316 -0.000966681 0 0 0 0
860000000 -0.684999287 0.246993705 0.007968265 -0.004041901 0 0 0 0
868000000 -0.557759761 0.459927409 0.007872075 -0.00866063 0 0 0 0
876000000 -0.350652694 0.58805406 0.005515879 -0.014118948 0 0 0 0
884000000 -0.11998105 0.604082345 -0.001591068 -0.019139278 0 0 0 0
892000000 0.084747351 0.487519472 -0.014967164 -0.020423255 0 0 0 0
900000000 0.346930772 0.264942526 -0.033824689 -0.007109076 0 0 0 0
908000000 0.305351376 0.108802013 -0.035693146 0.023767037 0 0 0 0
916000000 0.212396845 0.047064695 -0.007805794 0.047534286 0 0 0 0
924000000 0.125718504 0.048167094 0.03103559 0.039338603 0 0 0 0
932000000 0.050237294 0.101248435 0.048877771 0.002533153 0 0 0 0
940000000 0.054895468 0.253512769 0.031002791 -0.029309505 0 0 0 0
948000000 0.259060472 0.341639876 0.002688651 -0.034357063 0 0 0 0
956000000 0.46446979 0.234731614 -0.013286664 -0.022018205 0 0 0 0
964000000 0.558467864 0.014744575 -0.017173878 -0.008383216 0 0 0 0
972000000 0.512906908 -0.25069496 -0.015395919 0.001149354 0 0 0 0
980000000 0.325888961 -0.461570978 -0.009598884 0.005879553 0 0 0 0
988000000 0.058862116 -0.560131192 -0.005654068 0.007434256 0 0 0 0
996000000 -0.235751852 -0.525126576 -0.002721002 0.006325651 0 0 0 0
1004000000 -0.484295278 -0.395886272 -0.001096431 0.005618367 0 0 0 0
