# Hz S RI R 50
700000000 0.761705458 0.554219007 -8.366e-06 0.000654458 0 0 0 0
708000000 0.866591215 0.306619763 -1.9264e-05 0.001059247 0 0 0 0
716000000 0.900711059 0.033819664 0.000212394 0.0012406 0 0 0 0
724000000 0.842358291 -0.244297057 0.000259346 0.001477269 0 0 0 0
732000000 0.695262014 -0.50365138 0.000665671 0.001517617 0 0 0 0
740000000 0.459094405 -0.70305711 0.000755522 0.001455181 0 0 0 0
748000000 0.150636121 -0.798654675 0.001125372 0.001239027 0 0 0 0
756000000 -0.190329492 -0.759293496 0.001526492 0.000973354 0 0 0 0
764000000 -0.491838634 -0.555833876 0.001468892 0.000544375 0 0 0 0
772000000 -0.66546899 -0.204663068 0.001264747 0.00015115 0 0 0 0
780000000 -0.604590177 0.216801196 0.001098566 -0.000430788 0 0 0 0
788000000 -0.265439122 0.534872651 0.000476966 -0.001229698 0 0 0 0
796000000 0.221712872 0.53877896 -0.001138496 -0.001461562 0 0 0 0
804000000 0.569364845 0.202609717 -0.003153317 -0.000366546 0 0 0 0
812000000 0.572179913 -0.258829236 -0.002669848 0.00242714 0 0 0 0
820000000 0.29816091 -0.572839379 -0.000298412 0.00423109 0 0 0 0
828000000 -0.07888139 -0.65015155 0.001858259 0.004025845 0 0 0 0
836000000 -0.40292418 -0.531446099 0.003817963 0.002815201 0 0 0 0
844000000 -0.619240164 -0.298694878 0.005177387 0.001028455 0 0 0 0
852000000 -0.711486458 -0.025189796 0.006156982 -0.000936275 0 0 0 0
860000000 -0.688501834 0.244326069 0.007086426 -0.003200356 0 0 0 0
868000000 -0.562579035 0.46086803 0.007639151 -0.006887943 0 0 0 0
876000000 -0.355327874 0.585751354 0.006184571 -0.011843265 0 0 0 0
884000000 -0.121485017 0.602576851 0.000800795 -0.017047576 0 0 0 0
892000000 0.073817715 0.495437443 -0.010701365 -0.019874969 0 0 0 0
900000000 0.349707663 0.285427868 -0.028543764 -0.010104929 0 0 0 0
908000000 0.312976926 0.132414177 -0.034182064 0.014661645 0 0 0 0
916000000 0.236941874 0.055630154 -0.015737704 0.039315301 0 0 0 0
924000000 0.146967843 0.02322328 0.017978183 0.040442731 0 0 0 0
932000000 0.042580854 0.075650207 0.041750624 0.013862458 0 0 0 0
940000000 0.039849422 0.242959156 0.034889597 -0.018080512 0 0 0 0
948000000 0.249085173 0.358004719 0.011741147 -0.03021848 0 0 0 0
956000000 0.46271339 0.251977801 -0.006184337 -0.024696465 0 0 0 0
964000000 0.567486822 0.009843819 -0.014063432 -0.013061897 0 0 0 0
972000000 0.51763451 -0.260686516 -0.015224809 -0.003630799 0 0 0 0
980000000 0.324917972 -0.46829459 -0.012060588 0.002558011 0 0 0 0
988000000 0.043540716 -0.561674654 -0.00851941 0.005697383 0 0 0 0
996000000 -0.235524922 -0.522319912 -0.005266797 0.005746709 0 0 0 0
1004000000 -0.474502354 -0.380232483 -0.003089866 0.006745421 0 0 0 0
