# Hz S RI R 50
700000000 0.755881249 0.550638973 -3.1657e-05 0.000635521 0 0 0 0
708000000 0.865302085 0.306362479 3.921e-06 0.001010904 0 0 0 0
716000000 0.896753668 0.031007459 0.00021094 0.001141113 0 0 0 0
724000000 0.841238617 -0.247216761 0.000313601 0.001296544 0 0 0 0
732000000 0.697604358 -0.503690838 0.000603325 0.001564603 0 0 0 0
740000000 0.457218736 -0.701530039 0.000891744 0.001390723 0 0 0 0
748000000 0.147372096 -0.798735201 0.001121358 0.001181333 0 0 0 0
756000000 -0.191526934 -0.758593261 0.001402701 0.000806298 0 0 0 0
764000000 -0.494700223 -0.554672777 0.001206923 0.00051976 0 0 0 0
772000000 -0.664937078 -0.198686614 0.001404817 0.000289718 0 0 0 0
780000000 -0.600190103 0.223660588 0.001292155 -0.000464736 0 0 0 0
788000000 -0.25642246 0.539053738 0.000591065 -0.001108332 0 0 0 0
796000000 0.233049005 0.533196687 -0.001141448 -0.001596005 0 0 0 0
804000000 0.57596457 0.189194023 -0.003062621 -0.000160921 0 0 0 0
812000000 0.569313824 -0.267488181 -0.00283117 0.002739194 0 0 0 0
820000000 0.289444565 -0.576174736 -0.000545826 0.004268612 0 0 0 0
828000000 -0.091469883 -0.648946702 0.001999021 0.004230997 0 0 0 0
836000000 -0.410649538 -0.527733206 0.004176777 0.002905055 0 0 0 0
844000000 -0.62852621 -0.294224083 0.005766423 0.00104727 0 0 0 0
852000000 -0.715860486 -0.01661246 0.006852527 -0.001162453 0 0 0 0
860000000 -0.688202738 0.255277812 0.007831343 -0.004109374 0 0 0 0
868000000 -0.558438658 0.468291103 0.007650316 -0.008478973 0 0 0 0
876000000 -0.346367388 0.591383516 0.005305155 -0.013849901 0 0 0 0
884000000 -0.112782858 0.606687009 -0.001564727 -0.019108604 0 0 0 0
892000000 0.094156131 0.493247926 -0.014920901 -0.020089695 0 0 0 0
900000000 0.362119227 0.26669842 -0.03348435 -0.0072706 0 0 0 0
908000000 0.313569009 0.099229484 -0.035450644 0.022744122 0 0 0 0
916000000 0.207658797 0.024933952 -0.008671307 0.047656308 0 0 0 0
924000000 0.105872496 0.027401333 0.031204923 0.040534675 0 0 0 0
932000000 0.024424595 0.107724159 0.050233647 0.002699745 0 0 0 0
940000000 0.046533353 0.273103713 0.031451005 -0.030357258 0 0 0 0
948000000 0.26372677 0.366992354 0.002636564 -0.035354327 0 0 0 0
956000000 0.480255991 0.243106722 -0.014095185 -0.022603726 0 0 0 0
964000000 0.568400144 -0.002754527 -0.017962165 -0.008728359 0 0 0 0
972000000 0.510798573 -0.250763446 -0.015675973 0.001596092 0 0 0 0
980000000 0.322405636 -0.473480194 -0.009879095 0.00624339 0 0 0 0
988000000 0.055408656 -0.557449996 -0.005710758 0.008031964 0 0 0 0
996000000 -0.235211476 -0.5230847 -0.002052502 0.006853333 0 0 0 0
1004000000 -0.473952263 -0.396471381 -0.000829231 0.005600053 0 0 0 0
