# Hz S RI R 50
700000000 0.764175057 0.553522646 -3.2126e-05 0.000685742 0 0 0 0
708000000 0.866180539 0.305277943 -5.8734e-05 0.000994768 0 0 0 0
716000000 0.89693576 0.030295096 5.8326e-05 0.001121817 0 0 0 0
724000000 0.84707576 -0.248137205 0.00019975 0.001389762 0 0 0 0
732000000 0.691761672 -0.506582558 0.000660952 0.001494004 0 0 0 0
740000000 0.455838352 -0.705134451 0.000893579 0.001445493 0 0 0 0
748000000 0.145586669 -0.800171077 0.001278417 0.001252896 0 0 0 0
756000000 -0.193945452 -0.758375704 0.001519159 0.000896978 0 0 0 0
764000000 -0.498207151 -0.554731726 0.001224169 0.000476453 0 0 0 0
772000000 -0.667919516 -0.203549295 0.001171614 -4.068e-06 0 0 0 0
780000000 -0.600937664 0.22449325 0.001188591 -0.000400647 0 0 0 0
788000000 -0.255682915 0.537052333 0.000244245 -0.001098092 0 0 0 0
796000000 0.234060019 0.531988859 -0.001178163 -0.001187497 0 0 0 0
804000000 0.572600722 0.189197093 -0.002592658 0.000256049 0 0 0 0
812000000 0.565844237 -0.272356092 -0.002279272 0.002472622 0 0 0 0
820000000 0.286236524 -0.575964212 -0.000227147 0.004187486 0 0 0 0
828000000 -0.094459109 -0.650260686 0.002132632 0.003497519 0 0 0 0
836000000 -0.412388652 -0.525124609 0.003653744 0.002320948 0 0 0 0
844000000 -0.625484347 -0.292580604 0.005089931 0.000752694 0 0 0 0
852000000 -0.714521586 -0.011806827 0.006182908 -0.000950816 0 0 0 0
860000000 -0.679758608 0.256548345 0.007082748 -0.003469161 0 0 0 0
868000000 -0.547020077 0.466826438 0.007284713 -0.007284485 0 0 0 0
876000000 -0.335723042 0.589937627 0.00579961 -0.012103058 0 0 0 0
884000000 -0.107824683 0.593990087 0.000224551 -0.017520885 0 0 0 0
892000000 0.087868988 0.476340711 -0.011811306 -0.019727693 0 0 0 0
900000000 0.331322342 0.254566103 -0.029461167 -0.008974592 0 0 0 0
908000000 0.297103881 0.111410804 -0.034421045 0.017645904 0 0 0 0
916000000 0.207094147 0.049727279 -0.012521455 0.042222935 0 0 0 0
924000000 0.111397944 0.034252084 0.023277077 0.039942886 0 0 0 0
932000000 0.029924355 0.109798982 0.045363098 0.009789208 0 0 0 0
940000000 0.059453908 0.277632743 0.034417159 -0.023899717 0 0 0 0
948000000 0.283543199 0.363745629 0.007529463 -0.033622171 0 0 0 0
956000000 0.476395875 0.229774907 -0.009502795 -0.024545954 0 0 0 0
964000000 0.569193959 -0.01260315 -0.016886007 -0.011476072 0 0 0 0
972000000 0.500248014 -0.266270399 -0.016132771 -0.001033249 0 0 0 0
980000000 0.314189165 -0.476944625 -0.011078597 0.005326307 0 0 0 0
988000000 0.044329758 -0.564262568 -0.006317499 0.00780842 0 0 0 0
996000000 -0.245513901 -0.51762402 -0.00328521 0.006999238 0 0 0 0
1004000000 -0.488949447 -0.382092684 -0.000756803 0.006357336 0 0 0 0
