# Hz S RI R 50
700000000 0.763850152 0.550739407 -1.1624e-05 0.000557208 0 0 0 0
708000000 0.865767955 0.306028485 -1.7568e-05 0.000930838 0 0 0 0
716000000 0.89576739 0.034369423 6.1452e-05 0.001314813 0 0 0 0
724000000 0.845049321 -0.249565362 0.000373868 0.001401561 0 0 0 0
732000000 0.693305909 -0.503757894 0.000440767 0.001519995 0 0 0 0
740000000 0.456410586 -0.701635241 0.000849882 0.001573825 0 0 0 0
748000000 0.148541405 -0.798971414 0.001257934 0.001402781 0 0 0 0
756000000 -0.19062747 -0.758961856 0.001266861 0.000860644 0 0 0 0
764000000 -0.493944376 -0.556463897 0.001574523 0.000753883 0 0 0 0
772000000 -0.663429081 -0.20046404 0.001655015 0.000116687 0 0 0 0
780000000 -0.598287642 0.22316198 0.001356542 -0.000468601 0 0 0 0
788000000 -0.253561109 0.535258352 0.000698696 -0.001613905 0 0 0 0
796000000 0.235287606 0.528026163 -0.001065217 -0.002029931 0 0 0 0
804000000 0.572021126 0.187377154 -0.003439377 -0.00048025 0 0 0 0
812000000 0.566189169 -0.271432161 -0.003608175 0.002768835 0 0 0 0
820000000 0.284326642 -0.574081003 -0.000883597 0.005124865 0 0 0 0
828000000 -0.094469502 -0.647177517 0.001999802 0.005195537 0 0 0 0
836000000 -0.41253826 -0.523002207 0.004582847 0.003436887 0 0 0 0
844000000 -0.622534453 -0.286382824 0.006349787 0.00127991 0 0 0 0
852000000 -0.71104896 -0.012208881 0.007734762 -0.001230897 0 0 0 0
860000000 -0.685650408 0.25632286 0.008360686 -0.00462755 0 0 0 0
868000000 -0.548616111 0.46552658 0.008147388 -0.009382781 0 0 0 0
876000000 -0.345234245 0.590163826 0.005283889 -0.01492779 0 0 0 0
884000000 -0.109195105 0.598719 -0.002274596 -0.020186761 0 0 0 0
892000000 0.093473114 0.482160001 -0.016754388 -0.020397569 0 0 0 0
900000000 0.353151053 0.256987869 -0.034560587 -0.004553977 0 0 0 0
908000000 0.30431351 0.095152303 -0.03557875 0.026392778 0 0 0 0
916000000 0.194792449 0.033693045 -0.005560224 0.049175243 0 0 0 0
924000000 0.098444603 0.03562789 0.034307219 0.039554629 0 0 0 0
932000000 0.03556624 0.129154592 0.05127526 -0.000560559 0 0 0 0
940000000 0.063206583 0.276930898 0.029868412 -0.032768297 0 0 0 0
948000000 0.292878508 0.366753011 7.9158e-05 -0.03498112 0 0 0 0
956000000 0.482171148 0.23881191 -0.014280125 -0.021989289 0 0 0 0
964000000 0.567609131 -0.004875931 -0.018053099 -0.008029034 0 0 0 0
972000000 0.513375461 -0.264144301 -0.015159002 0.001278426 0 0 0 0
980000000 0.319533854 -0.47351855 -0.010278428 0.006515015 0 0 0 0
988000000 0.051198285 -0.560180664 -0.005319114 0.007473068 0 0 0 0
996000000 -0.239630296 -0.518517851 -0.002103519 0.007199418 0 0 0 0
1004000000 -0.47703737 -0.389884412 -0.000226758 0.006341055 0 0 0 0
