# Hz S RI R 50
700000000 0.755365848 0.553736269 -3.5593e-05 0.000712075 0 0 0 0
708000000 0.864969849 0.307229667 1.765e-06 0.00104915 0 0 0 0
716000000 0.89826256 0.034047324 0.000165116 0.001225619 0 0 0 0
724000000 0.848013222 -0.244918942 0.000190472 0.00138514 0 0 0 0
732000000 0.694295763 -0.504355072 0.00049932 0.001477422 0 0 0 0
740000000 0.45770207 -0.700389802 0.000934499 0.001567538 0 0 0 0
748000000 0.148730948 -0.797890961 0.001311798 0.001321942 0 0 0 0
756000000 -0.190134912 -0.757748723 0.00149056 0.000778467 0 0 0 0
764000000 -0.490419507 -0.556597471 0.001253133 0.000526057 0 0 0 0
772000000 -0.660900473 -0.201675042 0.001414077 8.3767e-05 0 0 0 0
780000000 -0.597859859 0.219009637 0.001102055 -0.000393034 0 0 0 0
788000000 -0.255938619 0.530917704 0.000443268 -0.00125572 0 0 0 0
796000000 0.229599952 0.528145432 -0.001019015 -0.001496705 0 0 0 0
804000000 0.566998541 0.189003601 -0.00285178 -0.000199464 0 0 0 0
812000000 0.561946809 -0.267089694 -0.002688391 0.002293323 0 0 0 0
820000000 0.286486774 -0.568536102 -0.000652066 0.004256254 0 0 0 0
828000000 -0.089458569 -0.64203751 0.001930801 0.004198638 0 0 0 0
836000000 -0.4052293 -0.521845698 0.003739358 0.002910108 0 0 0 0
844000000 -0.616182982 -0.28964284 0.005461782 0.001042471 0 0 0 0
852000000 -0.706669151 -0.015905546 0.006529519 -0.000556472 0 0 0 0
860000000 -0.678798496 0.251218497 0.007842 -0.003480725 0 0 0 0
868000000 -0.546639084 0.459595292 0.00808841 -0.007633421 0 0 0 0
876000000 -0.337964206 0.582516491 0.006502133 -0.013467752 0 0 0 0
884000000 -0.112459339 0.590706884 6.8025e-05 -0.01929395 0 0 0 0
892000000 0.075297102 0.471495032 -0.013526016 -0.021626645 0 0 0 0
900000000 0.331340223 0.254027783 -0.033038724 -0.008685941 0 0 0 0
908000000 0.290800899 0.11841575 -0.037675566 0.020935371 0 0 0 0
916000000 0.203096032 0.058453127 -0.011788439 0.047413516 0 0 0 0
924000000 0.122905887 0.051643468 0.028211871 0.04360133 0 0 0 0
932000000 0.053656794 0.113135784 0.050371658 0.006526138 0 0 0 0
940000000 0.071837678 0.266837924 0.034123286 -0.027856742 0 0 0 0
948000000 0.276859253 0.341513067 0.005429507 -0.034068249 0 0 0 0
956000000 0.472780108 0.219769522 -0.012052562 -0.023780351 0 0 0 0
964000000 0.567431449 -0.006690877 -0.017019635 -0.010199276 0 0 0 0
972000000 0.50527811 -0.26426807 -0.01564826 -0.000832263 0 0 0 0
980000000 0.316055387 -0.470144212 -0.011005761 0.005347622 0 0 0 0
988000000 0.044690016 -0.557806193 -0.00678766 0.007355774 0 0 0 0
996000000 -0.243933975 -0.519156813 -0.002532093 0.006958558 0 0 0 0
1004000000 -0.475352644 -0.389019787 -0.001114108 0.005804445 0 0 0 0
