# Hz S RI R 50
700000000 0.756329536 0.550826847 4.022e-05 0.00060168 0 0 0 0
708000000 0.86564511 0.305028319 -6.479e-06 0.000916032 0 0 0 0
716000000 0.894567072 0.033405046 3.92e-06 0.001308701 0 0 0 0
724000000 0.841330945 -0.249005094 9.8448e-05 0.001479349 0 0 0 0
732000000 0.695279359 -0.503738641 0.000657101 0.001587736 0 0 0 0
740000000 0.455684095 -0.702089309 0.000805128 0.001617308 0 0 0 0
748000000 0.146619915 -0.7978338 0.001169345 0.001219072 0 0 0 0
756000000 -0.190278574 -0.757832944 0.001499054 0.000912561 0 0 0 0
764000000 -0.492623418 -0.55523765 0.001566976 0.000547205 0 0 0 0
772000000 -0.664289653 -0.203525781 0.001390648 9.3839e-05 0 0 0 0
780000000 -0.601802945 0.220839813 0.001418904 -0.000530482 0 0 0 0
788000000 -0.260575741 0.532790541 0.000484209 -0.001382215 0 0 0 0
796000000 0.227546676 0.532697737 -0.001255192 -0.001932594 0 0 0 0
804000000 0.568577885 0.195619925 -0.003395227 -0.000299709 0 0 0 0
812000000 0.566276252 -0.261182069 -0.003224273 0.002977361 0 0 0 0
820000000 0.291888624 -0.571226596 -0.000606304 0.00463157 0 0 0 0
828000000 -0.084755294 -0.646281063 0.002005757 0.004385233 0 0 0 0
836000000 -0.407242506 -0.528645277 0.00398362 0.003199145 0 0 0 0
844000000 -0.624417483 -0.296006053 0.005682919 0.001251639 0 0 0 0
852000000 -0.711378931 -0.019579922 0.00705725 -0.000834164 0 0 0 0
860000000 -0.685112655 0.249889463 0.008165381 -0.003705 0 0 0 0
868000000 -0.555664122 0.468254029 0.008358623 -0.008045377 0 0 0 0
876000000 -0.346885979 0.58859986 0.006505083 -0.013401621 0 0 0 0
884000000 -0.112453095 0.599915564 0.000274733 -0.019354986 0 0 0 0
892000000 0.083252847 0.484288066 -0.013278895 -0.022118775 0 0 0 0
900000000 0.348535418 0.26230368 -0.033459644 -0.009462859 0 0 0 0
908000000 0.295450568 0.112625688 -0.039171718 0.020545816 0 0 0 0
916000000 0.208847582 0.047701656 -0.013732115 0.049134965 0 0 0 0
924000000 0.126349195 0.046715192 0.028833372 0.045558653 0 0 0 0
932000000 0.047227323 0.103951163 0.053053267 0.007395742 0 0 0 0
940000000 0.067715607 0.265640467 0.035081144 -0.029964586 0 0 0 0
948000000 0.271265923 0.355186432 0.004713017 -0.035128723 0 0 0 0
956000000 0.468706995 0.229387134 -0.012183968 -0.024123299 0 0 0 0
964000000 0.572823226 -0.007813741 -0.017131036 -0.010311756 0 0 0 0
972000000 0.507176518 -0.264611512 -0.015632368 -0.000601044 0 0 0 0
980000000 0.310815989 -0.478823661 -0.011139718 0.005217016 0 0 0 0
988000000 0.050920542 -0.557546317 -0.006486074 0.007432843 0 0 0 0
996000000 -0.238837599 -0.520193874 -0.003481564 0.007083966 0 0 0 0
1004000000 -0.480497956 -0.382668048 -0.001214764 0.005999374 0 0 0 0
