# Hz S RI R 50
700000000 0.763506352 0.551496624 -0.0001551 0.00067536 0 0 0 0
708000000 0.867843925 0.306977361 -5.2259e-05 0.001006906 0 0 0 0
716000000 0.898360013 0.031794335 -5.962e-05 0.001262414 0 0 0 0
724000000 0.845117807 -0.248510137 0.000307727 0.00138852 0 0 0 0
732000000 0.695736229 -0.503767073 0.000608276 0.001623259 0 0 0 0
740000000 0.455392509 -0.702071547 0.000881781 0.001593731 0 0 0 0
748000000 0.147869706 -0.799517035 0.001190967 0.001239848 0 0 0 0
756000000 -0.19419302 -0.759980857 0.001318868 0.001080509 0 0 0 0
764000000 -0.49559918 -0.558402538 0.001371445 0.00058408 0 0 0 0
772000000 -0.666097104 -0.199338108 0.001641396 -1.9176e-05 0 0 0 0
780000000 -0.601149201 0.226616382 0.001571083 -0.00047664 0 0 0 0
788000000 -0.256878644 0.537543892 0.00090168 -0.001556624 0 0 0 0
796000000 0.234560519 0.532205224 -0.001118151 -0.002231711 0 0 0 0
804000000 0.574122786 0.188561946 -0.003626097 -0.000733386 0 0 0 0
812000000 0.57055962 -0.273879021 -0.003737099 0.002405722 0 0 0 0
820000000 0.287709891 -0.577127695 -0.001205911 0.004897382 0 0 0 0
828000000 -0.091530583 -0.651427805 0.001266509 0.005173576 0 0 0 0
836000000 -0.411298215 -0.526736855 0.003976882 0.004064192 0 0 0 0
844000000 -0.623153448 -0.288909137 0.005977537 0.001872901 0 0 0 0
852000000 -0.714944779 -0.015805128 0.007368543 -4.1016e-05 0 0 0 0
860000000 -0.686927378 0.2514458 0.008858104 -0.003253513 0 0 0 0
868000000 -0.555469572 0.464115589 0.009273293 -0.007975472 0 0 0 0
876000000 -0.34392786 0.59217745 0.007525213 -0.013940435 0 0 0 0
884000000 -0.112254075 0.603512763 0.00092394 -0.020516002 0 0 0 0
892000000 0.087441667 0.490159869 -0.013168023 -0.023403976 0 0 0 0
900000000 0.351795434 0.270734667 -0.034022454 -0.011380823 0 0 0 0
908000000 0.319200098 0.108354263 -0.041260715 0.019851529 0 0 0 0
916000000 0.218359649 0.027658969 -0.015799595 0.04943072 0 0 0 0
924000000 0.10709317 0.020648602 0.026973925 0.048184353 0 0 0 0
932000000 0.023519538 0.103398188 0.052695259 0.010411878 0 0 0 0
940000000 0.048859801 0.277898699 0.037530794 -0.028034448 0 0 0 0
948000000 0.271522521 0.357084065 0.007276508 -0.036445818 0 0 0 0
956000000 0.471026897 0.238912418 -0.010698524 -0.026569476 0 0 0 0
964000000 0.575217247 -0.001518822 -0.017653549 -0.012474815 0 0 0 0
972000000 0.51921457 -0.2592974 -0.017053771 -0.001872034 0 0 0 0
980000000 0.311674207 -0.467684358 -0.012439244 0.005249269 0 0 0 0
988000000 0.046796664 -0.561551332 -0.007611901 0.008219158 0 0 0 0
996000000 -0.237001508 -0.512831211 -0.003504182 0.007640041 0 0 0 0
1004000000 -0.475202769 -0.389001399 -0.001452426 0.007561211 0 0 0 0
