# Hz S RI R 50
700000000 0.761922299 0.54823333 -7.85e-06 0.000612039 0 0 0 0
708000000 0.869989335 0.304793268 -0.000125395 0.000943484 0 0 0 0
716000000 0.899369716 0.032092057 1.2937e-05 0.001125691 0 0 0 0
724000000 0.840838015 -0.248169139 0.000301022 0.00137138 0 0 0 0
732000000 0.695602536 -0.504475951 0.000532719 0.001615803 0 0 0 0
740000000 0.457491725 -0.706300854 0.00076469 0.001531692 0 0 0 0
748000000 0.149109169 -0.799432754 0.001123335 0.001251279 0 0 0 0
756000000 -0.193482249 -0.762104809 0.001264137 0.000935855 0 0 0 0
764000000 -0.494700938 -0.556298673 0.001347808 0.00034113 0 0 0 0
772000000 -0.668083608 -0.203320279 0.001248024 0.000105071 0 0 0 0
780000000 -0.601649463 0.223627805 0.001179737 -0.000423937 0 0 0 0
788000000 -0.260619044 0.535861015 0.00032621 -0.000879333 0 0 0 0
796000000 0.231171563 0.534573853 -0.001098092 -0.001184738 0 0 0 0
804000000 0.574109017 0.193887054 -0.002558385 0.000117077 0 0 0 0
812000000 0.572621762 -0.269174963 -0.00227098 0.002544467 0 0 0 0
820000000 0.291425228 -0.575874745 0.000112123 0.003855863 0 0 0 0
828000000 -0.08841364 -0.64952296 0.001813478 0.003638082 0 0 0 0
836000000 -0.414064586 -0.527957499 0.003454807 0.002373695 0 0 0 0
844000000 -0.625451147 -0.291242361 0.005078267 0.000958753 0 0 0 0
852000000 -0.712022483 -0.011435952 0.006119715 -0.000714155 0 0 0 0
860000000 -0.687776267 0.252147883 0.007056694 -0.003122625 0 0 0 0
868000000 -0.553582429 0.466686189 0.007558122 -0.007065661 0 0 0 0
876000000 -0.34233734 0.58827269 0.006292595 -0.012274991 0 0 0 0
884000000 -0.110903806 0.600244641 0.00039787 -0.017874794 0 0 0 0
892000000 0.085590206 0.483816057 -0.011842005 -0.020366061 0 0 0 0
900000000 0.345984399 0.259596437 -0.02997457 -0.009306864 0 0 0 0
908000000 0.313617706 0.124007575 -0.035936471 0.017433186 0 0 0 0
916000000 0.218895345 0.045607697 -0.013525592 0.043549023 0 0 0 0
924000000 0.126326858 0.027655173 0.024498846 0.04173946 0 0 0 0
932000000 0.034765478 0.102232962 0.046751774 0.008733363 0 0 0 0
940000000 0.052758853 0.257458359 0.033660124 -0.023548921 0 0 0 0
948000000 0.263391077 0.351566821 0.007877796 -0.03316418 0 0 0 0
956000000 0.469023853 0.231081843 -0.00981575 -0.024785576 0 0 0 0
964000000 0.564300835 0.001163041 -0.016457375 -0.011304205 0 0 0 0
972000000 0.511984109 -0.25423792 -0.016314476 -0.001611302 0 0 0 0
980000000 0.322694242 -0.469647467 -0.011426445 0.00434983 0 0 0 0
988000000 0.051377583 -0.556128978 -0.006897854 0.007160447 0 0 0 0
996000000 -0.229912608 -0.53046894 -0.003110372 0.00725458 0 0 0 0
1004000000 -0.478344589 -0.393324732 -0.001747155 0.006644833 0 0 0 0
