# Hz S RI R 50
700000000 0.762876391 0.550381898 -2.8166e-05 0.000717966 0 0 0 0
708000000 0.867357432 0.306959778 -9.0264e-05 0.001114399 0 0 0 0
716000000 0.898708641 0.030307399 9.8767e-05 0.00130426 0 0 0 0
724000000 0.844714522 -0.250202566 0.000350242 0.00150111 0 0 0 0
732000000 0.692375481 -0.504902005 0.000441921 0.001570361 0 0 0 0
740000000 0.456575125 -0.702557027 0.000933904 0.001380193 0 0 0 0
748000000 0.146896392 -0.799887895 0.001444728 0.001219572 0 0 0 0
756000000 -0.192878037 -0.760038197 0.001558824 0.000833884 0 0 0 0
764000000 -0.494706153 -0.555542171 0.001596831 0.000166016 0 0 0 0
772000000 -0.663748979 -0.199517622 0.00132323 -6.3325e-05 0 0 0 0
780000000 -0.600225448 0.222813785 0.000898552 -0.000624114 0 0 0 0
788000000 -0.255630403 0.538996398 -3.1248e-05 -0.001211777 0 0 0 0
796000000 0.235338032 0.534514963 -0.001757335 -0.001061772 0 0 0 0
804000000 0.575253844 0.188178017 -0.002936669 0.000744876 0 0 0 0
812000000 0.569687128 -0.270941972 -0.001700305 0.003100645 0 0 0 0
820000000 0.2859959 -0.578282713 0.000650064 0.003921031 0 0 0 0
828000000 -0.091481037 -0.649854719 0.00241893 0.0031768 0 0 0 0
836000000 -0.412329703 -0.525507509 0.00371205 0.001607827 0 0 0 0
844000000 -0.624369859 -0.283238291 0.004485662 0.00023666 0 0 0 0
852000000 -0.712171912 -0.009348298 0.005131145 -0.001062785 0 0 0 0
860000000 -0.678185343 0.25619626 0.005980681 -0.00298255 0 0 0 0
868000000 -0.545735478 0.470324218 0.00657562 -0.00598534 0 0 0 0
876000000 -0.330564051 0.584880709 0.006031034 -0.010006957 0 0 0 0
884000000 -0.104032106 0.584860205 0.002103914 -0.015581107 0 0 0 0
892000000 0.078659139 0.467249393 -0.008213595 -0.019201587 0 0 0 0
900000000 0.326584011 0.257544279 -0.025552615 -0.012622685 0 0 0 0
908000000 0.291054427 0.126598283 -0.034049764 0.011763015 0 0 0 0
916000000 0.210230618 0.058530833 -0.017839234 0.037276532 0 0 0 0
924000000 0.129920601 0.038983695 0.015650473 0.041099123 0 0 0 0
932000000 0.042967874 0.101710237 0.04151351 0.014736731 0 0 0 0
940000000 0.060629222 0.270687282 0.033411551 -0.017948526 0 0 0 0
948000000 0.278568595 0.352188944 0.010410205 -0.028339028 0 0 0 0
956000000 0.4742513 0.230893373 -0.005274132 -0.023090077 0 0 0 0
964000000 0.570863723 -0.008205376 -0.01273799 -0.012379735 0 0 0 0
972000000 0.511853754 -0.269534289 -0.013903275 -0.003619565 0 0 0 0
980000000 0.315739333 -0.476412534 -0.010845579 0.001899753 0 0 0 0
988000000 0.043082412 -0.558188259 -0.007955663 0.004819434 0 0 0 0
996000000 -0.249015897 -0.5239169 -0.005166532 0.006065101 0 0 0 0
1004000000 -0.47613871 -0.379275768 -0.00353492 0.006106605 0 0 0 0
