# Hz S RI R 50
700000000 0.760247945 0.552717804 -2.699e-05 0.000755981 0 0 0 0
708000000 0.867232918 0.305781155 -7.1893e-05 0.001054135 0 0 0 0
716000000 0.897741556 0.030383873 4.374e-06 0.001294733 0 0 0 0
724000000 0.84330815 -0.25151357 0.000316839 0.001416893 0 0 0 0
732000000 0.694777309 -0.503693878 0.000679712 0.001561589 0 0 0 0
740000000 0.459167033 -0.702349662 0.000857109 0.001519411 0 0 0 0
748000000 0.147411808 -0.799776077 0.001333577 0.001236337 0 0 0 0
756000000 -0.18995893 -0.760258018 0.001419051 0.000733816 0 0 0 0
764000000 -0.495603978 -0.556697309 0.001394629 0.000402114 0 0 0 0
772000000 -0.667547643 -0.201684057 0.001420798 -3.4627e-05 0 0 0 0
780000000 -0.602565884 0.218867778 0.001148169 -0.000438253 0 0 0 0
788000000 -0.260789275 0.536249518 0.000285769 -0.001385488 0 0 0 0
796000000 0.228444263 0.535879909 -0.001238696 -0.001737317 0 0 0 0
804000000 0.571424782 0.196066245 -0.00312214 -0.000165714 0 0 0 0
812000000 0.569755375 -0.263999789 -0.002946626 0.002608094 0 0 0 0
820000000 0.293636798 -0.573882758 -0.000849752 0.004399232 0 0 0 0
828000000 -0.084378883 -0.648553311 0.001592146 0.004335371 0 0 0 0
836000000 -0.406410187 -0.528397858 0.003871521 0.003091075 0 0 0 0
844000000 -0.623612761 -0.296555727 0.005429123 0.001333809 0 0 0 0
852000000 -0.711177587 -0.021277656 0.00681186 -0.000514179 0 0 0 0
860000000 -0.685834646 0.248381078 0.008264373 -0.003180665 0 0 0 0
868000000 -0.55662173 0.46186006 0.008547511 -0.007629728 0 0 0 0
876000000 -0.348064929 0.58350861 0.007013942 -0.013395911 0 0 0 0
884000000 -0.117091715 0.600598275 0.000622427 -0.019490588 0 0 0 0
892000000 0.08336728 0.483965039 -0.012873127 -0.022317733 0 0 0 0
900000000 0.338891178 0.267004847 -0.034097094 -0.011031581 0 0 0 0
908000000 0.311580002 0.127454206 -0.038848001 0.0196586 0 0 0 0
916000000 0.220794975 0.056554347 -0.013827373 0.047526277 0 0 0 0
924000000 0.132276549 0.032514303 0.027118148 0.044976707 0 0 0 0
932000000 0.046536773 0.086080491 0.051236379 0.007889877 0 0 0 0
940000000 0.046536251 0.254071503 0.034525204 -0.027394652 0 0 0 0
948000000 0.260356217 0.352518051 0.006206676 -0.034582566 0 0 0 0
956000000 0.473665595 0.242866918 -0.010948819 -0.02434118 0 0 0 0
964000000 0.566187202 -0.005037872 -0.016659587 -0.011317489 0 0 0 0
972000000 0.510953307 -0.263714641 -0.015886548 -0.001374522 0 0 0 0
980000000 0.321306049 -0.474684894 -0.011778598 0.004851841 0 0 0 0
988000000 0.046592116 -0.558168411 -0.007268539 0.007489558 0 0 0 0
996000000 -0.238336578 -0.522613525 -0.003280618 0.00683902 0 0 0 0
1004000000 -0.468895137 -0.388571918 -0.000922431 0.006569905 0 0 0 0
