# Hz S RI R 50
700000000 0.758277833 0.553861916 -2.467e-05 0.000658335 0 0 0 0
708000000 0.865208446 0.304565966 -0.000152784 0.000949352 0 0 0 0
716000000 0.895676553 0.030711315 -3.739e-05 0.001273271 0 0 0 0
724000000 0.842732071 -0.244538247 0.000273583 0.00145781 0 0 0 0
732000000 0.692307114 -0.503897428 0.000403064 0.001557318 0 0 0 0
740000000 0.457117944 -0.70101118 0.000813421 0.001623128 0 0 0 0
748000000 0.148423254 -0.80141139 0.001079674 0.001338128 0 0 0 0
756000000 -0.192174285 -0.757484316 0.001353064 0.001061192 0 0 0 0
764000000 -0.49561128 -0.55212754 0.001338877 0.00060391 0 0 0 0
772000000 -0.665422081 -0.202761083 0.001395411 0.000227598 0 0 0 0
780000000 -0.598591387 0.221687033 0.001418958 -0.000435676 0 0 0 0
788000000 -0.253088325 0.532665133 0.000812329 -0.001503059 0 0 0 0
796000000 0.233056277 0.533029377 -0.000784336 -0.002139454 0 0 0 0
804000000 0.570143461 0.187621951 -0.003421324 -0.000899533 0 0 0 0
812000000 0.566649556 -0.267483294 -0.003418896 0.00217762 0 0 0 0
820000000 0.287447899 -0.572773516 -0.001364983 0.00430512 0 0 0 0
828000000 -0.089088052 -0.64924705 0.001238312 0.004738724 0 0 0 0
836000000 -0.409047961 -0.527332127 0.003577559 0.003676276 0 0 0 0
844000000 -0.621616959 -0.293238669 0.005408315 0.002122042 0 0 0 0
852000000 -0.714075922 -0.016807401 0.007061781 0.000167737 0 0 0 0
860000000 -0.681627929 0.25221616 0.008600004 -0.002717171 0 0 0 0
868000000 -0.552733659 0.465818673 0.009264317 -0.007297891 0 0 0 0
876000000 -0.339105039 0.589992403 0.008099453 -0.013297189 0 0 0 0
884000000 -0.108387075 0.593238115 0.001891674 -0.02019051 0 0 0 0
892000000 0.087566606 0.483926713 -0.011899322 -0.023901693 0 0 0 0
900000000 0.340437233 0.262511789 -0.033317286 -0.013188085 0 0 0 0
908000000 0.298060625 0.115640863 -0.041731975 0.017203338 0 0 0 0
916000000 0.211632236 0.047471985 -0.018658207 0.048807322 0 0 0 0
924000000 0.134108841 0.029611835 0.0251218 0.050008278 0 0 0 0
932000000 0.038707453 0.099404871 0.053062792 0.013277153 0 0 0 0
940000000 0.056695971 0.273826539 0.039358958 -0.026682144 0 0 0 0
948000000 0.271072924 0.354090601 0.009244902 -0.036095429 0 0 0 0
956000000 0.46728903 0.230567306 -0.00939335 -0.026876855 0 0 0 0
964000000 0.564316451 -0.010002513 -0.017475297 -0.013464647 0 0 0 0
972000000 0.508296549 -0.264740258 -0.016909861 -0.002419712 0 0 0 0
980000000 0.317392945 -0.471496462 -0.01256271 0.004350495 0 0 0 0
988000000 0.047460973 -0.554117202 -0.008459405 0.007854273 0 0 0 0
996000000 -0.243021652 -0.521322011 -0.004339837 0.007703111 0 0 0 0
1004000000 -0.475800246 -0.398091107 -0.001842779 0.0072704 0 0 0 0
