# Hz S RI R 50
700000000 0.757680356 0.549838721 -3.6198e-05 0.00065248 0 0 0 0
708000000 0.866522192 0.305536001 -1.64e-06 0.000920468 0 0 0 0
716000000 0.897803783 0.029418479 0.000156276 0.001202153 0 0 0 0
724000000 0.840568125 -0.242616355 0.000286823 0.001348093 0 0 0 0
732000000 0.695180058 -0.50395739 0.000571831 0.001456614 0 0 0 0
740000000 0.45508939 -0.703236401 0.000831947 0.001528203 0 0 0 0
748000000 0.148216694 -0.797636091 0.001149645 0.001237426 0 0 0 0
756000000 -0.191293567 -0.756976366 0.001441722 0.000923852 0 0 0 0
764000000 -0.492252618 -0.554887235 0.001483001 0.000299396 0 0 0 0
772000000 -0.663317024 -0.201431736 0.00141262 -0.000112993 0 0 0 0
780000000 -0.598023355 0.221023619 0.001041038 -0.000617081 0 0 0 0
788000000 -0.257877826 0.531663775 0.000107499 -0.001402152 0 0 0 0
796000000 0.228762522 0.530831515 -0.001521002 -0.001475425 0 0 0 0
804000000 0.567289471 0.190125793 -0.003473478 0.000180185 0 0 0 0
812000000 0.562281847 -0.265321701 -0.00274434 0.003194097 0 0 0 0
820000000 0.283298075 -0.569018781 -0.000173226 0.004803225 0 0 0 0
828000000 -0.08931189 -0.642347395 0.002423822 0.004448537 0 0 0 0
836000000 -0.407995849 -0.522115349 0.004561953 0.002918049 0 0 0 0
844000000 -0.620743155 -0.289936065 0.005897187 0.000887778 0 0 0 0
852000000 -0.707777142 -0.014940375 0.00698232 -0.001270396 0 0 0 0
860000000 -0.680437207 0.253562003 0.007988316 -0.004125152 0 0 0 0
868000000 -0.548639893 0.462932497 0.007915147 -0.00883762 0 0 0 0
876000000 -0.336829692 0.580054998 0.005164719 -0.014273966 0 0 0 0
884000000 -0.114649929 0.588229477 -0.0019428 -0.019368473 0 0 0 0
892000000 0.080585971 0.475037038 -0.015609223 -0.020128393 0 0 0 0
900000000 0.335204929 0.260321587 -0.033760156 -0.006103331 0 0 0 0
908000000 0.290452033 0.11751946 -0.035206574 0.024794634 0 0 0 0
916000000 0.201647594 0.054987043 -0.006290968 0.048110499 0 0 0 0
924000000 0.118875421 0.057169441 0.0323629 0.038447376 0 0 0 0
932000000 0.050895225 0.111333221 0.048713244 5.1108e-05 0 0 0 0
940000000 0.065157234 0.26644805 0.028410015 -0.030347362 0 0 0 0
948000000 0.285247623 0.343970417 0.000636996 -0.031975451 0 0 0 0
956000000 0.464869588 0.23014377 -0.01195736 -0.020619114 0 0 0 0
964000000 0.564647138 -0.006064915 -0.016022009 -0.008518177 0 0 0 0
972000000 0.497227042 -0.263878613 -0.014436897 0.000417074 0 0 0 0
980000000 0.314142197 -0.475897431 -0.009360679 0.005615916 0 0 0 0
988000000 0.04180644 -0.555479705 -0.005457999 0.006940858 0 0 0 0
996000000 -0.235373646 -0.522558152 -0.002943871 0.006326054 0 0 0 0
1004000000 -0.473866581 -0.383354097 -0.000884022 0.005345066 0 0 0 0
