# Hz S RI R 50
700000000 0.759408593 0.548993408 -2.4671e-05 0.000680144 0 0 0 0
708000000 0.864472031 0.306782305 3.3408e-05 0.000955936 0 0 0 0
716000000 0.896314561 0.035552483 2.1475e-05 0.001321556 0 0 0 0
724000000 0.846519947 -0.250442326 0.000393713 0.001450858 0 0 0 0
732000000 0.695378899 -0.504414439 0.000735641 0.001576307 0 0 0 0
740000000 0.454673439 -0.700151324 0.000962734 0.001587728 0 0 0 0
748000000 0.149578154 -0.800258159 0.001184603 0.001256221 0 0 0 0
756000000 -0.190621972 -0.757309198 0.001467546 0.0009243 0 0 0 0
764000000 -0.493568301 -0.5558995 0.001294013 0.000609018 0 0 0 0
772000000 -0.663195371 -0.203461676 0.001314532 5.1576e-05 0 0 0 0
780000000 -0.598666548 0.21850951 0.001195688 -0.000560022 0 0 0 0
788000000 -0.258460909 0.533680379 0.000375727 -0.001293779 0 0 0 0
796000000 0.222621798 0.533998787 -0.001307103 -0.001246938 0 0 0 0
804000000 0.565120935 0.195368319 -0.003058794 0.000338931 0 0 0 0
812000000 0.564375281 -0.263693422 -0.002524103 0.002962861 0 0 0 0
820000000 0.288599491 -0.567866861 -0.000342646 0.004386404 0 0 0 0
828000000 -0.087554283 -0.642346858 0.002115444 0.004397973 0 0 0 0
836000000 -0.407866954 -0.525041639 0.004424431 0.002923933 0 0 0 0
844000000 -0.61615175 -0.292988806 0.00594966 0.000757115 0 0 0 0
852000000 -0.710182011 -0.01477392 0.007197952 -0.001435327 0 0 0 0
860000000 -0.679299056 0.248375251 0.008043851 -0.004453327 0 0 0 0
868000000 -0.547170639 0.458969026 0.007658706 -0.008882517 0 0 0 0
876000000 -0.342414826 0.583987295 0.005164123 -0.01454324 0 0 0 0
884000000 -0.114019349 0.597275733 -0.00221132 -0.019708935 0 0 0 0
892000000 0.079158872 0.477867722 -0.016272744 -0.020056212 0 0 0 0
900000000 0.344902366 0.254728585 -0.034579876 -0.004314363 0 0 0 0
908000000 0.293086409 0.12018793 -0.03499386 0.025601437 0 0 0 0
916000000 0.199543446 0.063687801 -0.006357716 0.048775684 0 0 0 0
924000000 0.130975961 0.049422167 0.033473588 0.039943888 0 0 0 0
932000000 0.060305889 0.107440501 0.051384199 0.000208491 0 0 0 0
940000000 0.068488232 0.258961677 0.031534541 -0.032329548 0 0 0 0
948000000 0.268390327 0.342174261 0.00170889 -0.036209054 0 0 0 0
956000000 0.465231508 0.237439796 -0.015224183 -0.023086335 0 0 0 0
964000000 0.57474631 -0.000551931 -0.019330836 -0.00742478 0 0 0 0
972000000 0.511218607 -0.257167428 -0.015867454 0.002622485 0 0 0 0
980000000 0.3256464 -0.462660014 -0.009902148 0.007253926 0 0 0 0
988000000 0.053017925 -0.557345986 -0.005122359 0.008471071 0 0 0 0
996000000 -0.23177874 -0.522765636 -0.001719561 0.007199853 0 0 0 0
1004000000 -0.470123231 -0.391973346 -0.000234532 0.005767702 0 0 0 0
