# Hz S RI R 50
700000000 0.75707525 0.554008841 1.4083e-05 0.000720809 0 0 0 0
708000000 0.866244375 0.306948244 -0.000137532 0.000944799 0 0 0 0
716000000 0.897562265 0.030865192 0.000209699 0.001366464 0 0 0 0
724000000 0.839863538 -0.246756613 0.000257245 0.001597446 0 0 0 0
732000000 0.69566065 -0.50236535 0.000453486 0.001585148 0 0 0 0
740000000 0.457229346 -0.702374815 0.000983612 0.001431701 0 0 0 0
748000000 0.149029523 -0.799060761 0.001449559 0.001257346 0 0 0 0
756000000 -0.1900682 -0.759280979 0.001517437 0.000649372 0 0 0 0
764000000 -0.493060022 -0.556288599 0.001450748 0.000241192 0 0 0 0
772000000 -0.665335476 -0.199447751 0.001404343 9.3678e-05 0 0 0 0
780000000 -0.599518716 0.221602186 0.00109373 -0.000568754 0 0 0 0
788000000 -0.259281039 0.536083877 0.000227493 -0.001033391 0 0 0 0
796000000 0.233300894 0.534261405 -0.001194219 -0.001456959 0 0 0 0
804000000 0.568860769 0.193197652 -0.003008809 0.000115319 0 0 0 0
812000000 0.569175243 -0.265605032 -0.002730551 0.002476169 0 0 0 0
820000000 0.288520812 -0.571101665 -0.000300761 0.003941335 0 0 0 0
828000000 -0.085511133 -0.648609578 0.001867663 0.003826822 0 0 0 0
836000000 -0.405397534 -0.526143372 0.003634327 0.002532625 0 0 0 0
844000000 -0.618787527 -0.292178481 0.004837607 0.001153446 0 0 0 0
852000000 -0.709458649 -0.01988773 0.005776685 -0.000531916 0 0 0 0
860000000 -0.681263148 0.248752981 0.006934036 -0.002834255 0 0 0 0
868000000 -0.556441247 0.462179422 0.00754386 -0.006243919 0 0 0 0
876000000 -0.344290018 0.586670994 0.006743387 -0.011007585 0 0 0 0
884000000 -0.116178445 0.597546517 0.0026441 -0.016687322 0 0 0 0
892000000 0.078693501 0.48373878 -0.008374219 -0.021168665 0 0 0 0
900000000 0.344571799 0.271226972 -0.027834312 -0.014558693 0 0 0 0
908000000 0.306631892 0.125879958 -0.038412686 0.01176954 0 0 0 0
916000000 0.219844475 0.058201629 -0.020946664 0.041716217 0 0 0 0
924000000 0.128780409 0.034162364 0.018882062 0.046982504 0 0 0 0
932000000 0.041392449 0.100804783 0.048104934 0.015649961 0 0 0 0
940000000 0.051001913 0.255068659 0.037741798 -0.022694721 0 0 0 0
948000000 0.260419994 0.356779694 0.009222786 -0.032962817 0 0 0 0
956000000 0.463317751 0.225281298 -0.007515758 -0.024302341 0 0 0 0
964000000 0.567295074 0.00399708 -0.014919521 -0.012770736 0 0 0 0
972000000 0.509353399 -0.264378905 -0.015337732 -0.002899464 0 0 0 0
980000000 0.312938004 -0.475936233 -0.011367575 0.003261266 0 0 0 0
988000000 0.040104333 -0.559129297 -0.007775842 0.005874411 0 0 0 0
996000000 -0.237008318 -0.519173562 -0.004614824 0.006260176 0 0 0 0
1004000000 -0.469104856 -0.384897023 -0.002209052 0.006595251 0 0 0 0
