# Hz S RI R 50
700000000 0.756386697 0.553164362 -5.8933e-05 0.000790576 0 0 0 0
708000000 0.865096509 0.30729103 -9.0326e-05 0.00092826 0 0 0 0
716000000 0.897489905 0.033451769 1.6232e-05 0.00116959 0 0 0 0
724000000 0.842800438 -0.241565227 0.000320518 0.001520372 0 0 0 0
732000000 0.69561702 -0.500386714 0.000721966 0.001476861 0 0 0 0
740000000 0.459377735 -0.702221751 0.000798946 0.001532045 0 0 0 0
748000000 0.149963945 -0.799422621 0.001257001 0.001117978 0 0 0 0
756000000 -0.189369693 -0.758662521 0.001443329 0.000937526 0 0 0 0
764000000 -0.491018027 -0.55770576 0.001330472 0.000314014 0 0 0 0
772000000 -0.663116037 -0.20323877 0.001422629 -1.7279e-05 0 0 0 0
780000000 -0.600836515 0.216583818 0.00090099 -0.00068546 0 0 0 0
788000000 -0.262698084 0.530906319 0.000103926 -0.001151443 0 0 0 0
796000000 0.225564345 0.535653412 -0.001550973 -0.00131754 0 0 0 0
804000000 0.568091511 0.192246943 -0.003035992 0.000370761 0 0 0 0
812000000 0.566795825 -0.263293981 -0.002329176 0.002836573 0 0 0 0
820000000 0.29110977 -0.566800832 -0.000148471 0.004333506 0 0 0 0
828000000 -0.085609808 -0.643989741 0.002148884 0.003796755 0 0 0 0
836000000 -0.402195602 -0.525742232 0.003946527 0.002509118 0 0 0 0
844000000 -0.620973885 -0.296754091 0.005025674 0.00074599 0 0 0 0
852000000 -0.703938603 -0.020244963 0.006129721 -0.000824086 0 0 0 0
860000000 -0.681461691 0.247472032 0.00703916 -0.003174657 0 0 0 0
868000000 -0.551360607 0.454677522 0.007559516 -0.007085678 0 0 0 0
876000000 -0.343562006 0.580704748 0.006181087 -0.012160677 0 0 0 0
884000000 -0.114300601 0.589513301 0.000909353 -0.017537124 0 0 0 0
892000000 0.074250958 0.473251402 -0.010995886 -0.020757807 0 0 0 0
900000000 0.328976005 0.26077494 -0.029384609 -0.011160856 0 0 0 0
908000000 0.284808069 0.131387367 -0.037228073 0.016330175 0 0 0 0
916000000 0.200303554 0.065087743 -0.015116993 0.044005382 0 0 0 0
924000000 0.129982382 0.055967871 0.023392949 0.04343041 0 0 0 0
932000000 0.060724064 0.10851106 0.047866795 0.009935486 0 0 0 0
940000000 0.071860231 0.251561552 0.034392751 -0.025023473 0 0 0 0
948000000 0.265438854 0.340726107 0.006805879 -0.032833095 0 0 0 0
956000000 0.466211616 0.220578312 -0.010095423 -0.023238945 0 0 0 0
964000000 0.563995659 0.008519149 -0.015445578 -0.009963228 0 0 0 0
972000000 0.518503308 -0.264222621 -0.013979129 -0.001121133 0 0 0 0
980000000 0.31671518 -0.466802597 -0.010255935 0.003586499 0 0 0 0
988000000 0.050241433 -0.561267256 -0.006734864 0.006231178 0 0 0 0
996000000 -0.244397938 -0.521476268 -0.003970407 0.006184504 0 0 0 0
1004000000 -0.461174458 -0.384106457 -0.002914506 0.005694863 0 0 0 0
