# Hz S RI R 50
700000000 0.758801162 0.558664858 -0.000134821 0.000657499 0 0 0 0
708000000 0.866064429 0.30842328 -0.000184473 0.000978915 0 0 0 0
716000000 0.899715662 0.0344677 0.000149217 0.001242152 0 0 0 0
724000000 0.846242964 -0.24831812 0.000354567 0.001378823 0 0 0 0
732000000 0.69568026 -0.501613497 0.000483013 0.001458469 0 0 0 0
740000000 0.459393233 -0.699044764 0.000866023 0.001347205 0 0 0 0
748000000 0.149818807 -0.797770857 0.001175358 0.001148112 0 0 0 0
756000000 -0.19079028 -0.760325312 0.001433228 0.000961561 0 0 0 0
764000000 -0.489991277 -0.558483541 0.00125137 0.000721964 0 0 0 0
772000000 -0.665580153 -0.205634698 0.001212683 0.000171424 0 0 0 0
780000000 -0.600910723 0.216009199 0.00117884 -0.000603202 0 0 0 0
788000000 -0.261716246 0.532460629 0.000456123 -0.001070894 0 0 0 0
796000000 0.223641455 0.534064352 -0.001173278 -0.001537909 0 0 0 0
804000000 0.566240489 0.196857005 -0.003070863 -0.000198959 0 0 0 0
812000000 0.567190825 -0.259503632 -0.002838567 0.002344273 0 0 0 0
820000000 0.294432759 -0.566331386 -0.000604422 0.004238312 0 0 0 0
828000000 -0.080636993 -0.644364893 0.001781411 0.004057647 0 0 0 0
836000000 -0.402019411 -0.527917802 0.003855091 0.00294501 0 0 0 0
844000000 -0.619404077 -0.301154434 0.005429364 0.001197739 0 0 0 0
852000000 -0.709421813 -0.021442217 0.006450527 -0.000787786 0 0 0 0
860000000 -0.683998644 0.245960012 0.007676608 -0.003542901 0 0 0 0
868000000 -0.556901395 0.457824438 0.007672342 -0.007443179 0 0 0 0
876000000 -0.352157741 0.581723332 0.006134411 -0.012682407 0 0 0 0
884000000 -0.120643362 0.596206247 0.000238044 -0.018322128 0 0 0 0
892000000 0.077207356 0.488462209 -0.012181098 -0.020968444 0 0 0 0
900000000 0.352917253 0.275277644 -0.032159745 -0.009987802 0 0 0 0
908000000 0.299299389 0.125980794 -0.036923255 0.018518764 0 0 0 0
916000000 0.212882369 0.050471071 -0.013057256 0.04550144 0 0 0 0
924000000 0.127689555 0.039500225 0.025974838 0.042894244 0 0 0 0
932000000 0.047394596 0.104109168 0.048659276 0.008119179 0 0 0 0
940000000 0.054933145 0.245294526 0.033766016 -0.02578707 0 0 0 0
948000000 0.258760333 0.343481987 0.006479982 -0.032851818 0 0 0 0
956000000 0.458895176 0.236549317 -0.010296523 -0.023645354 0 0 0 0
964000000 0.560508668 0.003938186 -0.016182715 -0.011031011 0 0 0 0
972000000 0.511885464 -0.259001046 -0.015335642 -0.00171758 0 0 0 0
980000000 0.321306616 -0.463599711 -0.011333424 0.004514976 0 0 0 0
988000000 0.049602322 -0.552058815 -0.007049796 0.007323256 0 0 0 0
996000000 -0.228104516 -0.518625617 -0.00370379 0.00682482 0 0 0 0
1004000000 -0.469407171 -0.388072907 -0.001484593 0.006485156 0 0 0 0
