# Hz S RI R 50
700000000 0.755639433 0.554806947 -7.0829e-05 0.000778015 0 0 0 0
708000000 0.867810249 0.307135313 -0.000145182 0.00111064 0 0 0 0
716000000 0.897801518 0.03801541 -3.1028e-05 0.001295375 0 0 0 0
724000000 0.847845137 -0.246778294 0.000143037 0.001608381 0 0 0 0
732000000 0.697819113 -0.501434326 0.000662455 0.001676898 0 0 0 0
740000000 0.461082071 -0.699374198 0.001001889 0.001882369 0 0 0 0
748000000 0.154994651 -0.801306009 0.001459862 0.001386366 0 0 0 0
756000000 -0.184361323 -0.762528777 0.001931816 0.000897954 0 0 0 0
764000000 -0.489958256 -0.567080438 0.002157203 0.000353585 0 0 0 0
772000000 -0.664851367 -0.22320035 0.001962125 -0.000136811 0 0 0 0
780000000 -0.61557877 0.200597092 0.001823611 -0.001225299 0 0 0 0
788000000 -0.291356891 0.526144444 0.000677287 -0.002509709 0 0 0 0
796000000 0.193721622 0.553646206 -0.001876767 -0.003613649 0 0 0 0
804000000 0.558758318 0.240782946 -0.005276648 -0.001540644 0 0 0 0
812000000 0.589555442 -0.224829688 -0.005841183 0.002863362 0 0 0 0
820000000 0.334312468 -0.553818047 -0.002765784 0.006437995 0 0 0 0
828000000 -0.04327372 -0.657353937 0.001107517 0.007016191 0 0 0 0
836000000 -0.379504233 -0.552042067 0.004490755 0.005438115 0 0 0 0
844000000 -0.606230139 -0.329397976 0.00668141 0.00314826 0 0 0 0
852000000 -0.714351236 -0.05471969 0.008708431 0.000778455 0 0 0 0
860000000 -0.703913629 0.214559495 0.010162852 -0.002578776 0 0 0 0
868000000 -0.593463003 0.436935186 0.011045301 -0.00751147 0 0 0 0
876000000 -0.398133844 0.57995671 0.009821427 -0.013661826 0 0 0 0
884000000 -0.176560759 0.617129802 0.004265241 -0.021156091 0 0 0 0
892000000 0.027822388 0.547435581 -0.008604874 -0.026691034 0 0 0 0
900000000 0.344691902 0.362677633 -0.031356763 -0.019950915 0 0 0 0
908000000 0.378961175 0.206842646 -0.046699941 0.005728083 0 0 0 0
916000000 0.330277383 0.06643822 -0.035777773 0.042755335 0 0 0 0
924000000 0.219309285 -0.020484326 0.006023815 0.062026526 0 0 0 0
932000000 0.090495117 0.003371995 0.052403729 0.037939894 0 0 0 0
940000000 0.024532722 0.150096401 0.058020636 -0.012920116 0 0 0 0
948000000 0.185854822 0.304675728 0.025779966 -0.041973952 0 0 0 0
956000000 0.389293253 0.243818774 -0.004746926 -0.037063166 0 0 0 0
964000000 0.525894761 0.032133355 -0.018508223 -0.02082706 0 0 0 0
972000000 0.502396583 -0.220181703 -0.020281707 -0.005715608 0 0 0 0
980000000 0.319182097 -0.440074086 -0.016023136 0.002890373 0 0 0 0
988000000 0.053086008 -0.535654306 -0.010441523 0.00695732 0 0 0 0
996000000 -0.227980017 -0.503722846 -0.00689334 0.007739025 0 0 0 0
1004000000 -0.4614605 -0.38341397 -0.003593452 0.008210607 0 0 0 0
