# Hz S RI R 50
700000000 0.755590677 0.555821061 -6.6411e-05 0.000696052 0 0 0 0
708000000 0.866898894 0.308266013 -0.000130911 0.00105498 0 0 0 0
716000000 0.894204378 0.034315705 -0.000108152 0.001383161 0 0 0 0
724000000 0.839123249 -0.248931005 0.000171297 0.00158594 0 0 0 0
732000000 0.695292413 -0.502972304 0.000454765 0.001489253 0 0 0 0
740000000 0.456949263 -0.701752603 0.000754216 0.001584762 0 0 0 0
748000000 0.150022163 -0.799388468 0.001192009 0.001269379 0 0 0 0
756000000 -0.191348433 -0.760072708 0.001542526 0.001106489 0 0 0 0
764000000 -0.49495092 -0.558027446 0.001499188 0.000585185 0 0 0 0
772000000 -0.662810444 -0.205893442 0.001556259 0.00016571 0 0 0 0
780000000 -0.60320425 0.219962194 0.001632465 -0.000446258 0 0 0 0
788000000 -0.262548297 0.537341296 0.000754444 -0.001582599 0 0 0 0
796000000 0.232596397 0.539349675 -0.001105067 -0.002382494 0 0 0 0
804000000 0.575361609 0.195435076 -0.003512362 -0.00100874 0 0 0 0
812000000 0.572149455 -0.265791237 -0.003966132 0.001925204 0 0 0 0
820000000 0.292792081 -0.573054552 -0.001542633 0.004724403 0 0 0 0
828000000 -0.086968861 -0.648911654 0.001188752 0.004659402 0 0 0 0
836000000 -0.408404022 -0.52878338 0.003302329 0.003555384 0 0 0 0
844000000 -0.622026145 -0.293269634 0.004834281 0.002246962 0 0 0 0
852000000 -0.709030508 -0.017768882 0.006110539 0.000563677 0 0 0 0
860000000 -0.678474426 0.247831955 0.007749523 -0.001706924 0 0 0 0
868000000 -0.548230469 0.457221239 0.008551784 -0.005299554 0 0 0 0
876000000 -0.345530182 0.579708397 0.008541195 -0.010222017 0 0 0 0
884000000 -0.122848369 0.582996964 0.004803334 -0.016599308 0 0 0 0
892000000 0.06003103 0.478593796 -0.005125625 -0.022259091 0 0 0 0
900000000 0.311001867 0.280358612 -0.025848498 -0.019225522 0 0 0 0
908000000 0.298821508 0.162175968 -0.038989853 0.003444107 0 0 0 0
916000000 0.23997122 0.085253112 -0.029332023 0.034044202 0 0 0 0
924000000 0.174733996 0.03131866 0.004363232 0.048753228 0 0 0 0
932000000 0.067987389 0.066576898 0.040272649 0.030198737 0 0 0 0
940000000 0.050481434 0.219280019 0.046491499 -0.008700921 0 0 0 0
948000000 0.227439373 0.329188644 0.022213522 -0.033350471 0 0 0 0
956000000 0.437820702 0.242386341 -0.002948014 -0.030097857 0 0 0 0
964000000 0.55528903 0.013631711 -0.014144651 -0.016914822 0 0 0 0
972000000 0.508022248 -0.238917708 -0.016124462 -0.005613909 0 0 0 0
980000000 0.322259187 -0.457677811 -0.012469689 0.002026061 0 0 0 0
988000000 0.059652514 -0.558196783 -0.008007078 0.00513907 0 0 0 0
996000000 -0.229769006 -0.523253202 -0.005219878 0.005523501 0 0 0 0
1004000000 -0.459738165 -0.38959369 -0.003464258 0.005897306 0 0 0 0
