# Hz S RI R 50
700000000 0.762538552 0.555463671 -6.291e-05 0.000663648 0 0 0 0
708000000 0.865148723 0.307427138 -8.6916e-05 0.001010425 0 0 0 0
716000000 0.897145628 0.033126894 -8.545e-06 0.001367228 0 0 0 0
724000000 0.842283487 -0.247374847 0.00035385 0.001493588 0 0 0 0
732000000 0.694158196 -0.503479957 0.000546795 0.001675862 0 0 0 0
740000000 0.460041821 -0.703133642 0.000999468 0.001562081 0 0 0 0
748000000 0.149940878 -0.799638688 0.001314332 0.001321211 0 0 0 0
756000000 -0.193621367 -0.761172831 0.001401131 0.000958063 0 0 0 0
764000000 -0.498157352 -0.559127151 0.001523938 0.000432021 0 0 0 0
772000000 -0.668775856 -0.205211818 0.001585138 -0.000124687 0 0 0 0
780000000 -0.604536175 0.224121108 0.001323077 -0.00078577 0 0 0 0
788000000 -0.259259611 0.542116343 0.000638194 -0.001843502 0 0 0 0
796000000 0.236734777 0.538972198 -0.001447935 -0.002144203 0 0 0 0
804000000 0.581277966 0.192477658 -0.003620585 -0.000328901 0 0 0 0
812000000 0.573726594 -0.274457752 -0.003099267 0.00252465 0 0 0 0
820000000 0.28682819 -0.580643892 -0.000766617 0.004214437 0 0 0 0
828000000 -0.092859335 -0.652669489 0.001706089 0.004050035 0 0 0 0
836000000 -0.413039863 -0.527483224 0.003434797 0.002813232 0 0 0 0
844000000 -0.626779258 -0.290006637 0.004867199 0.001101416 0 0 0 0
852000000 -0.714033842 -0.015490991 0.005618439 -0.000200884 0 0 0 0
860000000 -0.686074256 0.253343909 0.006864697 -0.001999325 0 0 0 0
868000000 -0.553065538 0.464150816 0.007754566 -0.005268822 0 0 0 0
876000000 -0.341395318 0.585272252 0.007655679 -0.009866542 0 0 0 0
884000000 -0.115089602 0.59408015 0.00421759 -0.01581344 0 0 0 0
892000000 0.079902485 0.487031936 -0.005298546 -0.021361557 0 0 0 0
900000000 0.333614796 0.274682581 -0.024886693 -0.017575211 0 0 0 0
908000000 0.301312536 0.137806862 -0.038568262 0.004702799 0 0 0 0
916000000 0.2294624 0.063117355 -0.028246412 0.035404875 0 0 0 0
924000000 0.145938441 0.02733629 0.005994693 0.049248944 0 0 0 0
932000000 0.06594792 0.082770131 0.042005296 0.030317027 0 0 0 0
940000000 0.055889558 0.222775608 0.047422461 -0.011014062 0 0 0 0
948000000 0.229125007 0.331765323 0.02058541 -0.034967735 0 0 0 0
956000000 0.430419981 0.249917462 -0.004512482 -0.030791096 0 0 0 0
964000000 0.552555799 0.01655068 -0.015541633 -0.016943011 0 0 0 0
972000000 0.513291835 -0.238885089 -0.01723905 -0.004887212 0 0 0 0
980000000 0.324503332 -0.456378489 -0.013054922 0.002551435 0 0 0 0
988000000 0.060046467 -0.551582872 -0.008875262 0.005964796 0 0 0 0
996000000 -0.234412446 -0.513120532 -0.004862714 0.00595577 0 0 0 0
1004000000 -0.477667719 -0.392086237 -0.00322655 0.006660177 0 0 0 0
