# Hz S RI R 50
700000000 0.761493027 0.553483903 -0.000101 0.000714259 0 0 0 0
708000000 0.86313045 0.30740118 -0.000162363 0.00104507 0 0 0 0
716000000 0.899299025 0.034774322 2.7864e-05 0.001315123 0 0 0 0
724000000 0.844692468 -0.2451884 0.000342317 0.001615839 0 0 0 0
732000000 0.695041418 -0.502586483 0.000474558 0.001699244 0 0 0 0
740000000 0.459825634 -0.699082076 0.00088501 0.00144382 0 0 0 0
748000000 0.150679051 -0.797741055 0.001370862 0.00143982 0 0 0 0
756000000 -0.189030215 -0.761196672 0.001597867 0.00096733 0 0 0 0
764000000 -0.493150323 -0.562515139 0.001537116 0.000481759 0 0 0 0
772000000 -0.668251991 -0.205515146 0.001659744 3.6538e-05 0 0 0 0
780000000 -0.60681647 0.216602474 0.001438683 -0.000780389 0 0 0 0
788000000 -0.268945515 0.537592291 0.000422231 -0.001612876 0 0 0 0
796000000 0.224126502 0.54119569 -0.001343311 -0.00209097 0 0 0 0
804000000 0.573972284 0.204072773 -0.003710282 -0.000433466 0 0 0 0
812000000 0.578288018 -0.260878443 -0.003633072 0.002881746 0 0 0 0
820000000 0.29832971 -0.573046445 -0.000720418 0.00487325 0 0 0 0
828000000 -0.080903284 -0.651479244 0.001871383 0.004416052 0 0 0 0
836000000 -0.40450263 -0.53558439 0.00379463 0.003194548 0 0 0 0
844000000 -0.62354058 -0.301636159 0.005231509 0.001194964 0 0 0 0
852000000 -0.71705836 -0.022274734 0.006211672 -0.000396182 0 0 0 0
860000000 -0.687421798 0.248176246 0.007383784 -0.002837133 0 0 0 0
868000000 -0.559861719 0.462478697 0.007823966 -0.006354482 0 0 0 0
876000000 -0.34864974 0.588460803 0.006955823 -0.010806069 0 0 0 0
884000000 -0.120337821 0.59588468 0.002955314 -0.016349375 0 0 0 0
892000000 0.075623929 0.481963336 -0.006995967 -0.020645353 0 0 0 0
900000000 0.322730809 0.272477477 -0.026082627 -0.016286708 0 0 0 0
908000000 0.299859315 0.143324479 -0.037082649 0.007123332 0 0 0 0
916000000 0.237108767 0.074101842 -0.025304343 0.035819459 0 0 0 0
924000000 0.162250697 0.040096435 0.008186716 0.046547073 0 0 0 0
932000000 0.070670478 0.064327798 0.041524089 0.026284793 0 0 0 0
940000000 0.046381998 0.214228093 0.044373407 -0.012181549 0 0 0 0
948000000 0.227409884 0.338477462 0.018904443 -0.033642839 0 0 0 0
956000000 0.438049107 0.241214066 -0.004114708 -0.029118848 0 0 0 0
964000000 0.55810219 0.01712753 -0.015067008 -0.015965122 0 0 0 0
972000000 0.506758451 -0.242404267 -0.01684774 -0.004652016 0 0 0 0
980000000 0.323865473 -0.462733507 -0.012548722 0.003127 0 0 0 0
988000000 0.055139806 -0.553600966 -0.008241538 0.005689358 0 0 0 0
996000000 -0.221004992 -0.511717081 -0.004456014 0.006558892 0 0 0 0
1004000000 -0.468188554 -0.391975253 -0.0029456 0.006180969 0 0 0 0
