# Hz S RI R 50
700000000 0.758622884 0.55029577 -4.965e-06 0.000735346 0 0 0 0
708000000 0.866455852 0.309419512 -0.000131683 0.001090486 0 0 0 0
716000000 0.898696005 0.03172243 0.000108275 0.001280318 0 0 0 0
724000000 0.844541847 -0.250423669 0.0002504 0.001507689 0 0 0 0
732000000 0.695910274 -0.503784239 0.000533535 0.001705335 0 0 0 0
740000000 0.458548396 -0.701444327 0.000811807 0.001488192 0 0 0 0
748000000 0.149321377 -0.801387131 0.001388175 0.001368652 0 0 0 0
756000000 -0.189301252 -0.760193347 0.001666671 0.000978542 0 0 0 0
764000000 -0.492244929 -0.559433281 0.001643794 0.000395639 0 0 0 0
772000000 -0.665347695 -0.204206094 0.001690261 -3.7267e-05 0 0 0 0
780000000 -0.604165494 0.218429878 0.001425151 -0.000654538 0 0 0 0
788000000 -0.26222521 0.539406716 0.000753509 -0.001764565 0 0 0 0
796000000 0.229311719 0.539138436 -0.001336231 -0.002450602 0 0 0 0
804000000 0.571399927 0.195839762 -0.004114537 -0.000748825 0 0 0 0
812000000 0.573038458 -0.268019497 -0.004040929 0.002765468 0 0 0 0
820000000 0.290209442 -0.577246844 -0.001216024 0.005268384 0 0 0 0
828000000 -0.090374417 -0.649778544 0.001846868 0.004950392 0 0 0 0
836000000 -0.409531623 -0.526414871 0.004134098 0.003315854 0 0 0 0
844000000 -0.62619692 -0.293556451 0.005563324 0.001482761 0 0 0 0
852000000 -0.710983097 -0.013265744 0.006582368 -0.000424709 0 0 0 0
860000000 -0.676551401 0.253857761 0.007326122 -0.002908985 0 0 0 0
868000000 -0.544291496 0.460761278 0.007738498 -0.006406547 0 0 0 0
876000000 -0.337208658 0.580690741 0.006552432 -0.010787754 0 0 0 0
884000000 -0.111950621 0.58171314 0.002515857 -0.015903364 0 0 0 0
892000000 0.066077455 0.463236153 -0.007100354 -0.019661655 0 0 0 0
900000000 0.301914274 0.269354969 -0.025325784 -0.014504602 0 0 0 0
908000000 0.281291037 0.159885436 -0.033456869 0.007096337 0 0 0 0
916000000 0.227385535 0.097334742 -0.02170589 0.031639564 0 0 0 0
924000000 0.172543764 0.046848718 0.006419696 0.040497016 0 0 0 0
932000000 0.085220322 0.061685569 0.034034643 0.024091675 0 0 0 0
940000000 0.056856583 0.221809819 0.039284851 -0.007354086 0 0 0 0
948000000 0.227399677 0.325131297 0.018819313 -0.027982644 0 0 0 0
956000000 0.42625162 0.23690398 -0.001750851 -0.025631027 0 0 0 0
964000000 0.55320549 0.020341951 -0.012127684 -0.015583114 0 0 0 0
972000000 0.506776213 -0.247351184 -0.01409507 -0.005310078 0 0 0 0
980000000 0.316319495 -0.454527527 -0.010993882 0.000933881 0 0 0 0
988000000 0.059081096 -0.551627278 -0.007593957 0.003834504 0 0 0 0
996000000 -0.223777547 -0.509961783 -0.005025112 0.004889435 0 0 0 0
1004000000 -0.468782991 -0.396525979 -0.003649956 0.004900346 0 0 0 0
