# Hz S RI R 50
700000000 0.756911695 0.548923492 1.4606e-05 0.000616912 0 0 0 0
708000000 0.864738821 0.305010497 -0.000151039 0.000975193 0 0 0 0
716000000 0.89629817 0.030559133 0.000101891 0.001126533 0 0 0 0
724000000 0.841400086 -0.250245273 0.000343165 0.001354585 0 0 0 0
732000000 0.694272696 -0.503583431 0.000476233 0.001651622 0 0 0 0
740000000 0.45725432 -0.700402677 0.000955362 0.0016529 0 0 0 0
748000000 0.148032113 -0.79913038 0.001241958 0.00143273 0 0 0 0
756000000 -0.191277384 -0.759494423 0.001562219 0.000955705 0 0 0 0
764000000 -0.495955258 -0.556956052 0.001667964 0.00061339 0 0 0 0
772000000 -0.663048803 -0.199804946 0.001564943 -1.585e-05 0 0 0 0
780000000 -0.600424528 0.220172926 0.001488245 -0.000651483 0 0 0 0
788000000 -0.259920179 0.535320937 0.000610341 -0.001523329 0 0 0 0
796000000 0.227468833 0.536876916 -0.001059098 -0.002122828 0 0 0 0
804000000 0.572294652 0.197302758 -0.003650767 -0.00089195 0 0 0 0
812000000 0.571551203 -0.263287812 -0.003741467 0.002196711 0 0 0 0
820000000 0.293855935 -0.572586297 -0.001136585 0.004558025 0 0 0 0
828000000 -0.085252277 -0.649174392 0.001303676 0.004471922 0 0 0 0
836000000 -0.40831995 -0.527182698 0.003458829 0.003441318 0 0 0 0
844000000 -0.622558772 -0.290555208 0.004787664 0.001827592 0 0 0 0
852000000 -0.7073915 -0.014059927 0.00620746 0.000296561 0 0 0 0
860000000 -0.677343189 0.252460658 0.007628532 -0.001879864 0 0 0 0
868000000 -0.542746067 0.461440354 0.008784429 -0.005684388 0 0 0 0
876000000 -0.339591234 0.580779969 0.008435703 -0.010867495 0 0 0 0
884000000 -0.112441122 0.580570995 0.004514428 -0.017578924 0 0 0 0
892000000 0.066966883 0.464003711 -0.006726799 -0.023210832 0 0 0 0
900000000 0.313378125 0.267401516 -0.027242215 -0.018001863 0 0 0 0
908000000 0.277781635 0.144399464 -0.040904596 0.006966579 0 0 0 0
916000000 0.216995254 0.076074995 -0.027556819 0.039955843 0 0 0 0
924000000 0.14133726 0.060176249 0.011337691 0.050832003 0 0 0 0
932000000 0.069143824 0.113439746 0.046220358 0.025531819 0 0 0 0
940000000 0.090044483 0.247515082 0.044961676 -0.015349736 0 0 0 0
948000000 0.282790035 0.323984354 0.017185771 -0.034842502 0 0 0 0
956000000 0.458365947 0.21826367 -0.006012334 -0.029550276 0 0 0 0
964000000 0.553008556 -0.018812611 -0.015749081 -0.01529249 0 0 0 0
972000000 0.496473789 -0.261673003 -0.016865337 -0.003365065 0 0 0 0
980000000 0.304237812 -0.472628235 -0.011722422 0.003061087 0 0 0 0
988000000 0.037447396 -0.555629074 -0.007734165 0.005462354 0 0 0 0
996000000 -0.241446048 -0.509959578 -0.004763216 0.005642289 0 0 0 0
1004000000 -0.483160197 -0.378610163 -0.003482949 0.006038411 0 0 0 0
