# Hz S RI R 50
700000000 0.760372936 0.549624443 -8.0987e-05 0.000552165 0 0 0 0
708000000 0.865020096 0.306394368 -6.982e-05 0.001028451 0 0 0 0
716000000 0.898681938 0.031505715 -9.342e-06 0.001295897 0 0 0 0
724000000 0.842009186 -0.24776946 0.000336775 0.001426011 0 0 0 0
732000000 0.693970859 -0.50446099 0.00042359 0.001529883 0 0 0 0
740000000 0.456657379 -0.704551577 0.000844688 0.001587435 0 0 0 0
748000000 0.144967362 -0.799832165 0.001213873 0.001464325 0 0 0 0
756000000 -0.196388348 -0.760197579 0.001425632 0.000973899 0 0 0 0
764000000 -0.499028652 -0.556045114 0.001367994 0.00048333 0 0 0 0
772000000 -0.67108637 -0.196076378 0.001387991 0.000188672 0 0 0 0
780000000 -0.6025545 0.230256021 0.001558794 -0.00041777 0 0 0 0
788000000 -0.253603696 0.54720956 0.001016575 -0.001327656 0 0 0 0
796000000 0.246501177 0.537523448 -0.001038744 -0.002156504 0 0 0 0
804000000 0.587281703 0.185757219 -0.003408035 -0.000896781 0 0 0 0
812000000 0.576431572 -0.281939625 -0.003776508 0.002295114 0 0 0 0
820000000 0.286809891 -0.585643529 -0.001218072 0.004640758 0 0 0 0
828000000 -0.098170727 -0.658284962 0.001511886 0.004586504 0 0 0 0
836000000 -0.42300105 -0.531286358 0.003646563 0.003315414 0 0 0 0
844000000 -0.635052561 -0.289390474 0.00510766 0.001402908 0 0 0 0
852000000 -0.718778312 -0.009274238 0.006126915 -0.00031469 0 0 0 0
860000000 -0.689809322 0.262536019 0.007077213 -0.002393534 0 0 0 0
868000000 -0.55345565 0.476097285 0.007610489 -0.005694485 0 0 0 0
876000000 -0.336647927 0.59730184 0.00709594 -0.010017031 0 0 0 0
884000000 -0.104715779 0.601285278 0.003489981 -0.01539624 0 0 0 0
892000000 0.09401635 0.482185006 -0.005771829 -0.020035859 0 0 0 0
900000000 0.349850356 0.270234078 -0.022905996 -0.015444383 0 0 0 0
908000000 0.313027977 0.118700794 -0.034984543 0.004540701 0 0 0 0
916000000 0.212811678 0.043094962 -0.025319505 0.032472223 0 0 0 0
924000000 0.117191076 0.030979918 0.005447865 0.043855898 0 0 0 0
932000000 0.039015233 0.102423623 0.03705031 0.025207186 0 0 0 0
940000000 0.059292785 0.254120618 0.039940938 -0.009899428 0 0 0 0
948000000 0.256948947 0.33773902 0.017598006 -0.028170816 0 0 0 0
956000000 0.461163252 0.237283155 -0.001986871 -0.025208272 0 0 0 0
964000000 0.562511503 0.010076097 -0.0112311 -0.015004511 0 0 0 0
972000000 0.512427389 -0.256282299 -0.013213918 -0.00552484 0 0 0 0
980000000 0.323748916 -0.468870103 -0.010819325 0.000838364 0 0 0 0
988000000 0.049311213 -0.552471518 -0.008139108 0.003607986 0 0 0 0
996000000 -0.224953621 -0.523258805 -0.005740697 0.004436173 0 0 0 0
1004000000 -0.465678989 -0.384257525 -0.00419294 0.005132088 0 0 0 0
