# Hz S RI R 50
700000000 0.757881522 0.552410483 -6.9445e-05 0.000731817 0 0 0 0
708000000 0.868334949 0.305903196 -1.9146e-05 0.001101223 0 0 0 0
716000000 0.900843501 0.031036933 6.7601e-05 0.001233867 0 0 0 0
724000000 0.84300059 -0.24802047 0.000285809 0.001406836 0 0 0 0
732000000 0.696144521 -0.504708766 0.000490798 0.001669805 0 0 0 0
740000000 0.45877245 -0.703044712 0.00079532 0.001629385 0 0 0 0
748000000 0.147637739 -0.800169706 0.001280576 0.001462909 0 0 0 0
756000000 -0.190579578 -0.761932015 0.001447426 0.000896788 0 0 0 0
764000000 -0.495501101 -0.562736392 0.001580805 0.000690619 0 0 0 0
772000000 -0.664509892 -0.209185495 0.001486239 0.000283618 0 0 0 0
780000000 -0.60842812 0.217842057 0.001495335 -0.000618024 0 0 0 0
788000000 -0.271438121 0.535631597 0.000686717 -0.001502584 0 0 0 0
796000000 0.222364708 0.546990811 -0.001058202 -0.002246997 0 0 0 0
804000000 0.571920394 0.209646925 -0.00319555 -0.000765743 0 0 0 0
812000000 0.578585207 -0.258008539 -0.003511028 0.002421361 0 0 0 0
820000000 0.302558928 -0.573700308 -0.00129149 0.004343161 0 0 0 0
828000000 -0.079448901 -0.656721115 0.001408743 0.004402762 0 0 0 0
836000000 -0.407034754 -0.539223253 0.003609574 0.00310748 0 0 0 0
844000000 -0.6246652 -0.301603496 0.005017781 0.00156632 0 0 0 0
852000000 -0.718036115 -0.024698128 0.00622677 -0.000118213 0 0 0 0
860000000 -0.689224302 0.248119547 0.007247649 -0.002355941 0 0 0 0
868000000 -0.562269151 0.46571353 0.007976719 -0.006029787 0 0 0 0
876000000 -0.35009697 0.586368858 0.007382784 -0.010565184 0 0 0 0
884000000 -0.123338855 0.599266886 0.003416105 -0.016369074 0 0 0 0
892000000 0.072236046 0.488722115 -0.006488915 -0.021345799 0 0 0 0
900000000 0.332417994 0.283787161 -0.025230756 -0.016893258 0 0 0 0
908000000 0.301390588 0.150182306 -0.037814937 0.007035849 0 0 0 0
916000000 0.234113499 0.078165121 -0.025345042 0.035999886 0 0 0 0
924000000 0.172180488 0.041616607 0.007761897 0.047086857 0 0 0 0
932000000 0.081511653 0.061145111 0.041781093 0.026758126 0 0 0 0
940000000 0.04545623 0.203258231 0.045569133 -0.013249788 0 0 0 0
948000000 0.216736152 0.3315261 0.017144568 -0.034409556 0 0 0 0
956000000 0.427958816 0.254874676 -0.005475667 -0.028833346 0 0 0 0
964000000 0.556645035 0.02516859 -0.015390244 -0.014941886 0 0 0 0
972000000 0.511498093 -0.243407979 -0.015838062 -0.003838482 0 0 0 0
980000000 0.326863348 -0.456814616 -0.011719523 0.00296547 0 0 0 0
988000000 0.064882092 -0.550578534 -0.007873654 0.005719781 0 0 0 0
996000000 -0.227943927 -0.530754029 -0.004864862 0.005618032 0 0 0 0
1004000000 -0.467190682 -0.392791181 -0.002896787 0.006009859 0 0 0 0
