# Hz S RI R 50
700000000 0.758212506 0.551103949 9.038e-06 0.000691982 0 0 0 0
708000000 0.865555763 0.308789163 -0.000193347 0.000930003 0 0 0 0
716000000 0.896092772 0.034635718 -1.8421e-05 0.001138948 0 0 0 0
724000000 0.841403305 -0.245529308 0.000215895 0.001402357 0 0 0 0
732000000 0.695215046 -0.504694163 0.000584417 0.001546047 0 0 0 0
740000000 0.458171278 -0.70287168 0.000783822 0.001693234 0 0 0 0
748000000 0.149729952 -0.798199355 0.00128233 0.001492093 0 0 0 0
756000000 -0.193396791 -0.759676575 0.001441068 0.000860673 0 0 0 0
764000000 -0.496747493 -0.554928898 0.00155486 0.000296533 0 0 0 0
772000000 -0.66666013 -0.203220635 0.001522889 8.0226e-05 0 0 0 0
780000000 -0.599446654 0.224882185 0.001404699 -0.000736717 0 0 0 0
788000000 -0.255977421 0.537299513 0.000603759 -0.001486931 0 0 0 0
796000000 0.234999477 0.532361268 -0.001430929 -0.001985531 0 0 0 0
804000000 0.574641644 0.186382383 -0.003540615 -0.000206277 0 0 0 0
812000000 0.565200805 -0.273183077 -0.002994494 0.002654721 0 0 0 0
820000000 0.281264394 -0.572626411 -0.000589293 0.004159362 0 0 0 0
828000000 -0.095486924 -0.643710434 0.001591656 0.003722752 0 0 0 0
836000000 -0.412773907 -0.518019378 0.003242399 0.002722219 0 0 0 0
844000000 -0.6208238 -0.283483803 0.004302466 0.001186072 0 0 0 0
852000000 -0.703239142 -0.00779611 0.005289263 8.3602e-05 0 0 0 0
860000000 -0.670659124 0.256014406 0.00650337 -0.00152562 0 0 0 0
868000000 -0.536385595 0.459884494 0.007722968 -0.004616909 0 0 0 0
876000000 -0.331801295 0.572518825 0.007981018 -0.009036578 0 0 0 0
884000000 -0.117039427 0.572619974 0.005195874 -0.015225561 0 0 0 0
892000000 0.060002442 0.459056109 -0.003937912 -0.021439455 0 0 0 0
900000000 0.305527508 0.265009433 -0.024190133 -0.019607687 0 0 0 0
908000000 0.284265995 0.154539957 -0.037857223 0.002860875 0 0 0 0
916000000 0.222921758 0.086093693 -0.02929382 0.033059969 0 0 0 0
924000000 0.16661109 0.047838602 0.00394782 0.04856082 0 0 0 0
932000000 0.073293022 0.085030749 0.039941601 0.029798224 0 0 0 0
940000000 0.051399335 0.234623163 0.044900063 -0.009553598 0 0 0 0
948000000 0.254703611 0.338233381 0.020243097 -0.031759779 0 0 0 0
956000000 0.446839451 0.226681798 -0.002411267 -0.028474243 0 0 0 0
964000000 0.558304548 -0.000656229 -0.013254307 -0.016396818 0 0 0 0
972000000 0.49694097 -0.251148372 -0.014925343 -0.005580204 0 0 0 0
980000000 0.312901586 -0.459315061 -0.011968106 0.001230471 0 0 0 0
988000000 0.049206033 -0.546491682 -0.008634952 0.004444894 0 0 0 0
996000000 -0.234020501 -0.521162927 -0.005717125 0.005546252 0 0 0 0
1004000000 -0.473477721 -0.376230895 -0.004530824 0.00602452 0 0 0 0
