# Hz S RI R 50
700000000 0.755378842 0.550490081 -9.9487e-05 0.000777153 0 0 0 0
708000000 0.867352128 0.308498889 1.7751e-05 0.000997003 0 0 0 0
716000000 0.897557258 0.03397515 8.2024e-05 0.001260851 0 0 0 0
724000000 0.843842804 -0.242600604 0.000158801 0.001428722 0 0 0 0
732000000 0.695450305 -0.502684533 0.000638482 0.001577586 0 0 0 0
740000000 0.45707032 -0.70205295 0.00091917 0.001672281 0 0 0 0
748000000 0.149265766 -0.799382984 0.001383489 0.00148731 0 0 0 0
756000000 -0.190532788 -0.760406196 0.001525346 0.001027838 0 0 0 0
764000000 -0.494637548 -0.56089133 0.001751911 0.000560248 0 0 0 0
772000000 -0.668203949 -0.20380634 0.001756006 -3.3945e-05 0 0 0 0
780000000 -0.607040762 0.219406098 0.001475423 -0.000643337 0 0 0 0
788000000 -0.267269551 0.539985239 0.000679276 -0.001795327 0 0 0 0
796000000 0.227202937 0.54361546 -0.00163577 -0.002530758 0 0 0 0
804000000 0.57768929 0.20295298 -0.004199279 -0.000815629 0 0 0 0
812000000 0.578468263 -0.263812363 -0.004164515 0.003038838 0 0 0 0
820000000 0.298374712 -0.576368331 -0.000939104 0.005369428 0 0 0 0
828000000 -0.08505591 -0.655675888 0.002254772 0.005067981 0 0 0 0
836000000 -0.408045858 -0.536152064 0.004469698 0.003122343 0 0 0 0
844000000 -0.626902282 -0.298547267 0.005729672 0.001178006 0 0 0 0
852000000 -0.715412735 -0.021434634 0.006442255 -0.000831991 0 0 0 0
860000000 -0.689180254 0.250834435 0.007288307 -0.003262374 0 0 0 0
868000000 -0.554407358 0.464171439 0.00733168 -0.0065792 0 0 0 0
876000000 -0.342603445 0.586032092 0.006207908 -0.010641792 0 0 0 0
884000000 -0.114261038 0.594934701 0.00218718 -0.015525098 0 0 0 0
892000000 0.074511706 0.477617681 -0.006975888 -0.019199915 0 0 0 0
900000000 0.318451434 0.275177568 -0.024352373 -0.013790871 0 0 0 0
908000000 0.29693067 0.150967389 -0.03283355 0.00602188 0 0 0 0
916000000 0.239049971 0.080511301 -0.022926442 0.030731396 0 0 0 0
924000000 0.172314986 0.033851277 0.005084977 0.041253883 0 0 0 0
932000000 0.077941961 0.063022702 0.034766171 0.025728609 0 0 0 0
940000000 0.045623239 0.213539093 0.040487829 -0.007198562 0 0 0 0
948000000 0.223912939 0.320673674 0.019439838 -0.028308797 0 0 0 0
956000000 0.432196557 0.230760514 -0.002094264 -0.026865743 0 0 0 0
964000000 0.545606672 0.022635977 -0.012672714 -0.016033517 0 0 0 0
972000000 0.503585338 -0.245147839 -0.014484764 -0.005129402 0 0 0 0
980000000 0.323999881 -0.453867584 -0.01147718 0.001357101 0 0 0 0
988000000 0.059289932 -0.543855071 -0.007434739 0.004683722 0 0 0 0
996000000 -0.235549122 -0.511336565 -0.005361787 0.004816873 0 0 0 0
1004000000 -0.466717571 -0.386748641 -0.003929764 0.005045274 0 0 0 0
