# Hz S RI R 50
700000000 0.756765782 0.555723965 -5.1647e-05 0.00071248 0 0 0 0
708000000 0.865560233 0.308900952 -4.6943e-05 0.001182556 0 0 0 0
716000000 0.897497236 0.037068225 -1.1421e-05 0.001133928 0 0 0 0
724000000 0.840660929 -0.244759529 0.000350844 0.00142608 0 0 0 0
732000000 0.69626677 -0.505077481 0.000450813 0.001518551 0 0 0 0
740000000 0.457155138 -0.701328694 0.000903918 0.001604717 0 0 0 0
748000000 0.151413783 -0.800138652 0.001498647 0.00136336 0 0 0 0
756000000 -0.190100148 -0.761063992 0.001547673 0.000932219 0 0 0 0
764000000 -0.492722064 -0.559929013 0.001705767 0.000539087 0 0 0 0
772000000 -0.665878474 -0.206712812 0.001499598 2.5715e-05 0 0 0 0
780000000 -0.604225158 0.217065572 0.001527016 -0.000725191 0 0 0 0
788000000 -0.266200035 0.53740108 0.000537933 -0.001488689 0 0 0 0
796000000 0.225432261 0.544129192 -0.001280398 -0.002231768 0 0 0 0
804000000 0.572843432 0.20441915 -0.003558285 -0.000853084 0 0 0 0
812000000 0.578209698 -0.259617865 -0.003803566 0.002316926 0 0 0 0
820000000 0.301910221 -0.574115693 -0.001111267 0.004474949 0 0 0 0
828000000 -0.080536007 -0.651837825 0.001511831 0.00439014 0 0 0 0
836000000 -0.403286427 -0.536227464 0.003301713 0.00312094 0 0 0 0
844000000 -0.619762778 -0.299494892 0.00472752 0.00175981 0 0 0 0
852000000 -0.712667167 -0.023769836 0.005864414 0.000295022 0 0 0 0
860000000 -0.687351584 0.244268029 0.007193234 -0.001725084 0 0 0 0
868000000 -0.557366967 0.459651142 0.008199287 -0.004940584 0 0 0 0
876000000 -0.349617481 0.58272612 0.008411401 -0.009384148 0 0 0 0
884000000 -0.122650437 0.593921661 0.005269872 -0.015863275 0 0 0 0
892000000 0.064359828 0.484035104 -0.004173838 -0.02214149 0 0 0 0
900000000 0.320884555 0.28805691 -0.025002185 -0.019779587 0 0 0 0
908000000 0.295006752 0.160697922 -0.038515251 0.001869061 0 0 0 0
916000000 0.250195145 0.08359313 -0.030008858 0.032640285 0 0 0 0
924000000 0.177628919 0.040825441 0.002228394 0.04902384 0 0 0 0
932000000 0.079451024 0.06013729 0.038895942 0.03268465 0 0 0 0
940000000 0.047226138 0.196308612 0.047378201 -0.007778219 0 0 0 0
948000000 0.214606001 0.328597873 0.02281773 -0.033037669 0 0 0 0
956000000 0.423833459 0.233435511 -0.00238747 -0.029992412 0 0 0 0
964000000 0.543103098 0.02735201 -0.014880754 -0.017176799 0 0 0 0
972000000 0.507641613 -0.23343876 -0.016239501 -0.00517657 0 0 0 0
980000000 0.335480183 -0.45807296 -0.011568855 0.002312556 0 0 0 0
988000000 0.065921343 -0.555050075 -0.008229247 0.004983887 0 0 0 0
996000000 -0.223596855 -0.520620107 -0.005183107 0.005242942 0 0 0 0
1004000000 -0.470974743 -0.395252436 -0.003527119 0.005613305 0 0 0 0
