# Hz S RI R 50
700000000 0.757201313 0.551327943 -6.9115e-05 0.000594656 0 0 0 0
708000000 0.867283999 0.305694222 -0.00018031 0.000911224 0 0 0 0
716000000 0.900262534 0.033133227 4.7957e-05 0.001347193 0 0 0 0
724000000 0.841069936 -0.249856293 0.000119332 0.00156184 0 0 0 0
732000000 0.697394847 -0.503461599 0.000468066 0.001451012 0 0 0 0
740000000 0.457863509 -0.699766933 0.00097332 0.001621907 0 0 0 0
748000000 0.148776531 -0.801397383 0.001313331 0.001319396 0 0 0 0
756000000 -0.190454423 -0.760632336 0.001542403 0.001144803 0 0 0 0
764000000 -0.493029326 -0.559533953 0.001536601 0.000393609 0 0 0 0
772000000 -0.668980777 -0.208191812 0.001750908 9.5177e-05 0 0 0 0
780000000 -0.60677433 0.219829142 0.001627929 -0.00063198 0 0 0 0
788000000 -0.269826442 0.541213929 0.000669251 -0.001797488 0 0 0 0
796000000 0.226147159 0.544935047 -0.00138502 -0.002578743 0 0 0 0
804000000 0.577375888 0.206038832 -0.003856901 -0.000946041 0 0 0 0
812000000 0.582708656 -0.261155962 -0.00402585 0.002556115 0 0 0 0
820000000 0.301149636 -0.576982676 -0.001123125 0.005099454 0 0 0 0
828000000 -0.079215779 -0.660427987 0.001831456 0.004911605 0 0 0 0
836000000 -0.409048676 -0.537817597 0.003819665 0.003458431 0 0 0 0
844000000 -0.626575469 -0.306384176 0.0052746 0.001503398 0 0 0 0
852000000 -0.717934131 -0.02593447 0.00624329 -0.000267572 0 0 0 0
860000000 -0.694295823 0.246049478 0.007041848 -0.002413124 0 0 0 0
868000000 -0.563302934 0.461957126 0.007823156 -0.005589427 0 0 0 0
876000000 -0.353114992 0.587397933 0.007281302 -0.009670782 0 0 0 0
884000000 -0.121290944 0.597802102 0.004196945 -0.015154714 0 0 0 0
892000000 0.074501626 0.486371845 -0.004689165 -0.020562253 0 0 0 0
900000000 0.330858588 0.28549835 -0.022597821 -0.017700089 0 0 0 0
908000000 0.30489403 0.154026612 -0.036294184 0.002843656 0 0 0 0
916000000 0.249791815 0.074208356 -0.02807486 0.031456474 0 0 0 0
924000000 0.169306218 0.028530366 0.002041096 0.045600537 0 0 0 0
932000000 0.067190043 0.065197572 0.036567475 0.030855111 0 0 0 0
940000000 0.047795765 0.208630859 0.044116403 -0.006060528 0 0 0 0
948000000 0.221407264 0.325336575 0.022038429 -0.030682124 0 0 0 0
956000000 0.43112576 0.241111114 -0.001390277 -0.028466137 0 0 0 0
964000000 0.552045464 0.025082869 -0.012747108 -0.017287608 0 0 0 0
972000000 0.503057718 -0.24188216 -0.015422678 -0.005912665 0 0 0 0
980000000 0.326790601 -0.458252251 -0.011662865 0.001760365 0 0 0 0
988000000 0.067734338 -0.550816059 -0.008612365 0.004596835 0 0 0 0
996000000 -0.22083643 -0.516326963 -0.005115759 0.004981986 0 0 0 0
1004000000 -0.465584248 -0.383841753 -0.00395795 0.005261736 0 0 0 0
