# Hz S RI R 50
700000000 0.761844992 0.552901148 -0.000135168 0.000594766 0 0 0 0
708000000 0.866058647 0.305953085 -0.000123638 0.001062471 0 0 0 0
716000000 0.90223664 0.032112509 7.287e-05 0.001341936 0 0 0 0
724000000 0.848704934 -0.248816207 0.000301839 0.001593438 0 0 0 0
732000000 0.69626832 -0.506209433 0.000650098 0.001697504 0 0 0 0
740000000 0.45930618 -0.702687025 0.000899636 0.001489933 0 0 0 0
748000000 0.149683341 -0.803239762 0.001201865 0.001426243 0 0 0 0
756000000 -0.190948173 -0.762627243 0.001637124 0.000876447 0 0 0 0
764000000 -0.497085928 -0.561215639 0.001606739 0.000587596 0 0 0 0
772000000 -0.6678797 -0.209468498 0.001707022 0.000141762 0 0 0 0
780000000 -0.608757019 0.220834672 0.001431759 -0.000663445 0 0 0 0
788000000 -0.266513258 0.540586531 0.000578113 -0.001826248 0 0 0 0
796000000 0.231350049 0.547112345 -0.001650136 -0.002511288 0 0 0 0
804000000 0.582269132 0.199070855 -0.004175599 -0.000612131 0 0 0 0
812000000 0.579269766 -0.269030094 -0.003651706 0.00305927 0 0 0 0
820000000 0.294040024 -0.57982248 -0.000859232 0.005192492 0 0 0 0
828000000 -0.087673008 -0.655492842 0.002105805 0.004790227 0 0 0 0
836000000 -0.41141954 -0.532152891 0.004372087 0.00284933 0 0 0 0
844000000 -0.631944298 -0.296893566 0.005515222 0.000815222 0 0 0 0
852000000 -0.717030942 -0.015480316 0.006038565 -0.001012499 0 0 0 0
860000000 -0.687345325 0.253264695 0.006790963 -0.00294949 0 0 0 0
868000000 -0.552742779 0.467226475 0.006864187 -0.006001295 0 0 0 0
876000000 -0.345606088 0.588526189 0.006329879 -0.009651777 0 0 0 0
884000000 -0.1150259 0.59697777 0.003217205 -0.014476815 0 0 0 0
892000000 0.075531587 0.482613801 -0.00513841 -0.01925382 0 0 0 0
900000000 0.340984642 0.270888179 -0.021955719 -0.016512729 0 0 0 0
908000000 0.302265435 0.139261528 -0.034249149 0.003911344 0 0 0 0
916000000 0.226719588 0.069412536 -0.025844758 0.029879415 0 0 0 0
924000000 0.160500675 0.032114069 0.002423155 0.042961228 0 0 0 0
932000000 0.066416464 0.082770846 0.03509156 0.029273876 0 0 0 0
940000000 0.053733866 0.208811461 0.043421264 -0.006634864 0 0 0 0
948000000 0.235073149 0.328444361 0.020318578 -0.030572561 0 0 0 0
956000000 0.4318493 0.249318867 -0.002419983 -0.027919439 0 0 0 0
964000000 0.551979303 0.017396001 -0.012798357 -0.016011783 0 0 0 0
972000000 0.511314511 -0.234996497 -0.014913544 -0.005477323 0 0 0 0
980000000 0.335118979 -0.45794624 -0.011371547 0.001796468 0 0 0 0
988000000 0.060755755 -0.555959522 -0.007633189 0.004146588 0 0 0 0
996000000 -0.223494395 -0.517528712 -0.005246642 0.004868582 0 0 0 0
1004000000 -0.465620785 -0.38680908 -0.003431076 0.005927228 0 0 0 0
