# Hz S RI R 50
700000000 0.761632382 0.552607238 -0.000147236 0.000602895 0 0 0 0
708000000 0.865878045 0.305529594 -6.8424e-05 0.001055207 0 0 0 0
716000000 0.896661281 0.034125216 -1.9364e-05 0.00137966 0 0 0 0
724000000 0.845300853 -0.24646461 0.000286113 0.001494961 0 0 0 0
732000000 0.696077704 -0.506051898 0.000477341 0.001632616 0 0 0 0
740000000 0.457368642 -0.700944185 0.000911813 0.001529872 0 0 0 0
748000000 0.147322371 -0.800566554 0.001169917 0.001350575 0 0 0 0
756000000 -0.19495286 -0.760172069 0.001492462 0.000981078 0 0 0 0
764000000 -0.498738229 -0.555131077 0.001471603 0.000423887 0 0 0 0
772000000 -0.66850382 -0.196923822 0.001399332 0.000413031 0 0 0 0
780000000 -0.606317639 0.230108633 0.001505824 -0.000153392 0 0 0 0
788000000 -0.253829836 0.54629898 0.001062405 -0.001217882 0 0 0 0
796000000 0.242215633 0.541563808 -0.000654703 -0.002267258 0 0 0 0
804000000 0.58439511 0.189646363 -0.003397915 -0.001270457 0 0 0 0
812000000 0.57697165 -0.28006199 -0.004000148 0.00201541 0 0 0 0
820000000 0.288952976 -0.58467549 -0.00156158 0.004790163 0 0 0 0
828000000 -0.093844741 -0.65850687 0.001197613 0.004799676 0 0 0 0
836000000 -0.419432342 -0.532007038 0.003558735 0.00337151 0 0 0 0
844000000 -0.634001135 -0.292254865 0.005209336 0.001566655 0 0 0 0
852000000 -0.719025969 -0.016077591 0.006252133 -0.000165906 0 0 0 0
860000000 -0.686868607 0.25793749 0.007434774 -0.002485624 0 0 0 0
868000000 -0.559716761 0.470100432 0.007786741 -0.006101864 0 0 0 0
876000000 -0.344754248 0.593365728 0.007034687 -0.010552726 0 0 0 0
884000000 -0.113279484 0.604082107 0.002946733 -0.015719514 0 0 0 0
892000000 0.084448508 0.487426191 -0.006351646 -0.01990839 0 0 0 0
900000000 0.350739538 0.27376163 -0.024660902 -0.014876223 0 0 0 0
908000000 0.31603232 0.129949986 -0.034835919 0.005260637 0 0 0 0
916000000 0.2311237 0.046104237 -0.024623971 0.032364398 0 0 0 0
924000000 0.127759963 0.022373098 0.00637112 0.043864909 0 0 0 0
932000000 0.038766968 0.089892245 0.038186736 0.025706535 0 0 0 0
940000000 0.05487661 0.250091344 0.041313514 -0.010106435 0 0 0 0
948000000 0.24947606 0.339785307 0.017622986 -0.03062863 0 0 0 0
956000000 0.445981264 0.239685788 -0.003572371 -0.026128539 0 0 0 0
964000000 0.558330476 0.010646633 -0.012487428 -0.014556853 0 0 0 0
972000000 0.502383232 -0.250732004 -0.014391548 -0.00500667 0 0 0 0
980000000 0.318453878 -0.462020576 -0.011114772 0.001780504 0 0 0 0
988000000 0.051087375 -0.560704708 -0.007182377 0.004393482 0 0 0 0
996000000 -0.23091188 -0.520862996 -0.004724301 0.004923562 0 0 0 0
1004000000 -0.475108236 -0.394605398 -0.003398305 0.005758833 0 0 0 0
