# Hz S RI R 50
700000000 0.759239435 0.553566992 -0.000126898 0.000733309 0 0 0 0
708000000 0.865442097 0.307750225 -0.000109189 0.001061224 0 0 0 0
716000000 0.898084878 0.031869426 -0.000118768 0.001299567 0 0 0 0
724000000 0.843315124 -0.242531672 0.000229662 0.001579908 0 0 0 0
732000000 0.694081306 -0.501994848 0.000568434 0.00153811 0 0 0 0
740000000 0.458334445 -0.701602101 0.000900884 0.001621799 0 0 0 0
748000000 0.145881488 -0.799629867 0.001305405 0.001238074 0 0 0 0
756000000 -0.193067729 -0.757362127 0.001431261 0.001073784 0 0 0 0
764000000 -0.494687974 -0.554445743 0.001570799 0.000602748 0 0 0 0
772000000 -0.659908533 -0.195574596 0.001615344 0.000220441 0 0 0 0
780000000 -0.590933978 0.225632682 0.001553593 -0.000387179 0 0 0 0
788000000 -0.24219492 0.534555435 0.001062161 -0.001748101 0 0 0 0
796000000 0.239786162 0.518026113 -0.000940661 -0.002300069 0 0 0 0
804000000 0.564527511 0.169456541 -0.003561942 -0.001001489 0 0 0 0
812000000 0.545135557 -0.281300097 -0.003871674 0.00211096 0 0 0 0
820000000 0.264167636 -0.568868994 -0.001337685 0.004594199 0 0 0 0
828000000 -0.10569901 -0.628050506 0.001266014 0.004900065 0 0 0 0
836000000 -0.41493839 -0.505205988 0.003282703 0.003586438 0 0 0 0
844000000 -0.6181131 -0.269231766 0.005048638 0.002069652 0 0 0 0
852000000 -0.692427992 0.002021801 0.006534323 0.000263678 0 0 0 0
860000000 -0.655575215 0.260243773 0.008343582 -0.002095492 0 0 0 0
868000000 -0.525481879 0.459328472 0.009173898 -0.006285628 0 0 0 0
876000000 -0.319521158 0.563271224 0.00869014 -0.012029326 0 0 0 0
884000000 -0.103223495 0.559521079 0.003452494 -0.018967332 0 0 0 0
892000000 0.064074873 0.441004723 -0.009170401 -0.023649439 0 0 0 0
900000000 0.307613044 0.253087252 -0.030174953 -0.01608639 0 0 0 0
908000000 0.253505706 0.13844332 -0.040365569 0.011891201 0 0 0 0
916000000 0.196206301 0.085399992 -0.022741485 0.041621815 0 0 0 0
924000000 0.140668094 0.067756444 0.015638412 0.048204071 0 0 0 0
932000000 0.059315335 0.116361252 0.045415319 0.02068115 0 0 0 0
940000000 0.078561052 0.263510555 0.041177079 -0.01723296 0 0 0 0
948000000 0.277342468 0.329795449 0.014698369 -0.032194435 0 0 0 0
956000000 0.469022989 0.221385523 -0.005101979 -0.026860497 0 0 0 0
964000000 0.560272336 -0.019765863 -0.01358275 -0.015030654 0 0 0 0
972000000 0.49493891 -0.272202402 -0.015095801 -0.005029085 0 0 0 0
980000000 0.302476912 -0.471050262 -0.011876075 0.002241018 0 0 0 0
988000000 0.04293831 -0.555273115 -0.008563993 0.005669856 0 0 0 0
996000000 -0.238239005 -0.501990318 -0.005736063 0.005915343 0 0 0 0
1004000000 -0.476688742 -0.383683174 -0.003678199 0.006921784 0 0 0 0
