# Hz S RI R 50
700000000 0.761276125 0.549433171 -8.509e-06 0.0006612 0 0 0 0
708000000 0.867724835 0.305725485 5.41e-07 0.000943108 0 0 0 0
716000000 0.901429474 0.028651326 0.00014694 0.001298453 0 0 0 0
724000000 0.846877634 -0.245380684 5.8222e-05 0.001404347 0 0 0 0
732000000 0.694901466 -0.506541609 0.000486117 0.001752494 0 0 0 0
740000000 0.459610223 -0.706372559 0.000783056 0.001546139 0 0 0 0
748000000 0.149934291 -0.802761793 0.001240823 0.001498676 0 0 0 0
756000000 -0.190208137 -0.76147294 0.001588454 0.001069038 0 0 0 0
764000000 -0.495613634 -0.561875402 0.001696538 0.000502226 0 0 0 0
772000000 -0.66934216 -0.211704358 0.001670452 0.000146509 0 0 0 0
780000000 -0.610758483 0.213946357 0.001333762 -0.000679764 0 0 0 0
788000000 -0.271911382 0.537052214 0.000488689 -0.001703873 0 0 0 0
796000000 0.219904437 0.54728949 -0.001252512 -0.002027685 0 0 0 0
804000000 0.574379384 0.214196994 -0.003197542 -0.000626265 0 0 0 0
812000000 0.583203315 -0.253941059 -0.00334112 0.002384344 0 0 0 0
820000000 0.304887324 -0.572512865 -0.000974457 0.004408417 0 0 0 0
828000000 -0.074200376 -0.657857835 0.001437464 0.00414888 0 0 0 0
836000000 -0.404281735 -0.541743099 0.003444568 0.003332843 0 0 0 0
844000000 -0.623462438 -0.309118926 0.004794068 0.001441707 0 0 0 0
852000000 -0.718514621 -0.028178639 0.006035741 3.8696e-05 0 0 0 0
860000000 -0.692660808 0.245632499 0.007544124 -0.002160663 0 0 0 0
868000000 -0.565663695 0.463980853 0.008221766 -0.005894837 0 0 0 0
876000000 -0.352921426 0.591642141 0.007724843 -0.010640271 0 0 0 0
884000000 -0.11669258 0.606295764 0.003809874 -0.01685127 0 0 0 0
892000000 0.078430883 0.489690542 -0.006401071 -0.022299572 0 0 0 0
900000000 0.345209777 0.274488717 -0.027664417 -0.017194105 0 0 0 0
908000000 0.308823287 0.140338331 -0.040674097 0.007233881 0 0 0 0
916000000 0.233569502 0.078942023 -0.026881901 0.039180021 0 0 0 0
924000000 0.1751668 0.047751959 0.010239948 0.050578322 0 0 0 0
932000000 0.087452307 0.057399928 0.045769434 0.026444634 0 0 0 0
940000000 0.048662174 0.195076286 0.046569574 -0.015814151 0 0 0 0
948000000 0.214875176 0.325592935 0.017294339 -0.035951782 0 0 0 0
956000000 0.432056695 0.244694411 -0.006532095 -0.029521955 0 0 0 0
964000000 0.556329369 0.024144103 -0.015616841 -0.015956738 0 0 0 0
972000000 0.505709469 -0.234335139 -0.01746379 -0.003702354 0 0 0 0
980000000 0.327591538 -0.453015714 -0.012791358 0.003413685 0 0 0 0
988000000 0.055665757 -0.557978451 -0.007999303 0.006138043 0 0 0 0
996000000 -0.220093742 -0.526759207 -0.004765611 0.007065405 0 0 0 0
1004000000 -0.476732462 -0.392644405 -0.003114655 0.006543435 0 0 0 0
