# Hz S RI R 50
700000000 0.758744359 0.550502121 -0.000107745 0.000643668 0 0 0 0
708000000 0.866113722 0.3069911 -2.2986e-05 0.001043723 0 0 0 0
716000000 0.895755469 0.033204928 -0.000106786 0.001407927 0 0 0 0
724000000 0.841361522 -0.241890788 0.000296785 0.001508218 0 0 0 0
732000000 0.695495069 -0.502916216 0.000461748 0.001688338 0 0 0 0
740000000 0.458114176 -0.700503408 0.000911283 0.00162393 0 0 0 0
748000000 0.149356976 -0.801400303 0.001350826 0.001311789 0 0 0 0
756000000 -0.189261808 -0.760235786 0.001577728 0.001059578 0 0 0 0
764000000 -0.491813242 -0.558310151 0.001607732 0.00061775 0 0 0 0
772000000 -0.668128311 -0.20690912 0.001464185 3.66e-06 0 0 0 0
780000000 -0.604870259 0.216597244 0.001450124 -0.000475156 0 0 0 0
788000000 -0.266132086 0.536332309 0.000594155 -0.001794469 0 0 0 0
796000000 0.226771607 0.542151868 -0.001342676 -0.00224309 0 0 0 0
804000000 0.574525833 0.201813727 -0.003554161 -0.000767482 0 0 0 0
812000000 0.574418604 -0.260610103 -0.003630509 0.0025375 0 0 0 0
820000000 0.298728734 -0.57485944 -0.001276063 0.004461029 0 0 0 0
828000000 -0.079792328 -0.653976321 0.001440288 0.004171845 0 0 0 0
836000000 -0.406820714 -0.532290518 0.003267307 0.003135234 0 0 0 0
844000000 -0.620773851 -0.301010966 0.00441909 0.0017839 0 0 0 0
852000000 -0.712620079 -0.024182729 0.005745844 0.000417835 0 0 0 0
860000000 -0.689427196 0.248743459 0.007224255 -0.001321947 0 0 0 0
868000000 -0.557305812 0.45640242 0.008498743 -0.004534994 0 0 0 0
876000000 -0.349523961 0.581831991 0.009001933 -0.009452418 0 0 0 0
884000000 -0.118956245 0.593306839 0.006078541 -0.016572926 0 0 0 0
892000000 0.065523892 0.480137884 -0.003849646 -0.023446682 0 0 0 0
900000000 0.32278493 0.282698303 -0.025019424 -0.021140292 0 0 0 0
908000000 0.295219212 0.159652456 -0.040887493 0.002731792 0 0 0 0
916000000 0.24306105 0.078240372 -0.0308215 0.035112362 0 0 0 0
924000000 0.178817376 0.029828358 0.004234546 0.050493258 0 0 0 0
932000000 0.079462483 0.061581086 0.041269835 0.031895816 0 0 0 0
940000000 0.043385684 0.208809286 0.047930993 -0.00859371 0 0 0 0
948000000 0.221616327 0.32629922 0.022765949 -0.033734109 0 0 0 0
956000000 0.428977549 0.231035232 -0.002719313 -0.030952695 0 0 0 0
964000000 0.551098465 0.029755612 -0.015172109 -0.017555654 0 0 0 0
972000000 0.510897397 -0.238350629 -0.01655253 -0.00598439 0 0 0 0
980000000 0.324053496 -0.45761758 -0.012245815 0.00257002 0 0 0 0
988000000 0.063462682 -0.546554625 -0.008560118 0.005227023 0 0 0 0
996000000 -0.22297655 -0.518253982 -0.005830877 0.005942427 0 0 0 0
1004000000 -0.469538599 -0.391044527 -0.003914562 0.005979517 0 0 0 0
