# Hz S RI R 50
700000000 0.758313119 0.550385594 -5.104e-06 0.00066485 0 0 0 0
708000000 0.8672508 0.306813776 -0.000101452 0.001008656 0 0 0 0
716000000 0.897470116 0.033061403 4.6935e-05 0.001266555 0 0 0 0
724000000 0.842690408 -0.242110282 0.000262697 0.001349868 0 0 0 0
732000000 0.69683969 -0.502249538 0.000547232 0.001619689 0 0 0 0
740000000 0.458404242 -0.700269997 0.00088385 0.001645332 0 0 0 0
748000000 0.148701965 -0.799448192 0.001305454 0.0014412 0 0 0 0
756000000 -0.19060947 -0.760249912 0.001531942 0.000846668 0 0 0 0
764000000 -0.494767457 -0.559715449 0.001667717 0.000608604 0 0 0 0
772000000 -0.666303396 -0.208619445 0.001447541 -5.736e-06 0 0 0 0
780000000 -0.606708943 0.218757137 0.001328711 -0.000558864 0 0 0 0
788000000 -0.263962775 0.539200961 0.000779148 -0.001583086 0 0 0 0
796000000 0.225563287 0.542014002 -0.001173161 -0.002239039 0 0 0 0
804000000 0.577270627 0.201101794 -0.003768093 -0.000924445 0 0 0 0
812000000 0.58023262 -0.262312412 -0.003544589 0.002502147 0 0 0 0
820000000 0.297532588 -0.575610876 -0.001026891 0.004713443 0 0 0 0
828000000 -0.081486217 -0.652860045 0.001499346 0.004619829 0 0 0 0
836000000 -0.407693028 -0.532289981 0.003768582 0.003220407 0 0 0 0
844000000 -0.621681392 -0.300035536 0.005086844 0.001484716 0 0 0 0
852000000 -0.714316427 -0.019168501 0.006422409 -0.000166334 0 0 0 0
860000000 -0.68541485 0.248420611 0.007559064 -0.00247366 0 0 0 0
868000000 -0.554486334 0.46232739 0.007995278 -0.006246396 0 0 0 0
876000000 -0.345232516 0.583714783 0.007217916 -0.011118188 0 0 0 0
884000000 -0.114802852 0.591942787 0.003081245 -0.016998833 0 0 0 0
892000000 0.070891208 0.478095918 -0.007394356 -0.021330134 0 0 0 0
900000000 0.321713864 0.268381506 -0.026340294 -0.01630054 0 0 0 0
908000000 0.28774172 0.155113711 -0.037499569 0.008131168 0 0 0 0
916000000 0.235582381 0.089435093 -0.024343539 0.03658355 0 0 0 0
924000000 0.182932689 0.035056184 0.00885297 0.046698376 0 0 0 0
932000000 0.076517902 0.054629176 0.04156778 0.025794146 0 0 0 0
940000000 0.046093337 0.210815191 0.044514067 -0.012182287 0 0 0 0
948000000 0.223465353 0.328547388 0.018491052 -0.033711478 0 0 0 0
956000000 0.434081763 0.250939726 -0.004432446 -0.02968893 0 0 0 0
964000000 0.559823155 0.00948014 -0.015476681 -0.016552293 0 0 0 0
972000000 0.511298954 -0.23946312 -0.016653003 -0.00464949 0 0 0 0
980000000 0.327157765 -0.454188078 -0.012215555 0.002694329 0 0 0 0
988000000 0.060080133 -0.551280379 -0.007763577 0.00582112 0 0 0 0
996000000 -0.22779411 -0.522586047 -0.004343143 0.006716487 0 0 0 0
1004000000 -0.460574358 -0.386897414 -0.002938408 0.006622002 0 0 0 0
