# Hz S RI R 50
700000000 0.760567486 0.555614888 -3.5351e-05 0.000714364 0 0 0 0
708000000 0.86817193 0.307844251 -5.0562e-05 0.001018857 0 0 0 0
716000000 0.899892687 0.030902424 -3.4646e-05 0.001297027 0 0 0 0
724000000 0.846841633 -0.245422407 0.000132479 0.001417136 0 0 0 0
732000000 0.694673597 -0.506010115 0.000473163 0.001602416 0 0 0 0
740000000 0.454520314 -0.703511834 0.000893941 0.001658789 0 0 0 0
748000000 0.146290987 -0.800589919 0.001273122 0.001497469 0 0 0 0
756000000 -0.192276477 -0.759949147 0.001580999 0.000851778 0 0 0 0
764000000 -0.495450407 -0.557493031 0.001619589 0.000564395 0 0 0 0
772000000 -0.665652692 -0.207007259 0.001431399 -6.0205e-05 0 0 0 0
780000000 -0.600027441 0.223333507 0.001399108 -0.000545798 0 0 0 0
788000000 -0.258465945 0.535221159 0.000459479 -0.001637743 0 0 0 0
796000000 0.23373185 0.533331811 -0.001347237 -0.001929524 0 0 0 0
804000000 0.574371814 0.187817603 -0.003190107 -0.000208066 0 0 0 0
812000000 0.565974831 -0.271405577 -0.003067709 0.002397572 0 0 0 0
820000000 0.28136599 -0.575550973 -0.000784128 0.004092554 0 0 0 0
828000000 -0.096247747 -0.646764338 0.001481476 0.004072469 0 0 0 0
836000000 -0.416412472 -0.521152734 0.003207967 0.002871915 0 0 0 0
844000000 -0.622961223 -0.285473614 0.004471901 0.00134378 0 0 0 0
852000000 -0.710197269 -0.00371584 0.005622572 0.000281461 0 0 0 0
860000000 -0.673707842 0.26179257 0.007153559 -0.001564255 0 0 0 0
868000000 -0.533600986 0.46693474 0.008182314 -0.005183582 0 0 0 0
876000000 -0.324825555 0.581439912 0.008362004 -0.009762539 0 0 0 0
884000000 -0.095122978 0.570788621 0.005007477 -0.016369586 0 0 0 0
892000000 0.07554531 0.445017874 -0.005219725 -0.022619195 0 0 0 0
900000000 0.300648361 0.234567627 -0.026356546 -0.019514154 0 0 0 0
908000000 0.253316462 0.132648169 -0.039855193 0.005658434 0 0 0 0
916000000 0.189793437 0.100574776 -0.027438921 0.036557365 0 0 0 0
924000000 0.142076 0.084232769 0.007627713 0.048900455 0 0 0 0
932000000 0.089596346 0.114762157 0.043129537 0.026748262 0 0 0 0
940000000 0.076972179 0.244554594 0.044700145 -0.013514665 0 0 0 0
948000000 0.278363347 0.334278732 0.016714384 -0.033432979 0 0 0 0
956000000 0.466049909 0.225751563 -0.004788396 -0.02717779 0 0 0 0
964000000 0.566153168 -0.011380714 -0.01362859 -0.014586062 0 0 0 0
972000000 0.505561172 -0.269347906 -0.014867649 -0.004647462 0 0 0 0
980000000 0.318633377 -0.480107486 -0.011265422 0.001750263 0 0 0 0
988000000 0.047995667 -0.565540134 -0.007671255 0.00447429 0 0 0 0
996000000 -0.241884052 -0.517228782 -0.004897592 0.005168256 0 0 0 0
1004000000 -0.48196429 -0.38881573 -0.003912143 0.006631519 0 0 0 0
