# Hz S RI R 50
700000000 0.758360326 0.556992888 -0.000116465 0.000759068 0 0 0 0
708000000 0.866182506 0.306777447 -0.000117444 0.001070871 0 0 0 0
716000000 0.898139953 0.033596821 5.9296e-05 0.001475596 0 0 0 0
724000000 0.844230175 -0.251531392 0.000254176 0.001534847 0 0 0 0
732000000 0.696721851 -0.505608797 0.000455173 0.001574977 0 0 0 0
740000000 0.458913356 -0.70251441 0.000802669 0.001591105 0 0 0 0
748000000 0.149555474 -0.799088954 0.001317609 0.001520672 0 0 0 0
756000000 -0.190025046 -0.764017403 0.001567393 0.001026639 0 0 0 0
764000000 -0.4957349 -0.562673449 0.001711572 0.000581586 0 0 0 0
772000000 -0.666336119 -0.205793887 0.001721846 -0.00015267 0 0 0 0
780000000 -0.611004114 0.21867527 0.001604998 -0.000602571 0 0 0 0
788000000 -0.265085518 0.540512263 0.000706865 -0.001824373 0 0 0 0
796000000 0.224140644 0.544300198 -0.001267788 -0.002158723 0 0 0 0
804000000 0.576473832 0.201508745 -0.003705954 -0.000715449 0 0 0 0
812000000 0.575026333 -0.265257626 -0.003458023 0.002803004 0 0 0 0
820000000 0.295657962 -0.576801955 -0.000827536 0.004619664 0 0 0 0
828000000 -0.087695635 -0.652148604 0.001806746 0.004322527 0 0 0 0
836000000 -0.409735918 -0.530181586 0.003653035 0.002843757 0 0 0 0
844000000 -0.621483683 -0.295149177 0.004808627 0.001090308 0 0 0 0
852000000 -0.712142467 -0.019204398 0.005654802 -0.000331501 0 0 0 0
860000000 -0.683477997 0.251618206 0.006617486 -0.002201004 0 0 0 0
868000000 -0.554648816 0.462041139 0.007263369 -0.005243578 0 0 0 0
876000000 -0.341692298 0.583356559 0.007223382 -0.009161732 0 0 0 0
884000000 -0.115571051 0.588426113 0.00459776 -0.014630058 0 0 0 0
892000000 0.069808915 0.478735238 -0.003995079 -0.020270945 0 0 0 0
900000000 0.323433786 0.268667548 -0.021981766 -0.017562242 0 0 0 0
908000000 0.290356099 0.146493077 -0.036140784 0.001869121 0 0 0 0
916000000 0.235283821 0.078912198 -0.028351325 0.030127463 0 0 0 0
924000000 0.164788201 0.044738985 0.000831559 0.045747909 0 0 0 0
932000000 0.078024342 0.068344384 0.035212799 0.031971178 0 0 0 0
940000000 0.056628718 0.203426241 0.04533733 -0.005328416 0 0 0 0
948000000 0.231734931 0.325500726 0.022371474 -0.030399939 0 0 0 0
956000000 0.431474208 0.242671161 -0.001211647 -0.028773641 0 0 0 0
964000000 0.550361037 0.030727783 -0.012742927 -0.017383396 0 0 0 0
972000000 0.513761579 -0.237789362 -0.015577532 -0.006082374 0 0 0 0
980000000 0.325278222 -0.454953521 -0.011921247 0.000707674 0 0 0 0
988000000 0.067874372 -0.54747945 -0.008390394 0.004594314 0 0 0 0
996000000 -0.228305399 -0.526589155 -0.006069312 0.005239327 0 0 0 0
1004000000 -0.469983041 -0.393002986 -0.004365764 0.006295767 0 0 0 0
