# Hz S RI R 50
700000000 0.762063443 0.554645955 -6.3926e-05 0.000726727 0 0 0 0
708000000 0.866763293 0.309786975 6.18e-07 0.001099798 0 0 0 0
716000000 0.899492681 0.031333353 0.000143615 0.001369183 0 0 0 0
724000000 0.84515345 -0.251865386 0.000338391 0.001518186 0 0 0 0
732000000 0.694855093 -0.503427624 0.000584614 0.001452211 0 0 0 0
740000000 0.458120316 -0.700476646 0.000834849 0.001471237 0 0 0 0
748000000 0.146957755 -0.798681676 0.001247065 0.001375277 0 0 0 0
756000000 -0.189698189 -0.757868349 0.00167336 0.00097455 0 0 0 0
764000000 -0.493501901 -0.553871214 0.001593088 0.000416755 0 0 0 0
772000000 -0.663882732 -0.199706628 0.001725838 0.000294916 0 0 0 0
780000000 -0.597169637 0.221123844 0.001469271 -0.00039472 0 0 0 0
788000000 -0.252170026 0.531206965 0.000911786 -0.001458321 0 0 0 0
796000000 0.228524327 0.524230122 -0.001201764 -0.002324948 0 0 0 0
804000000 0.561452507 0.186864838 -0.003240912 -0.000867469 0 0 0 0
812000000 0.553580284 -0.269509911 -0.003590972 0.002082387 0 0 0 0
820000000 0.276467293 -0.565379381 -0.001302705 0.004363295 0 0 0 0
828000000 -0.092557422 -0.635246574 0.001188559 0.004487114 0 0 0 0
836000000 -0.407871156 -0.513260364 0.003129187 0.003552334 0 0 0 0
844000000 -0.612036347 -0.276416093 0.005053992 0.002180425 0 0 0 0
852000000 -0.694769978 -0.005883476 0.006563251 0.00035131 0 0 0 0
860000000 -0.663235604 0.250567942 0.008362833 -0.002070021 0 0 0 0
868000000 -0.530093431 0.456008553 0.009217829 -0.00636333 0 0 0 0
876000000 -0.330147892 0.564491629 0.008638853 -0.011972218 0 0 0 0
884000000 -0.109228007 0.564126431 0.003323321 -0.019076865 0 0 0 0
892000000 0.063120327 0.450020939 -0.009115744 -0.023717343 0 0 0 0
900000000 0.298776626 0.261164605 -0.031242193 -0.015427429 0 0 0 0
908000000 0.257745891 0.140649512 -0.040699485 0.011860716 0 0 0 0
916000000 0.201252296 0.100775957 -0.023061156 0.042493928 0 0 0 0
924000000 0.161422699 0.077602267 0.015096625 0.048902582 0 0 0 0
932000000 0.082262262 0.110067047 0.04678563 0.021077448 0 0 0 0
940000000 0.077879682 0.245847433 0.042342916 -0.018530881 0 0 0 0
948000000 0.278552919 0.338724911 0.013526749 -0.034777149 0 0 0 0
956000000 0.462381154 0.225627765 -0.0068206 -0.026756862 0 0 0 0
964000000 0.561208963 -0.013745623 -0.014681928 -0.014098786 0 0 0 0
972000000 0.498041033 -0.265838921 -0.015575079 -0.003563206 0 0 0 0
980000000 0.310210168 -0.47103706 -0.011443626 0.002709919 0 0 0 0
988000000 0.04332897 -0.54851526 -0.007836941 0.005027115 0 0 0 0
996000000 -0.244343072 -0.51521933 -0.005274543 0.005758841 0 0 0 0
1004000000 -0.478500396 -0.383959114 -0.003086773 0.006054775 0 0 0 0
