# Hz S RI R 50
700000000 0.758134484 0.555293083 -0.000135144 0.000712788 0 0 0 0
708000000 0.866743028 0.306447118 -7.8119e-05 0.001017106 0 0 0 0
716000000 0.897283017 0.031989991 2.152e-05 0.001327453 0 0 0 0
724000000 0.841720998 -0.24598968 0.000232797 0.00145578 0 0 0 0
732000000 0.697499632 -0.504699647 0.000474163 0.001588692 0 0 0 0
740000000 0.459343135 -0.700361847 0.000968776 0.001644135 0 0 0 0
748000000 0.148190245 -0.798225998 0.001290753 0.00142735 0 0 0 0
756000000 -0.18956843 -0.761269092 0.001424838 0.000862696 0 0 0 0
764000000 -0.494182169 -0.559640705 0.001676536 0.000590488 0 0 0 0
772000000 -0.664357662 -0.20426701 0.001532888 0.000167031 0 0 0 0
780000000 -0.60779941 0.221419572 0.001335531 -0.000477678 0 0 0 0
788000000 -0.263645738 0.536433517 0.000738368 -0.00153557 0 0 0 0
796000000 0.227571368 0.542150378 -0.001097221 -0.002377732 0 0 0 0
804000000 0.574373245 0.204132288 -0.003754968 -0.00067477 0 0 0 0
812000000 0.576091945 -0.263526439 -0.003921372 0.002683805 0 0 0 0
820000000 0.295563548 -0.574109077 -0.001096591 0.005036769 0 0 0 0
828000000 -0.083768352 -0.654912352 0.001787155 0.004747578 0 0 0 0
836000000 -0.406459271 -0.534826576 0.004245315 0.003391905 0 0 0 0
844000000 -0.624955832 -0.299310564 0.005535107 0.001278932 0 0 0 0
852000000 -0.715932548 -0.020115034 0.006522166 -0.000507092 0 0 0 0
860000000 -0.686779677 0.249971061 0.007533388 -0.00303527 0 0 0 0
868000000 -0.558924198 0.464437901 0.007679726 -0.006780307 0 0 0 0
876000000 -0.35144487 0.590713918 0.006527656 -0.011167831 0 0 0 0
884000000 -0.115389086 0.599293947 0.002190236 -0.01645952 0 0 0 0
892000000 0.080581508 0.486085951 -0.008090956 -0.020366685 0 0 0 0
900000000 0.338092654 0.270141392 -0.025699744 -0.01457149 0 0 0 0
908000000 0.296250253 0.136311352 -0.035998981 0.008411202 0 0 0 0
916000000 0.225177481 0.072409674 -0.022748554 0.035926643 0 0 0 0
924000000 0.166143447 0.03474025 0.009372541 0.044967804 0 0 0 0
932000000 0.070207834 0.067895099 0.040921743 0.024479106 0 0 0 0
940000000 0.048818431 0.220072403 0.043466262 -0.013115893 0 0 0 0
948000000 0.230982273 0.332042306 0.018179642 -0.033739149 0 0 0 0
956000000 0.437988579 0.249154493 -0.005210012 -0.02906068 0 0 0 0
964000000 0.558974623 0.020594643 -0.015700096 -0.015718661 0 0 0 0
972000000 0.513704955 -0.238688826 -0.016240552 -0.003701034 0 0 0 0
980000000 0.322298169 -0.456186741 -0.01216122 0.003494458 0 0 0 0
988000000 0.066516853 -0.550728261 -0.007400536 0.005833552 0 0 0 0
996000000 -0.222413018 -0.525509417 -0.00443056 0.005996599 0 0 0 0
1004000000 -0.469287365 -0.38869822 -0.003085384 0.006214548 0 0 0 0
