# Hz S RI R 50
700000000 0.759180009 0.558389723 -3.3288e-05 0.000737483 0 0 0 0
708000000 0.864238142 0.310036182 -3.6501e-05 0.001092187 0 0 0 0
716000000 0.899321317 0.032131806 9.5329e-05 0.001351622 0 0 0 0
724000000 0.844549775 -0.24223347 0.000128036 0.00149076 0 0 0 0
732000000 0.697026312 -0.501730024 0.000619481 0.001629631 0 0 0 0
740000000 0.457994073 -0.703919291 0.000969973 0.001585191 0 0 0 0
748000000 0.149787187 -0.799918174 0.001264789 0.001249781 0 0 0 0
756000000 -0.188781574 -0.759960055 0.001512555 0.00091291 0 0 0 0
764000000 -0.493051618 -0.558752596 0.001479063 0.00042315 0 0 0 0
772000000 -0.665806055 -0.202676549 0.001542878 -6.102e-05 0 0 0 0
780000000 -0.601469933 0.217440724 0.001603951 -0.000913138 0 0 0 0
788000000 -0.261698484 0.533210575 0.000400482 -0.001858179 0 0 0 0
796000000 0.230065003 0.533146977 -0.001902861 -0.002198664 0 0 0 0
804000000 0.568941354 0.19358012 -0.004170115 -6.175e-06 0 0 0 0
812000000 0.567499577 -0.268839359 -0.003762977 0.003411396 0 0 0 0
820000000 0.283788919 -0.572984337 -0.00031329 0.005491598 0 0 0 0
828000000 -0.092851445 -0.646375417 0.002686294 0.004650814 0 0 0 0
836000000 -0.41169694 -0.520341038 0.004684982 0.002635477 0 0 0 0
844000000 -0.619579792 -0.282858639 0.005490892 0.000519822 0 0 0 0
852000000 -0.703166902 -0.006356342 0.006115411 -0.001352693 0 0 0 0
860000000 -0.670809209 0.257658809 0.006440124 -0.003719335 0 0 0 0
868000000 -0.535434842 0.460248857 0.006210995 -0.006590994 0 0 0 0
876000000 -0.32173255 0.570470094 0.005038078 -0.010045909 0 0 0 0
884000000 -0.105801783 0.564743518 0.001297223 -0.014026441 0 0 0 0
892000000 0.061173312 0.446159452 -0.007111924 -0.017078353 0 0 0 0
900000000 0.285938709 0.262289732 -0.022763254 -0.011791763 0 0 0 0
908000000 0.247821033 0.160681948 -0.029651785 0.006236339 0 0 0 0
916000000 0.224233478 0.110173232 -0.01951787 0.027897862 0 0 0 0
924000000 0.172692656 0.07533089 0.00488562 0.036466903 0 0 0 0
932000000 0.096484474 0.086454205 0.031183693 0.022031396 0 0 0 0
940000000 0.072960235 0.206656396 0.035640139 -0.006781211 0 0 0 0
948000000 0.248983874 0.321789771 0.017541283 -0.02535765 0 0 0 0
956000000 0.439224451 0.222676366 -0.00068216 -0.023237228 0 0 0 0
964000000 0.550236403 0.004162952 -0.010573522 -0.014363685 0 0 0 0
972000000 0.497173845 -0.244946107 -0.012911964 -0.005417899 0 0 0 0
980000000 0.319740831 -0.463201016 -0.009755883 0.000893252 0 0 0 0
988000000 0.048723772 -0.551353216 -0.007417776 0.003353555 0 0 0 0
996000000 -0.239643439 -0.515217483 -0.005478251 0.004062651 0 0 0 0
1004000000 -0.471868634 -0.383770942 -0.003774009 0.004990773 0 0 0 0
