# Hz S RI R 50
700000000 0.761644124 0.557146966 -2.6906e-05 0.000676321 0 0 0 0
708000000 0.865113079 0.30840519 -7.1814e-05 0.000941271 0 0 0 0
716000000 0.895841836 0.033743314 5.898e-05 0.001409814 0 0 0 0
724000000 0.840420603 -0.247315749 0.000201764 0.001552005 0 0 0 0
732000000 0.694624543 -0.502453088 0.000605169 0.001559943 0 0 0 0
740000000 0.457636058 -0.700878918 0.000897388 0.001617344 0 0 0 0
748000000 0.151014104 -0.798995673 0.001316091 0.001391588 0 0 0 0
756000000 -0.189608007 -0.7589522 0.001591099 0.000917269 0 0 0 0
764000000 -0.493509232 -0.556137561 0.00156425 0.000525682 0 0 0 0
772000000 -0.665404558 -0.203683242 0.001484266 -1.6953e-05 0 0 0 0
780000000 -0.603214561 0.2191841 0.001406806 -0.000622105 0 0 0 0
788000000 -0.257212311 0.534061789 0.000592483 -0.001870215 0 0 0 0
796000000 0.229293361 0.530228435 -0.001622887 -0.002090056 0 0 0 0
804000000 0.568853497 0.187305524 -0.003943125 -0.000394654 0 0 0 0
812000000 0.562031924 -0.269376277 -0.003760038 0.002974337 0 0 0 0
820000000 0.282842814 -0.570771932 -0.000939622 0.004923866 0 0 0 0
828000000 -0.093046493 -0.6423738 0.001890338 0.004680624 0 0 0 0
836000000 -0.410111039 -0.519032657 0.004032943 0.003077517 0 0 0 0
844000000 -0.619716048 -0.279537469 0.005254399 0.001056221 0 0 0 0
852000000 -0.70253539 -0.004610416 0.006234768 -0.000578294 0 0 0 0
860000000 -0.669370353 0.257658481 0.006944237 -0.002609615 0 0 0 0
868000000 -0.531401336 0.462736755 0.007391368 -0.005783434 0 0 0 0
876000000 -0.32066372 0.571066021 0.006969161 -0.009935871 0 0 0 0
884000000 -0.105078361 0.562222838 0.00366099 -0.015532409 0 0 0 0
892000000 0.064975991 0.443956255 -0.00567801 -0.020576965 0 0 0 0
900000000 0.296438544 0.248666882 -0.024517459 -0.016665073 0 0 0 0
908000000 0.246628746 0.151285722 -0.036715958 0.004852154 0 0 0 0
916000000 0.196538984 0.117739208 -0.026287358 0.034122224 0 0 0 0
924000000 0.15765734 0.084235392 0.00604978 0.046486485 0 0 0 0
932000000 0.100834645 0.109813019 0.039871223 0.027160281 0 0 0 0
940000000 0.087792567 0.218466758 0.044348657 -0.011250143 0 0 0 0
948000000 0.25912109 0.321197271 0.019011843 -0.032934155 0 0 0 0
956000000 0.456647813 0.222913473 -0.004673707 -0.028169373 0 0 0 0
964000000 0.554745018 -0.004160461 -0.014581158 -0.015390444 0 0 0 0
972000000 0.493330448 -0.251905798 -0.015434919 -0.003921383 0 0 0 0
980000000 0.318279892 -0.464195787 -0.011298356 0.002783385 0 0 0 0
988000000 0.045420397 -0.546623349 -0.007917564 0.004860931 0 0 0 0
996000000 -0.239505857 -0.514241337 -0.004874437 0.004889192 0 0 0 0
1004000000 -0.474380284 -0.390881538 -0.003492431 0.005245361 0 0 0 0
