# Hz S RI R 50
700000000 0.761809766 0.554876387 7.1921e-05 0.000774008 0 0 0 0
708000000 0.867609381 0.306298762 -4.536e-05 0.001047595 0 0 0 0
716000000 0.900190889 0.030556408 -3.1858e-05 0.001250901 0 0 0 0
724000000 0.842408478 -0.251153141 0.000329951 0.001434403 0 0 0 0
732000000 0.695587754 -0.502411544 0.000682015 0.001641977 0 0 0 0
740000000 0.456600248 -0.702847778 0.00102799 0.001484765 0 0 0 0
748000000 0.149218857 -0.802344262 0.001431406 0.001249162 0 0 0 0
756000000 -0.190800622 -0.757523 0.001767519 0.000880514 0 0 0 0
764000000 -0.493994534 -0.557330429 0.001616081 0.000282454 0 0 0 0
772000000 -0.662988364 -0.199788004 0.001618329 -0.000221119 0 0 0 0
780000000 -0.599944651 0.223203808 0.001324282 -0.000736458 0 0 0 0
788000000 -0.255093544 0.535019636 0.000434711 -0.001827711 0 0 0 0
796000000 0.233025565 0.528336703 -0.00180421 -0.002102374 0 0 0 0
804000000 0.566446304 0.186710789 -0.003933789 -1.0574e-05 0 0 0 0
812000000 0.559343218 -0.26921314 -0.003309854 0.003405608 0 0 0 0
820000000 0.277273118 -0.568051576 -8.768e-06 0.005121261 0 0 0 0
828000000 -0.096797734 -0.638022065 0.00250237 0.004037566 0 0 0 0
836000000 -0.410986781 -0.512106418 0.004143492 0.002437612 0 0 0 0
844000000 -0.617536246 -0.280587404 0.004964489 0.000581781 0 0 0 0
852000000 -0.695818066 -0.00712132 0.005660784 -0.000899378 0 0 0 0
860000000 -0.663469552 0.253339111 0.006335536 -0.002785659 0 0 0 0
868000000 -0.527041018 0.453480601 0.00699444 -0.005621849 0 0 0 0
876000000 -0.322372972 0.565395593 0.006786486 -0.009461928 0 0 0 0
884000000 -0.109734334 0.560654878 0.003587098 -0.015296603 0 0 0 0
892000000 0.055206682 0.447285294 -0.005680248 -0.020357236 0 0 0 0
900000000 0.287957668 0.258948475 -0.023539021 -0.016007339 0 0 0 0
908000000 0.260688692 0.15857613 -0.036492682 0.004628887 0 0 0 0
916000000 0.207896456 0.107514232 -0.026496775 0.034359719 0 0 0 0
924000000 0.160576552 0.074288249 0.007384288 0.047575302 0 0 0 0
932000000 0.09785217 0.102839007 0.042812261 0.026669608 0 0 0 0
940000000 0.087214216 0.224567234 0.043567694 -0.013926317 0 0 0 0
948000000 0.259855449 0.328981757 0.016047904 -0.03299643 0 0 0 0
956000000 0.457974433 0.219933331 -0.005141905 -0.026855506 0 0 0 0
964000000 0.569952666 -0.0053938 -0.014060985 -0.014021789 0 0 0 0
972000000 0.501458168 -0.257430702 -0.014382274 -0.003819324 0 0 0 0
980000000 0.314439356 -0.460595786 -0.011068602 0.001954406 0 0 0 0
988000000 0.035640504 -0.555695116 -0.007843679 0.004743841 0 0 0 0
996000000 -0.240815892 -0.513207435 -0.005752005 0.004608512 0 0 0 0
1004000000 -0.475230544 -0.387182146 -0.003954368 0.005736463 0 0 0 0
