# Hz S RI R 50
700000000 0.757165908 0.558682739 -0.000118809 0.000766615 0 0 0 0
708000000 0.866856753 0.306063562 -1.3694e-05 0.001044994 0 0 0 0
716000000 0.900375366 0.036012139 -4.1034e-05 0.001241114 0 0 0 0
724000000 0.84882611 -0.244975596 0.000210896 0.001459414 0 0 0 0
732000000 0.695749878 -0.501859545 0.000610785 0.001445208 0 0 0 0
740000000 0.45950368 -0.701019048 0.000909198 0.001593042 0 0 0 0
748000000 0.149586185 -0.800354123 0.001385702 0.001289391 0 0 0 0
756000000 -0.189997464 -0.76203072 0.001576418 0.000873754 0 0 0 0
764000000 -0.492718905 -0.558791041 0.001719762 0.000434471 0 0 0 0
772000000 -0.667440056 -0.20734626 0.001513942 -7.2727e-05 0 0 0 0
780000000 -0.605680763 0.220622316 0.001367393 -0.000788006 0 0 0 0
788000000 -0.265394806 0.53852868 0.000693918 -0.001500097 0 0 0 0
796000000 0.224637985 0.539224207 -0.001438292 -0.00208641 0 0 0 0
804000000 0.571968436 0.198307141 -0.003689822 -0.000415588 0 0 0 0
812000000 0.573525726 -0.266470968 -0.003348408 0.002557187 0 0 0 0
820000000 0.293144315 -0.573404252 -0.000792639 0.004776719 0 0 0 0
828000000 -0.084689989 -0.650750517 0.001899462 0.004386123 0 0 0 0
836000000 -0.407974839 -0.528632521 0.003620234 0.002771229 0 0 0 0
844000000 -0.623370349 -0.29631105 0.004782627 0.001228117 0 0 0 0
852000000 -0.707746505 -0.019668523 0.005769573 -0.000299014 0 0 0 0
860000000 -0.68198353 0.249519363 0.006817896 -0.00226044 0 0 0 0
868000000 -0.55146712 0.462191313 0.007511548 -0.005384686 0 0 0 0
876000000 -0.342685997 0.580394327 0.007226559 -0.009545866 0 0 0 0
884000000 -0.121948495 0.591166317 0.004200887 -0.015322123 0 0 0 0
892000000 0.06831181 0.484241485 -0.005123378 -0.020608047 0 0 0 0
900000000 0.326806932 0.286914706 -0.024760851 -0.017101464 0 0 0 0
908000000 0.303305685 0.145011752 -0.036233734 0.003889716 0 0 0 0
916000000 0.247236877 0.07864426 -0.027028821 0.032567892 0 0 0 0
924000000 0.176858514 0.041277002 0.004312514 0.046100042 0 0 0 0
932000000 0.081309191 0.063724219 0.037123113 0.028876718 0 0 0 0
940000000 0.041685115 0.206694051 0.04367233 -0.007556227 0 0 0 0
948000000 0.229101091 0.324227184 0.020651027 -0.030831875 0 0 0 0
956000000 0.430850714 0.249486163 -0.001402047 -0.028368564 0 0 0 0
964000000 0.554287195 0.013611815 -0.012932374 -0.017205463 0 0 0 0
972000000 0.506434619 -0.234452456 -0.015702338 -0.005643852 0 0 0 0
980000000 0.326716303 -0.443462729 -0.011773524 0.00153622 0 0 0 0
988000000 0.065919578 -0.54329127 -0.008718238 0.004694694 0 0 0 0
996000000 -0.223523378 -0.518982589 -0.006327705 0.005726744 0 0 0 0
1004000000 -0.458761632 -0.38660559 -0.003807522 0.006229074 0 0 0 0
