# Hz S RI R 50
700000000 0.761341333 0.555362164 -0.000111539 0.000762664 0 0 0 0
708000000 0.866411626 0.309681981 -5.974e-05 0.001000453 0 0 0 0
716000000 0.900549054 0.035174548 0.000128751 0.001368444 0 0 0 0
724000000 0.841216802 -0.247934013 0.000279153 0.001557371 0 0 0 0
732000000 0.69655019 -0.502788484 0.000653716 0.001558344 0 0 0 0
740000000 0.455579966 -0.700226128 0.000917155 0.001610188 0 0 0 0
748000000 0.150724619 -0.798627972 0.001359435 0.001252952 0 0 0 0
756000000 -0.190164297 -0.759435296 0.001508111 0.001059793 0 0 0 0
764000000 -0.495560497 -0.557464063 0.00179953 0.000461026 0 0 0 0
772000000 -0.665689826 -0.206718653 0.001683686 -4.7633e-05 0 0 0 0
780000000 -0.603733539 0.220865756 0.001576134 -0.000763245 0 0 0 0
788000000 -0.263722062 0.536945283 0.000547375 -0.001774161 0 0 0 0
796000000 0.230686545 0.537332057 -0.001683757 -0.00225936 0 0 0 0
804000000 0.573169648 0.194683298 -0.004438117 -0.000395495 0 0 0 0
812000000 0.570312559 -0.266205459 -0.003927031 0.003482487 0 0 0 0
820000000 0.290914148 -0.575929224 -0.000388455 0.005510281 0 0 0 0
828000000 -0.089704878 -0.650568246 0.002678123 0.004901944 0 0 0 0
836000000 -0.414077103 -0.526522517 0.004579126 0.002911396 0 0 0 0
844000000 -0.624100625 -0.288062214 0.00582853 0.000539702 0 0 0 0
852000000 -0.708647906 -0.008995926 0.006463633 -0.001594754 0 0 0 0
860000000 -0.677414774 0.261348605 0.006936182 -0.004033254 0 0 0 0
868000000 -0.539058566 0.465434104 0.006498108 -0.007235656 0 0 0 0
876000000 -0.327001214 0.576656579 0.004720291 -0.010484453 0 0 0 0
884000000 -0.102207899 0.574488818 0.000602729 -0.014361076 0 0 0 0
892000000 0.07022082 0.448806703 -0.007790308 -0.016541918 0 0 0 0
900000000 0.301196724 0.25184068 -0.021151922 -0.01092649 0 0 0 0
908000000 0.260385185 0.158532008 -0.028801826 0.007139489 0 0 0 0
916000000 0.220243602 0.111141435 -0.018694935 0.027773192 0 0 0 0
924000000 0.176795333 0.066268205 0.005802255 0.035666394 0 0 0 0
932000000 0.085229791 0.081634812 0.030378943 0.021105341 0 0 0 0
940000000 0.062228981 0.210063219 0.034823641 -0.006508331 0 0 0 0
948000000 0.252974778 0.323891967 0.017651304 -0.02486396 0 0 0 0
956000000 0.435225725 0.234508708 -0.001206715 -0.024175146 0 0 0 0
964000000 0.544031083 0.010050597 -0.010692756 -0.014273465 0 0 0 0
972000000 0.50217086 -0.246995404 -0.012730457 -0.005316745 0 0 0 0
980000000 0.315248131 -0.453911453 -0.009798969 0.000594304 0 0 0 0
988000000 0.056165013 -0.551769375 -0.007066497 0.003465259 0 0 0 0
996000000 -0.227296903 -0.5169999 -0.005318638 0.003766219 0 0 0 0
1004000000 -0.47249785 -0.394213289 -0.004222125 0.004467776 0 0 0 0
