# Hz S RI R 50
700000000 0.76060456 0.551896333 -9.3551e-05 0.000810551 0 0 0 0
708000000 0.865547239 0.306074887 2.3674e-05 0.000980171 0 0 0 0
716000000 0.896924436 0.036324914 2.819e-05 0.00142024 0 0 0 0
724000000 0.843592703 -0.245922282 0.000180136 0.001379113 0 0 0 0
732000000 0.69388467 -0.504469633 0.000644442 0.001663842 0 0 0 0
740000000 0.456607639 -0.699515402 0.000819312 0.001674955 0 0 0 0
748000000 0.146834135 -0.797781944 0.001288762 0.001489445 0 0 0 0
756000000 -0.190439864 -0.756708621 0.001672762 0.000987239 0 0 0 0
764000000 -0.492599725 -0.556384861 0.001719395 0.000501327 0 0 0 0
772000000 -0.663270235 -0.200382828 0.0016208 8.47e-07 0 0 0 0
780000000 -0.600110292 0.223405539 0.00146984 -0.000657875 0 0 0 0
788000000 -0.254070967 0.533513009 0.000482487 -0.001944083 0 0 0 0
796000000 0.23424977 0.52921319 -0.001645943 -0.002368782 0 0 0 0
804000000 0.567750155 0.181579783 -0.003906112 -0.00042472 0 0 0 0
812000000 0.556907713 -0.273859471 -0.003592846 0.002900723 0 0 0 0
820000000 0.277445822 -0.571839988 -0.000759313 0.00504881 0 0 0 0
828000000 -0.09761554 -0.637876927 0.002009626 0.004581371 0 0 0 0
836000000 -0.411269962 -0.512058556 0.003991439 0.003024678 0 0 0 0
844000000 -0.615226805 -0.278438061 0.00531927 0.001007701 0 0 0 0
852000000 -0.698853194 -0.006424563 0.006211764 -0.000556733 0 0 0 0
860000000 -0.666208386 0.256588131 0.007060739 -0.002612935 0 0 0 0
868000000 -0.532962858 0.455241143 0.007504612 -0.005748986 0 0 0 0
876000000 -0.326220452 0.571056604 0.007072096 -0.010085919 0 0 0 0
884000000 -0.110795035 0.562359809 0.003626578 -0.015716008 0 0 0 0
892000000 0.059462897 0.445776939 -0.006138694 -0.020711995 0 0 0 0
900000000 0.297164469 0.256340175 -0.025578072 -0.016398714 0 0 0 0
908000000 0.259355694 0.152252629 -0.03655697 0.00538098 0 0 0 0
916000000 0.210978657 0.10508085 -0.026285085 0.034548744 0 0 0 0
924000000 0.15888451 0.069976888 0.006725993 0.045986708 0 0 0 0
932000000 0.086089067 0.105881229 0.039685945 0.026696294 0 0 0 0
940000000 0.087670519 0.229437485 0.04289975 -0.011587659 0 0 0 0
948000000 0.265539646 0.326156228 0.017991883 -0.031672324 0 0 0 0
956000000 0.461306542 0.229879796 -0.003888241 -0.027229217 0 0 0 0
964000000 0.558742165 -0.002825716 -0.01355847 -0.015592319 0 0 0 0
972000000 0.504514813 -0.256606817 -0.015215065 -0.004606829 0 0 0 0
980000000 0.309025228 -0.467906862 -0.011586606 0.001178793 0 0 0 0
988000000 0.045280516 -0.550173163 -0.008564501 0.004532715 0 0 0 0
996000000 -0.24366568 -0.519674956 -0.005776489 0.005393296 0 0 0 0
1004000000 -0.477830857 -0.379657119 -0.004222355 0.005632609 0 0 0 0
