# Hz S RI R 50
700000000 0.756294667 0.554116427 -0.000115776 0.000759908 0 0 0 0
708000000 0.865770459 0.304968833 -4.2033e-05 0.00101933 0 0 0 0
716000000 0.898551225 0.033268585 2.5376e-05 0.001381717 0 0 0 0
724000000 0.839432597 -0.246793553 0.000292835 0.001594544 0 0 0 0
732000000 0.694786071 -0.504335463 0.000557311 0.001728958 0 0 0 0
740000000 0.456705421 -0.699468851 0.000912041 0.001729504 0 0 0 0
748000000 0.147902697 -0.799476742 0.001427914 0.001393406 0 0 0 0
756000000 -0.192736789 -0.758201301 0.00154699 0.000896046 0 0 0 0
764000000 -0.494629114 -0.555243194 0.001745412 0.000330352 0 0 0 0
772000000 -0.664256572 -0.200321137 0.001605296 6.9711e-05 0 0 0 0
780000000 -0.599938333 0.224260568 0.001377528 -0.000727898 0 0 0 0
788000000 -0.253516882 0.540037393 0.000730972 -0.001888649 0 0 0 0
796000000 0.237988993 0.533620595 -0.001537374 -0.002279889 0 0 0 0
804000000 0.577895045 0.184872627 -0.004032586 -0.00076151 0 0 0 0
812000000 0.564617872 -0.276559323 -0.003868539 0.002576262 0 0 0 0
820000000 0.282090961 -0.579147517 -0.001194951 0.005217832 0 0 0 0
828000000 -0.095472976 -0.646463751 0.002010185 0.004865793 0 0 0 0
836000000 -0.416587263 -0.520604193 0.004064578 0.003443 0 0 0 0
844000000 -0.623614132 -0.284834712 0.005363953 0.001128298 0 0 0 0
852000000 -0.707699358 -0.007797277 0.006373165 -0.000646963 0 0 0 0
860000000 -0.674385428 0.258391976 0.00742205 -0.002871592 0 0 0 0
868000000 -0.540279448 0.466534763 0.00753389 -0.006201705 0 0 0 0
876000000 -0.330109506 0.579786658 0.006653789 -0.010559692 0 0 0 0
884000000 -0.110618948 0.577905714 0.002768225 -0.015685981 0 0 0 0
892000000 0.06842336 0.462782025 -0.006609517 -0.019541423 0 0 0 0
900000000 0.304326385 0.268612802 -0.024183467 -0.014708126 0 0 0 0
908000000 0.283449083 0.150063335 -0.033752512 0.005994127 0 0 0 0
916000000 0.236029714 0.081436626 -0.022823013 0.030693694 0 0 0 0
924000000 0.160979941 0.043430253 0.00495034 0.041148029 0 0 0 0
932000000 0.065170183 0.085896074 0.034162465 0.025315646 0 0 0 0
940000000 0.0570909 0.230127796 0.039233144 -0.006709177 0 0 0 0
948000000 0.247582569 0.328098654 0.019586231 -0.026815 0 0 0 0
956000000 0.442493498 0.232790634 -0.000508549 -0.026552993 0 0 0 0
964000000 0.545361936 0.010937142 -0.01142221 -0.016069712 0 0 0 0
972000000 0.494092792 -0.247588276 -0.01464309 -0.005950852 0 0 0 0
980000000 0.314579129 -0.459409117 -0.011704269 0.000906423 0 0 0 0
988000000 0.057418331 -0.539709746 -0.008591849 0.004074863 0 0 0 0
996000000 -0.231770142 -0.511485576 -0.005556548 0.005125875 0 0 0 0
1004000000 -0.464262485 -0.397605985 -0.003727387 0.005728168 0 0 0 0
