# Hz S RI R 50
700000000 0.759203612 0.551879048 -0.0001446 0.000678606 0 0 0 0
708000000 0.868051946 0.306074172 -0.000133629 0.001021937 0 0 0 0
716000000 0.89977616 0.031085701 -9.6122e-05 0.001292846 0 0 0 0
724000000 0.845673203 -0.249304816 0.000382887 0.001477251 0 0 0 0
732000000 0.695964217 -0.503248095 0.000626108 0.001632245 0 0 0 0
740000000 0.459941715 -0.703372061 0.000707108 0.001543634 0 0 0 0
748000000 0.15006487 -0.800036907 0.001191643 0.001447791 0 0 0 0
756000000 -0.19022648 -0.761095225 0.001494033 0.001127237 0 0 0 0
764000000 -0.497033894 -0.561293661 0.001567676 0.00058349 0 0 0 0
772000000 -0.665939867 -0.206089511 0.00163526 0.000203325 0 0 0 0
780000000 -0.608584225 0.220196336 0.001469957 -0.000633047 0 0 0 0
788000000 -0.266377389 0.539281725 0.000853973 -0.001672213 0 0 0 0
796000000 0.225904166 0.54218173 -0.001198124 -0.002270147 0 0 0 0
804000000 0.575385689 0.199102237 -0.003686588 -0.00077234 0 0 0 0
812000000 0.574113905 -0.265009582 -0.003709828 0.002703633 0 0 0 0
820000000 0.292796909 -0.578591406 -0.00086301 0.004882404 0 0 0 0
828000000 -0.09001632 -0.654062926 0.001782494 0.004374767 0 0 0 0
836000000 -0.414871335 -0.529028415 0.003656369 0.00277766 0 0 0 0
844000000 -0.628861844 -0.290028125 0.004832149 0.00106206 0 0 0 0
852000000 -0.70987159 -0.010558286 0.005716542 -0.000573754 0 0 0 0
860000000 -0.67987734 0.258470416 0.006511558 -0.002493947 0 0 0 0
868000000 -0.542521834 0.46881172 0.006949072 -0.005308187 0 0 0 0
876000000 -0.332560956 0.581685662 0.00663312 -0.008675511 0 0 0 0
884000000 -0.106182731 0.581313669 0.004138719 -0.013808945 0 0 0 0
892000000 0.071903981 0.461012989 -0.003553353 -0.019132137 0 0 0 0
900000000 0.302721261 0.258650481 -0.020359605 -0.016749614 0 0 0 0
908000000 0.267543852 0.146981939 -0.033407252 0.000831612 0 0 0 0
916000000 0.220561057 0.098982721 -0.027362428 0.027360083 0 0 0 0
924000000 0.169953763 0.056629657 -0.00072841 0.042651131 0 0 0 0
932000000 0.090075142 0.072516381 0.032146241 0.031483814 0 0 0 0
940000000 0.064862549 0.208486318 0.043089266 -0.003746907 0 0 0 0
948000000 0.234095409 0.325211316 0.022191666 -0.0281408 0 0 0 0
956000000 0.42962256 0.245459571 0.000719152 -0.02748027 0 0 0 0
964000000 0.561629652 0.020185546 -0.011119467 -0.016690298 0 0 0 0
972000000 0.520954608 -0.246028795 -0.014382283 -0.006488642 0 0 0 0
980000000 0.324042648 -0.462177634 -0.011631035 4.6785e-05 0 0 0 0
988000000 0.064089305 -0.559621155 -0.008528447 0.003360837 0 0 0 0
996000000 -0.225934788 -0.521354734 -0.005868204 0.004457675 0 0 0 0
1004000000 -0.477571815 -0.389348953 -0.004289404 0.005948858 0 0 0 0
