# Hz S RI R 50
700000000 0.756446659 0.554753601 -0.000209265 0.000898664 0 0 0 0
708000000 0.868502497 0.307889461 -0.000134656 0.001097281 0 0 0 0
716000000 0.901318371 0.035203047 -4.1805e-05 0.001561077 0 0 0 0
724000000 0.845644533 -0.250303626 0.000406448 0.001691645 0 0 0 0
732000000 0.699258089 -0.503876984 0.000727327 0.002034469 0 0 0 0
740000000 0.464527457 -0.70069766 0.001301268 0.001837897 0 0 0 0
748000000 0.156308725 -0.802449882 0.001612876 0.0015627 0 0 0 0
756000000 -0.184538483 -0.767955064 0.0021344 0.000877032 0 0 0 0
764000000 -0.488317489 -0.571605026 0.00212835 0.000179947 0 0 0 0
772000000 -0.666155159 -0.223556995 0.00220199 -0.000537491 0 0 0 0
780000000 -0.621135354 0.200905308 0.001855604 -0.001569528 0 0 0 0
788000000 -0.292828679 0.530311048 0.000904477 -0.003045375 0 0 0 0
796000000 0.194134533 0.561213672 -0.001988434 -0.003793955 0 0 0 0
804000000 0.562003612 0.238786146 -0.005530722 -0.001833229 0 0 0 0
812000000 0.593211591 -0.225789666 -0.006208483 0.002608883 0 0 0 0
820000000 0.329677075 -0.558572113 -0.003321023 0.006249427 0 0 0 0
828000000 -0.050640478 -0.658545196 0.000602726 0.007181361 0 0 0 0
836000000 -0.383024543 -0.55213654 0.003395216 0.006078958 0 0 0 0
844000000 -0.607338011 -0.324395686 0.006171932 0.004380423 0 0 0 0
852000000 -0.71082592 -0.051998663 0.008487395 0.002353606 0 0 0 0
860000000 -0.700687229 0.219733491 0.011139795 -0.000785158 0 0 0 0
868000000 -0.589114308 0.440405011 0.01268537 -0.006100045 0 0 0 0
876000000 -0.390687167 0.576540172 0.012498348 -0.012744309 0 0 0 0
884000000 -0.166916117 0.613611221 0.008208503 -0.021775852 0 0 0 0
892000000 0.035129975 0.532829165 -0.004338466 -0.030175305 0 0 0 0
900000000 0.33398202 0.355999231 -0.029642671 -0.02767642 0 0 0 0
908000000 0.362417191 0.198922589 -0.051773674 -0.001751725 0 0 0 0
916000000 0.305695891 0.078176356 -0.046477247 0.040120605 0 0 0 0
924000000 0.209908574 0.00927522 -0.004267681 0.068855427 0 0 0 0
932000000 0.102691702 0.018057228 0.050169829 0.050381068 0 0 0 0
940000000 0.05279228 0.153963461 0.066552869 -0.004888978 0 0 0 0
948000000 0.204644277 0.29797998 0.033364858 -0.043388001 0 0 0 0
956000000 0.395701706 0.236880347 -0.001108081 -0.040579259 0 0 0 0
964000000 0.526978611 0.022937083 -0.017629321 -0.023342948 0 0 0 0
972000000 0.497921764 -0.223995551 -0.020623177 -0.008211136 0 0 0 0
980000000 0.32358995 -0.437848567 -0.01646544 0.00114446 0 0 0 0
988000000 0.065759249 -0.535496413 -0.01113941 0.005770185 0 0 0 0
996000000 -0.216182619 -0.504839718 -0.007043592 0.007189961 0 0 0 0
1004000000 -0.457230567 -0.383959054 -0.004530107 0.008133569 0 0 0 0
